
[2024-12-24 10:07:53.585]# RECV HEX/8 <<<
02 03 04 04 00 01 C4 C8 

[2024-12-24 10:07:55.620]# RECV HEX/8 <<<
03 03 04 84 00 04 04 F2 

[2024-12-24 10:07:57.635]# RECV HEX/8 <<<
03 03 04 8D 00 21 15 2B 

[2024-12-24 10:07:59.654]# RECV HEX/8 <<<
03 03 06 84 00 04 05 4A 

[2024-12-24 10:08:01.670]# RECV HEX/8 <<<
03 03 04 04 00 01 C5 19 

[2024-12-24 10:08:03.698]# RECV HEX/8 <<<
04 03 04 84 00 04 05 45 

[2024-12-24 10:08:05.708]# RECV HEX/8 <<<
04 03 04 8D 00 21 14 9C 

[2024-12-24 10:08:07.732]# RECV HEX/8 <<<
04 03 06 84 00 04 04 FD 

[2024-12-24 10:08:09.761]# RECV HEX/8 <<<
04 03 04 04 00 01 C4 AE 

[2024-12-24 10:08:11.775]# RECV HEX/8 <<<
05 03 04 84 00 04 04 94 

[2024-12-24 10:08:13.784]# RECV HEX/8 <<<
05 03 04 8D 00 21 15 4D 

[2024-12-24 10:08:15.814]# RECV HEX/8 <<<
05 03 06 84 00 04 05 2C 

[2024-12-24 10:08:17.842]# RECV HEX/8 <<<
05 03 04 04 00 01 C5 7F 

[2024-12-24 10:08:19.856]# RECV HEX/8 <<<
05 03 04 04 00 01 C5 7F 

[2024-12-24 10:08:21.868]# RECV HEX/8 <<<
05 03 04 04 00 01 C5 7F 

[2024-12-24 10:08:23.891]# RECV HEX/8 <<<
06 03 04 84 00 04 04 A7 

[2024-12-24 10:08:25.920]# RECV HEX/8 <<<
06 03 04 8D 00 21 15 7E 

[2024-12-24 10:08:27.935]# RECV HEX/8 <<<
06 03 06 84 00 04 05 1F 

[2024-12-24 10:08:29.942]# RECV HEX/8 <<<
06 03 04 04 00 01 C5 4C 

[2024-12-24 10:08:31.970]# RECV HEX/8 <<<
07 03 04 84 00 04 05 76 

[2024-12-24 10:08:33.984]# RECV HEX/8 <<<
07 03 04 8D 00 21 14 AF 

[2024-12-24 10:08:36.012]# RECV HEX/8 <<<
07 03 06 84 00 04 04 CE 

[2024-12-24 10:08:38.020]# RECV HEX/8 <<<
07 03 04 04 00 01 C4 9D 

[2024-12-24 10:08:40.061]# RECV HEX/8 <<<
08 03 04 84 00 04 05 89 

[2024-12-24 10:08:42.078]# RECV HEX/8 <<<
08 03 04 8D 00 21 14 50 

[2024-12-24 10:08:44.087]# RECV HEX/8 <<<
08 03 06 84 00 04 04 31 

[2024-12-24 10:08:46.109]# RECV HEX/8 <<<
08 03 04 04 00 01 C4 62 

[2024-12-24 10:08:48.126]# RECV HEX/8 <<<
09 03 04 84 00 04 04 58 

[2024-12-24 10:08:50.150]# RECV HEX/8 <<<
09 03 04 8D 00 21 15 81 

[2024-12-24 10:08:52.164]# RECV HEX/8 <<<
09 03 06 84 00 04 05 E0 

[2024-12-24 10:08:54.188]# RECV HEX/8 <<<
09 03 04 04 00 01 C5 B3 

[2024-12-24 10:08:56.219]# RECV HEX/21 <<<
0A 03 04 84 00 04 04 6B 0A 03 08 13 85 03 87 FF D7 03 8D D1 B6 

[2024-12-24 10:08:58.299]# RECV HEX/79 <<<
0A 03 04 8D 00 21 15 B2 0A 03 42 09 14 05 16 00 00 00 00 00 00 00 00 00 00 00 00 00 00 00 00 00 00 09 0F 05 1A 00 00 00 00 00 00 00 00 00 00 00 00 00 00 00 00 00 00 09 1A 05 16 00 00 00 00 00 00 00 00 00 00 00 00 00 00 00 00 00 00 F1 0E 

[2024-12-24 10:09:00.281]# RECV HEX/21 <<<
0A 03 06 84 00 04 05 D3 0A 03 08 00 00 02 FE 00 03 24 90 73 A9 

[2024-12-24 10:09:02.273]# RECV HEX/15 <<<
0A 03 04 04 00 01 C5 80 0A 03 02 00 02 9C 44 

[2024-12-24 10:09:04.302]# RECV HEX/15 <<<
0A 03 04 04 00 01 C5 80 0A 03 02 00 02 9C 44 

[2024-12-24 10:09:06.310]# RECV HEX/15 <<<
0A 03 04 04 00 01 C5 80 0A 03 02 00 02 9C 44 

[2024-12-24 10:09:08.321]# RECV HEX/8 <<<
01 03 04 84 00 04 05 10 

[2024-12-24 10:09:10.349]# RECV HEX/8 <<<
01 03 04 8D 00 21 14 C9 

[2024-12-24 10:09:12.379]# RECV HEX/8 <<<
01 03 06 84 00 04 04 A8 

[2024-12-24 10:09:14.387]# RECV HEX/8 <<<
01 03 04 04 00 01 C4 FB 

[2024-12-24 10:09:16.419]# RECV HEX/8 <<<
02 03 04 84 00 04 05 23 

[2024-12-24 10:09:18.432]# RECV HEX/8 <<<
02 03 04 8D 00 21 14 FA 

[2024-12-24 10:09:20.457]# RECV HEX/8 <<<
02 03 06 84 00 04 04 9B 

[2024-12-24 10:09:22.472]# RECV HEX/8 <<<
02 03 04 04 00 01 C4 C8 

[2024-12-24 10:09:24.498]# RECV HEX/8 <<<
03 03 04 84 00 04 04 F2 

[2024-12-24 10:09:26.510]# RECV HEX/8 <<<
03 03 04 8D 00 21 15 2B 

[2024-12-24 10:09:28.530]# RECV HEX/8 <<<
03 03 06 84 00 04 05 4A 

[2024-12-24 10:09:30.545]# RECV HEX/8 <<<
03 03 04 04 00 01 C5 19 

[2024-12-24 10:09:32.575]# RECV HEX/8 <<<
04 03 04 84 00 04 05 45 

[2024-12-24 10:09:34.587]# RECV HEX/8 <<<
04 03 04 8D 00 21 14 9C 

[2024-12-24 10:09:36.610]# RECV HEX/8 <<<
04 03 06 84 00 04 04 FD 

[2024-12-24 10:09:38.638]# RECV HEX/8 <<<
04 03 04 04 00 01 C4 AE 

[2024-12-24 10:09:40.646]# RECV HEX/8 <<<
05 03 04 84 00 04 04 94 

[2024-12-24 10:09:42.675]# RECV HEX/8 <<<
05 03 04 8D 00 21 15 4D 

[2024-12-24 10:09:44.686]# RECV HEX/8 <<<
05 03 06 84 00 04 05 2C 

[2024-12-24 10:09:48.729]# RECV HEX/8 <<<
06 03 04 84 00 04 04 A7 

[2024-12-24 10:09:50.755]# RECV HEX/8 <<<
06 03 04 8D 00 21 15 7E 

[2024-12-24 10:09:52.781]# RECV HEX/8 <<<
06 03 06 84 00 04 05 1F 

[2024-12-24 10:09:54.795]# RECV HEX/8 <<<
06 03 04 04 00 01 C5 4C 

[2024-12-24 10:09:56.808]# RECV HEX/8 <<<
06 03 04 04 00 01 C5 4C 

[2024-12-24 10:09:58.826]# RECV HEX/8 <<<
07 03 04 84 00 04 05 76 

[2024-12-24 10:10:00.846]# RECV HEX/8 <<<
07 03 04 8D 00 21 14 AF 

[2024-12-24 10:10:02.873]# RECV HEX/8 <<<
07 03 06 84 00 04 04 CE 

[2024-12-24 10:10:04.889]# RECV HEX/8 <<<
07 03 04 04 00 01 C4 9D 

[2024-12-24 10:10:06.904]# RECV HEX/8 <<<
08 03 04 84 00 04 05 89 

[2024-12-24 10:10:08.934]# RECV HEX/8 <<<
08 03 04 8D 00 21 14 50 

[2024-12-24 10:10:10.950]# RECV HEX/8 <<<
08 03 06 84 00 04 04 31 

[2024-12-24 10:10:12.964]# RECV HEX/8 <<<
08 03 04 04 00 01 C4 62 

[2024-12-24 10:10:14.992]# RECV HEX/8 <<<
09 03 04 84 00 04 04 58 

[2024-12-24 10:10:17.012]# RECV HEX/8 <<<
09 03 04 8D 00 21 15 81 

[2024-12-24 10:10:19.038]# RECV HEX/8 <<<
09 03 06 84 00 04 05 E0 

[2024-12-24 10:10:21.040]# RECV HEX/8 <<<
09 03 04 04 00 01 C5 B3 

[2024-12-24 10:10:23.080]# RECV HEX/21 <<<
0A 03 04 84 00 04 04 6B 0A 03 08 13 85 03 87 FF D6 03 8D 80 76 

[2024-12-24 10:10:25.090]# RECV HEX/8 <<<
0A 03 04 8D 00 21 15 B2 

[2024-12-24 10:10:25.246]# RECV HEX/71 <<<
0A 03 42 09 16 05 1E 00 00 00 00 00 00 00 00 00 00 00 00 00 00 00 00 00 00 09 11 05 1B 00 00 00 00 00 00 00 00 00 00 00 00 00 00 00 00 00 00 09 18 05 1D 00 00 00 00 00 00 00 00 00 00 00 00 00 00 00 00 00 00 AD C0 

[2024-12-24 10:10:27.129]# RECV HEX/21 <<<
0A 03 06 84 00 04 05 D3 0A 03 08 00 00 03 14 00 03 24 92 EA 6E 

[2024-12-24 10:10:29.142]# RECV HEX/15 <<<
0A 03 04 04 00 01 C5 80 0A 03 02 00 02 9C 44 

[2024-12-24 10:10:31.159]# RECV HEX/15 <<<
0A 03 04 04 00 01 C5 80 0A 03 02 00 02 9C 44 

[2024-12-24 10:10:33.174]# RECV HEX/8 <<<
01 03 04 84 00 04 05 10 

[2024-12-24 10:10:35.189]# RECV HEX/8 <<<
01 03 04 8D 00 21 14 C9 

[2024-12-24 10:10:37.211]# RECV HEX/8 <<<
01 03 06 84 00 04 04 A8 

[2024-12-24 10:10:39.228]# RECV HEX/8 <<<
01 03 04 04 00 01 C4 FB 

[2024-12-24 10:10:41.257]# RECV HEX/8 <<<
02 03 04 84 00 04 05 23 

[2024-12-24 10:10:43.269]# RECV HEX/8 <<<
02 03 04 8D 00 21 14 FA 

[2024-12-24 10:10:45.302]# RECV HEX/8 <<<
02 03 06 84 00 04 04 9B 

[2024-12-24 10:10:47.310]# RECV HEX/8 <<<
02 03 04 04 00 01 C4 C8 

[2024-12-24 10:10:49.321]# RECV HEX/8 <<<
03 03 04 84 00 04 04 F2 

[2024-12-24 10:10:51.349]# RECV HEX/8 <<<
03 03 04 8D 00 21 15 2B 

[2024-12-24 10:10:53.375]# RECV HEX/8 <<<
03 03 06 84 00 04 05 4A 

[2024-12-24 10:10:55.389]# RECV HEX/8 <<<
03 03 04 04 00 01 C5 19 

[2024-12-24 10:10:57.414]# RECV HEX/8 <<<
04 03 04 84 00 04 05 45 

[2024-12-24 10:10:59.441]# RECV HEX/8 <<<
04 03 04 8D 00 21 14 9C 

[2024-12-24 10:11:01.451]# RECV HEX/8 <<<
04 03 06 84 00 04 04 FD 

[2024-12-24 10:11:03.466]# RECV HEX/8 <<<
04 03 04 04 00 01 C4 AE 

[2024-12-24 10:11:05.483]# RECV HEX/8 <<<
05 03 04 84 00 04 04 94 

[2024-12-24 10:11:07.513]# RECV HEX/8 <<<
05 03 04 8D 00 21 15 4D 

[2024-12-24 10:11:09.529]# RECV HEX/8 <<<
05 03 06 84 00 04 05 2C 

[2024-12-24 10:11:11.541]# RECV HEX/8 <<<
05 03 04 04 00 01 C5 7F 

[2024-12-24 10:11:13.567]# RECV HEX/8 <<<
06 03 04 84 00 04 04 A7 

[2024-12-24 10:11:15.593]# RECV HEX/8 <<<
06 03 04 8D 00 21 15 7E 

[2024-12-24 10:11:17.617]# RECV HEX/8 <<<
06 03 06 84 00 04 05 1F 

[2024-12-24 10:11:19.630]# RECV HEX/8 <<<
06 03 04 04 00 01 C5 4C 

[2024-12-24 10:11:21.646]# RECV HEX/8 <<<
07 03 04 84 00 04 05 76 

[2024-12-24 10:11:23.674]# RECV HEX/8 <<<
07 03 04 8D 00 21 14 AF 

[2024-12-24 10:11:25.684]# RECV HEX/8 <<<
07 03 06 84 00 04 04 CE 

[2024-12-24 10:11:27.712]# RECV HEX/8 <<<
07 03 04 04 00 01 C4 9D 

[2024-12-24 10:11:29.725]# RECV HEX/8 <<<
08 03 04 84 00 04 05 89 

[2024-12-24 10:11:31.740]# RECV HEX/8 <<<
08 03 04 8D 00 21 14 50 

[2024-12-24 10:11:33.765]# RECV HEX/8 <<<
08 03 06 84 00 04 04 31 

[2024-12-24 10:11:35.794]# RECV HEX/8 <<<
08 03 04 04 00 01 C4 62 

[2024-12-24 10:11:37.811]# RECV HEX/8 <<<
09 03 04 84 00 04 04 58 

[2024-12-24 10:11:39.822]# RECV HEX/8 <<<
09 03 04 8D 00 21 15 81 

[2024-12-24 10:11:41.848]# RECV HEX/8 <<<
09 03 06 84 00 04 05 E0 

[2024-12-24 10:11:43.881]# RECV HEX/8 <<<
09 03 04 04 00 01 C5 B3 

[2024-12-24 10:11:45.886]# RECV HEX/15 <<<
0A 03 04 84 00 04 04 6B 0A 03 08 13 88 03 91 

[2024-12-24 10:11:46.027]# RECV HEX/6 <<<
FF DE 03 97 15 7C 

[2024-12-24 10:11:47.990]# RECV HEX/79 <<<
0A 03 04 8D 00 21 15 B2 0A 03 42 09 16 05 27 00 00 00 00 00 00 00 00 00 00 00 00 00 00 00 00 00 00 09 12 05 29 00 00 00 00 00 00 00 00 00 00 00 00 00 00 00 00 00 00 09 1A 05 25 00 00 00 00 00 00 00 00 00 00 00 00 00 00 00 00 00 00 AF 41 

[2024-12-24 10:11:49.936]# RECV HEX/14 <<<
0A 03 06 84 00 04 05 D3 0A 03 08 00 00 03 

[2024-12-24 10:11:50.061]# RECV HEX/7 <<<
29 00 03 24 95 C6 69 

[2024-12-24 10:11:51.948]# RECV HEX/15 <<<
0A 03 04 04 00 01 C5 80 0A 03 02 00 02 9C 44 

[2024-12-24 10:11:53.977]# RECV HEX/15 <<<
0A 03 04 04 00 01 C5 80 0A 03 02 00 02 9C 44 

[2024-12-24 10:11:55.987]# RECV HEX/8 <<<
01 03 04 84 00 04 05 10 

[2024-12-24 10:11:58.018]# RECV HEX/8 <<<
01 03 04 8D 00 21 14 C9 

[2024-12-24 10:12:00.029]# RECV HEX/8 <<<
01 03 06 84 00 04 04 A8 

[2024-12-24 10:12:02.041]# RECV HEX/8 <<<
01 03 04 04 00 01 C4 FB 

[2024-12-24 10:12:04.061]# RECV HEX/8 <<<
02 03 04 84 00 04 05 23 

[2024-12-24 10:12:06.087]# RECV HEX/8 <<<
02 03 04 8D 00 21 14 FA 

[2024-12-24 10:12:08.102]# RECV HEX/8 <<<
02 03 06 84 00 04 04 9B 

[2024-12-24 10:12:10.131]# RECV HEX/8 <<<
02 03 04 04 00 01 C4 C8 

[2024-12-24 10:12:12.148]# RECV HEX/8 <<<
03 03 04 84 00 04 04 F2 

[2024-12-24 10:12:14.176]# RECV HEX/8 <<<
03 03 04 8D 00 21 15 2B 

[2024-12-24 10:12:20.223]# RECV HEX/8 <<<
04 03 04 84 00 04 05 45 

[2024-12-24 10:13:24.864]# RECV HEX/8 <<<
01 03 06 84 00 04 04 A8 

[2024-12-24 10:13:26.890]# RECV HEX/8 <<<
01 03 04 04 00 01 C4 FB 

[2024-12-24 10:13:28.904]# RECV HEX/8 <<<
02 03 04 84 00 04 05 23 

[2024-12-24 10:13:30.929]# RECV HEX/8 <<<
02 03 04 8D 00 21 14 FA 

[2024-12-24 10:13:32.941]# RECV HEX/8 <<<
02 03 06 84 00 04 04 9B 

[2024-12-24 10:13:34.973]# RECV HEX/8 <<<
02 03 04 04 00 01 C4 C8 

[2024-12-24 10:13:36.981]# RECV HEX/8 <<<
03 03 04 84 00 04 04 F2 

[2024-12-24 10:13:39.004]# RECV HEX/8 <<<
03 03 04 8D 00 21 15 2B 

[2024-12-24 10:13:41.596]# RECV HEX/8 <<<
03 03 06 84 00 04 05 4A 

[2024-12-24 10:13:43.053]# RECV HEX/8 <<<
03 03 04 04 00 01 C5 19 

[2024-12-24 10:13:45.062]# RECV HEX/8 <<<
04 03 04 84 00 04 05 45 

[2024-12-24 10:13:47.091]# RECV HEX/8 <<<
04 03 04 8D 00 21 14 9C 

[2024-12-24 10:13:49.109]# RECV HEX/8 <<<
04 03 06 84 00 04 04 FD 

[2024-12-24 10:13:51.132]# RECV HEX/8 <<<
04 03 04 04 00 01 C4 AE 

[2024-12-24 10:13:53.146]# RECV HEX/8 <<<
05 03 04 84 00 04 04 94 

[2024-12-24 10:13:55.159]# RECV HEX/8 <<<
05 03 04 8D 00 21 15 4D 

[2024-12-24 10:13:57.186]# RECV HEX/8 <<<
05 03 06 84 00 04 05 2C 

[2024-12-24 10:13:59.211]# RECV HEX/8 <<<
05 03 04 04 00 01 C5 7F 

[2024-12-24 10:14:01.229]# RECV HEX/8 <<<
05 03 04 04 00 01 C5 7F 

[2024-12-24 10:14:03.242]# RECV HEX/8 <<<
06 03 04 84 08 04 04 A7 

[2024-12-24 10:14:05.274]# RECV HEX/8 <<<
06 03 04 8D 00 21 15 7E 

[2024-12-24 10:14:07.286]# RECV HEX/8 <<<
06 03 06 84 00 04 05 1F 

[2024-12-24 10:14:39.592]# 设备已拔出!
