
[2024-12-24 12:17:05.806]# RECV HEX/8 <<<
0A 03 04 04 00 01 C5 80 

[2024-12-24 12:17:05.869]# RECV HEX/7 <<<
FF FF FF FF FF FF FF 

[2024-12-24 12:17:07.817]# RECV HEX/8 <<<
01 03 04 84 00 04 05 10 

[2024-12-24 12:17:07.895]# RECV HEX/8 <<<
FF FF FF FF FF FF FF FF 

[2024-12-24 12:17:09.851]# RECV HEX/8 <<<
01 03 04 8D 00 21 14 C9 

[2024-12-24 12:17:09.914]# RECV HEX/7 <<<
FF FF FF FF FF FF FF 

[2024-12-24 12:17:10.103]# RECV HEX/71 <<<
01 03 42 09 0B 27 C5 00 00 00 00 00 00 00 00 00 00 00 00 00 00 00 00 00 00 09 29 27 CA 00 00 00 00 00 00 00 00 00 00 00 00 00 00 00 00 00 00 09 20 27 C7 00 00 00 00 00 00 00 00 00 00 00 00 00 00 00 00 00 00 A3 4C 

[2024-12-24 12:17:11.857]# RECV HEX/8 <<<
01 03 06 84 00 04 04 A8 

[2024-12-24 12:17:11.936]# RECV HEX/7 <<<
FF FF FF FF FF FF FF 

[2024-12-24 12:17:13.885]# RECV HEX/8 <<<
01 03 04 04 00 01 C4 FB 

[2024-12-24 12:17:13.963]# RECV HEX/7 <<<
FF FF FF FF FF FF FF 

[2024-12-24 12:17:15.899]# RECV HEX/8 <<<
02 03 04 84 00 04 05 23 

[2024-12-24 12:17:15.978]# RECV HEX/7 <<<
FF FF FF FF FF FF FF 

[2024-12-24 12:17:17.920]# RECV HEX/8 <<<
02 03 04 8D 00 21 14 FA 

[2024-12-24 12:17:17.998]# RECV HEX/6 <<<
FF FF FF FF FF FF 

[2024-12-24 12:17:18.170]# RECV HEX/59 <<<
02 03 42 09 0A 26 56 00 00 00 00 00 00 00 00 00 00 00 00 00 00 00 00 00 00 09 2A 26 6E 00 00 00 00 00 00 00 00 00 00 00 00 00 00 00 00 00 00 09 1B 26 6E 00 00 00 00 00 00 00 00 

[2024-12-24 12:17:18.203]# RECV HEX/12 <<<
00 00 00 00 00 00 00 00 00 00 FC 31 

[2024-12-24 12:17:19.940]# RECV HEX/8 <<<
02 03 06 84 00 04 04 9B 

[2024-12-24 12:17:20.067]# RECV HEX/6 <<<
FF FF FF FF FF FF 

[2024-12-24 12:17:21.967]# RECV HEX/8 <<<
02 03 04 04 00 01 C4 C8 

[2024-12-24 12:17:22.077]# RECV HEX/7 <<<
FF FF FF FF FF FF FF 

[2024-12-24 12:17:23.993]# RECV HEX/8 <<<
03 03 04 84 00 04 04 F2 

[2024-12-24 12:17:24.087]# RECV HEX/7 <<<
FF FF FF FF FF FF FF 

[2024-12-24 12:17:26.005]# RECV HEX/8 <<<
03 03 04 8D 00 21 15 2B 

[2024-12-24 12:17:26.097]# RECV HEX/8 <<<
FF FF FF FF FF FF FF FF 

[2024-12-24 12:17:26.271]# RECV HEX/71 <<<
03 03 42 09 08 28 36 00 00 00 00 00 00 00 00 00 00 00 00 00 00 00 00 00 00 09 2C 28 30 00 00 00 00 00 00 00 00 00 00 00 00 00 00 00 00 00 00 09 1F 28 32 00 00 00 00 00 00 00 00 00 00 00 00 00 00 00 00 00 00 15 20 

[2024-12-24 12:17:28.017]# RECV HEX/8 <<<
03 03 06 84 00 04 05 4A 

[2024-12-24 12:17:28.110]# RECV HEX/8 <<<
FF FF FF FF FF FF FF FF 

[2024-12-24 12:17:30.045]# RECV HEX/8 <<<
03 03 04 04 00 01 C5 19 

[2024-12-24 12:17:30.154]# RECV HEX/7 <<<
FF FF FF FF FF FF FF 

[2024-12-24 12:17:32.063]# RECV HEX/8 <<<
04 03 04 84 00 04 05 45 

[2024-12-24 12:17:32.157]# RECV HEX/7 <<<
FF FF FF FF FF FF FF 

[2024-12-24 12:17:34.082]# RECV HEX/8 <<<
04 03 04 8D 00 21 14 9C 

[2024-12-24 12:17:34.175]# RECV HEX/6 <<<
FF FF FF FF FF FF 

[2024-12-24 12:17:34.361]# RECV HEX/71 <<<
04 03 42 09 13 23 18 00 00 00 00 00 00 00 00 00 00 00 00 00 00 00 00 00 00 08 FE 23 0F 00 00 00 00 00 00 00 00 00 00 00 00 00 00 00 00 00 00 09 23 23 07 00 00 00 00 00 00 00 00 00 00 00 00 00 00 00 00 00 00 0E 90 

[2024-12-24 12:17:36.105]# RECV HEX/8 <<<
04 03 06 84 00 04 04 FD 

[2024-12-24 12:17:36.199]# RECV HEX/6 <<<
FF FF FF FF FF FF 

[2024-12-24 12:17:38.120]# RECV HEX/8 <<<
04 03 04 04 00 01 C4 AE 

[2024-12-24 12:17:38.213]# RECV HEX/7 <<<
FF FF FF FF FF FF FF 

[2024-12-24 12:17:40.147]# RECV HEX/8 <<<
05 03 04 84 00 04 04 94 

[2024-12-24 12:17:40.241]# RECV HEX/7 <<<
FF FF FF FF FF FF FF 

[2024-12-24 12:17:42.160]# RECV HEX/8 <<<
05 03 04 8D 00 21 15 4D 

[2024-12-24 12:17:42.254]# RECV HEX/8 <<<
FF FF FF FF FF FF FF FF 

[2024-12-24 12:17:42.438]# RECV HEX/71 <<<
05 03 42 09 09 1E 15 00 00 00 00 00 00 00 00 00 00 00 00 00 00 00 00 00 00 09 1A 1D FF 00 00 00 00 00 00 00 00 00 00 00 00 00 00 00 00 00 00 09 1A 1E 07 00 00 00 00 00 00 00 00 00 00 00 00 00 00 00 00 00 00 2D E7 

[2024-12-24 12:17:44.185]# RECV HEX/8 <<<
05 03 06 84 00 04 05 2C 

[2024-12-24 12:17:44.295]# RECV HEX/8 <<<
FF FF FF FF FF FF AF CF 

[2024-12-24 12:17:46.206]# RECV HEX/8 <<<
05 03 04 04 00 01 C5 7F 

[2024-12-24 12:17:46.317]# RECV HEX/7 <<<
FF FF FF FF FF FF FF 

[2024-12-24 12:17:48.218]# RECV HEX/8 <<<
06 03 04 84 00 04 04 A7 

[2024-12-24 12:17:48.328]# RECV HEX/6 <<<
FF FF FF FF FF FF 

[2024-12-24 12:17:50.247]# RECV HEX/8 <<<
06 03 04 8D 00 21 15 7E 

[2024-12-24 12:17:50.341]# RECV HEX/7 <<<
FF FF FF FF FF FF FF 

[2024-12-24 12:17:50.512]# RECV HEX/71 <<<
06 03 42 09 0D 1D A7 00 00 00 00 00 00 00 00 00 00 00 00 00 00 00 00 00 00 09 19 1D A5 00 00 00 00 00 00 00 00 00 00 00 00 00 00 00 00 00 00 09 1C 1D B3 00 00 00 00 00 00 00 00 00 00 00 00 00 00 00 00 00 00 87 97 

[2024-12-24 12:17:52.257]# RECV HEX/8 <<<
06 03 06 84 00 04 05 1F 

[2024-12-24 12:17:52.351]# RECV HEX/7 <<<
FF FF FF FF FF FF FF 

[2024-12-24 12:17:54.276]# RECV HEX/8 <<<
06 03 04 04 00 01 C5 4C 

[2024-12-24 12:17:54.368]# RECV HEX/7 <<<
FF FF FF F4 FF FF FF 

[2024-12-24 12:17:56.302]# RECV HEX/8 <<<
07 03 04 84 00 04 05 76 

[2024-12-24 12:17:56.411]# RECV HEX/21 <<<
FF FF FF FF FF FF FF FF 07 03 08 13 89 0A E0 FF D1 0A E8 35 31 

[2024-12-24 12:17:58.332]# RECV HEX/8 <<<
07 03 04 8D 00 21 14 AF 

[2024-12-24 12:17:58.425]# RECV HEX/7 <<<
FF FF FF FF FF FF FF 

[2024-12-24 12:17:58.584]# RECV HEX/71 <<<
07 03 42 09 0B 0F AE 00 00 00 00 00 00 00 00 00 00 00 00 00 00 00 00 00 00 09 08 0F C9 00 00 00 00 00 00 00 00 00 00 00 00 00 00 00 00 00 00 09 0A 0F C6 00 00 00 00 00 00 00 00 00 00 00 00 00 00 00 00 00 00 29 C2 

[2024-12-24 12:18:00.347]# RECV HEX/8 <<<
07 03 06 84 00 04 04 CE 

[2024-12-24 12:18:00.489]# RECV HEX/20 <<<
FF FF FF FF FF FF FF 07 03 08 00 00 17 F4 00 07 08 AE 0E 10 

[2024-12-24 12:18:02.363]# RECV HEX/8 <<<
07 03 04 04 00 01 C4 9D 

[2024-12-24 12:18:02.502]# RECV HEX/14 <<<
FF FF FF FF FF FF FF 07 03 02 00 02 B1 85 

[2024-12-24 12:18:04.387]# RECV HEX/8 <<<
08 03 04 84 00 04 05 89 

[2024-12-24 12:18:04.513]# RECV HEX/19 <<<
FF FF FF FF FF FF 08 03 08 13 88 17 96 FF 72 17 98 27 35 

[2024-12-24 12:18:06.401]# RECV HEX/8 <<<
08 03 04 8D 00 21 14 50 

[2024-12-24 12:18:06.524]# RECV HEX/7 <<<
FF FF FF FF FF FF FF 

[2024-12-24 12:18:06.664]# RECV HEX/71 <<<
08 03 42 08 FD 22 40 00 00 00 00 00 00 00 00 00 00 00 00 00 00 00 00 00 00 08 EE 22 3F 00 00 00 00 00 00 00 00 00 00 00 00 00 00 00 00 00 00 09 03 22 41 00 00 00 00 00 00 00 00 00 00 00 00 00 00 00 00 00 00 04 87 

[2024-12-24 12:18:08.414]# RECV HEX/8 <<<
08 03 06 84 00 04 04 31 

[2024-12-24 12:18:08.540]# RECV HEX/20 <<<
FF FF FF FF FF FF FF 08 03 08 00 00 32 0E 00 0F 52 FA 5B B8 

[2024-12-24 12:18:10.434]# RECV HEX/8 <<<
08 03 04 04 00 01 C4 62 

[2024-12-24 12:18:10.576]# RECV HEX/14 <<<
FF FF FF FF FF FF FF 08 03 02 00 02 E5 84 

[2024-12-24 12:18:12.468]# RECV HEX/8 <<<
09 03 04 84 00 04 04 58 

[2024-12-24 12:18:12.577]# RECV HEX/21 <<<
FF FF FF FF FF FF FF FF 09 03 08 13 86 15 77 FF 80 15 78 D0 E6 

[2024-12-24 12:18:14.487]# RECV HEX/8 <<<
09 03 04 8D 00 21 15 81 

[2024-12-24 12:18:14.610]# RECV HEX/7 <<<
FF FF FF FF FF FF FF 

[2024-12-24 12:18:14.752]# RECV HEX/71 <<<
09 03 42 09 02 1F 09 00 00 00 00 00 00 00 00 00 00 00 00 00 00 00 00 00 00 08 F9 1F 16 00 00 00 00 00 00 00 00 00 00 00 00 00 00 00 00 00 00 09 11 1F 10 00 00 00 00 00 00 00 00 00 00 00 00 00 00 00 00 00 00 6D 78 

[2024-12-24 12:18:16.502]# RECV HEX/8 <<<
09 03 06 84 00 04 05 E0 

[2024-12-24 12:18:16.613]# RECV HEX/20 <<<
FF FF FF FF FF FF FF 09 03 08 00 00 2C FF 00 0D F1 BF 39 EC 

[2024-12-24 12:18:18.514]# RECV HEX/8 <<<
09 03 04 04 00 01 C5 B3 

[2024-12-24 12:18:18.638]# RECV HEX/14 <<<
FF FF FF FF FF FF FF 09 03 02 00 02 D8 44 

[2024-12-24 12:18:20.551]# RECV HEX/8 <<<
0A 03 04 84 00 04 04 6B 

[2024-12-24 12:18:20.754]# RECV HEX/7 <<<
FF FF FF FF FF FF FF 

[2024-12-24 12:18:22.562]# RECV HEX/8 <<<
0A 03 04 8D 00 21 15 B2 

[2024-12-24 12:18:22.655]# RECV HEX/6 <<<
FF FF FF FF FF FF 

[2024-12-24 12:18:22.827]# RECV HEX/71 <<<
0A 03 42 09 0C 07 4E 00 00 00 00 00 00 00 00 00 00 00 00 00 00 00 00 00 00 09 05 07 4D 00 00 00 00 00 00 00 00 00 00 00 00 00 00 00 00 00 00 09 0C 07 4A 00 00 00 00 00 00 00 00 00 00 00 00 00 00 00 00 00 00 D4 59 

[2024-12-24 12:18:24.575]# RECV HEX/8 <<<
0A 03 06 84 00 04 05 D3 

[2024-12-24 12:18:24.701]# RECV HEX/6 <<<
FF FF FF FF FF FF 

[2024-12-24 12:18:26.600]# RECV HEX/8 <<<
0A 03 04 04 00 01 C5 80 

[2024-12-24 12:18:26.756]# RECV HEX/7 <<<
FF FF FF FF FF FF FF 

[2024-12-24 12:18:28.631]# RECV HEX/8 <<<
01 03 04 84 00 04 05 10 

[2024-12-24 12:18:28.769]# RECV HEX/8 <<<
FF FF FF FF FF FF FF FF 

[2024-12-24 12:18:30.637]# RECV HEX/8 <<<
01 03 04 8D 00 21 14 C9 

[2024-12-24 12:18:30.793]# RECV HEX/7 <<<
FF FF FF FF FF FF FF 

[2024-12-24 12:18:30.932]# RECV HEX/71 <<<
01 03 42 09 0A 29 17 00 00 00 00 00 00 00 00 00 00 00 00 00 00 00 00 00 00 09 2F 29 17 00 00 00 00 00 00 00 00 00 00 00 00 00 00 00 00 00 00 09 23 29 17 00 00 00 00 00 00 00 00 00 00 00 00 00 00 00 00 00 00 37 2C 

[2024-12-24 12:18:32.659]# RECV HEX/8 <<<
01 03 06 84 00 04 04 A8 

[2024-12-24 12:18:32.810]# RECV HEX/7 <<<
FF FF FF FF FF FF FF 

[2024-12-24 12:18:34.687]# RECV HEX/8 <<<
01 03 04 04 00 01 C4 FB 

[2024-12-24 12:18:34.841]# RECV HEX/7 <<<
FF FF FF FF FF FF FF 

[2024-12-24 12:18:36.705]# RECV HEX/8 <<<
02 03 04 84 00 04 05 23 

[2024-12-24 12:18:36.861]# RECV HEX/7 <<<
FF FF FF FF FF FF FF 
