
09:47:56.514 设备接收:02 03 62 F9 FF FB BD DF 0B 00 00 00 00 00 00 00 00 00 00 00 00 00 00 09 23 1B 8C 00 00 00 00 00 00 00 00 00 00 00 00 00 00 00 00 00 00 09 19 1B 9B 00 00 00 00 00 00 00 00 00 00 00 00 00 00 00 00 00 00 AF 50
09:47:56.561 设备发送:02 03 06 84 00 04 04 9B
09:48:01.543 设备接收:02 03 08 00 00 0E 8E 00 13 75 23 65 2E
09:48:01.590 设备发送:02 03 04 04 00 01 C4 C8
09:48:06.569 设备接收:02 03 02 00 02 7D 85
09:48:06.585 设备发送:02 03 05 84 00 0F 45 18
09:48:11.593 设备接收:02 03 1E 20 82 01 FF 01 A9 20 81 01 F4 01 A0 1F F0 02 05 01 A7 20 27 04 00 03 4B 20 51 02 02 01 A9 E9 41
09:48:11.640 设备发送:02 03 05 93 00 0F F5 1C
09:48:16.632 设备接收:02 03 1E 20 26 01 F7 01 9E 20 84 01 FF 01 A9 20 88 04 0E 03 61 20 45 02 04 01 AA 1F DD 02 1F 01 BB D7 1A
09:48:16.678 设备发送:02 03 05 A2 00 0F A4 D3
09:48:21.676 设备接收:02 03 1E 00 00 00 04 00 00 00 00 00 00 00 00 00 00 00 00 00 00 00 00 00 00 00 00 00 00 00 00 00 00 92 31
09:48:21.691 设备发送:02 03 05 B1 00 03 55 13
09:48:26.699 设备接收:02 03 06 00 00 00 00 00 00 35 85
09:48:26.715 设备发送:02 03 04 2B 00 01 F5 01
09:48:31.709 设备接收:02 03 02 02 C9 3D 72
09:48:31.739 设备发送:02 03 04 20 00 01 84 C3
09:48:36.737 设备接收:02 03 02 00 3B BD 97
09:48:36.784 设备发送:02 03 04 05 00 01 95 08
09:48:41.793 设备接收:02 03 02 00 00 FC 44
09:48:41.809 设备发送:03 03 04 84 00 04 04 F2
09:48:46.802 设备接收:03 03 08 13 8B 15 80 FF D0 15 81 18 78
09:48:46.848 设备发送:03 03 04 8D 00 21 15 2B
09:48:51.855 设备发送:03 03 04 8D 00 21 15 2B
09:48:56.868 设备接收:03 03 42 09 0D 1E D7 7E 7E 5F CE BD D5 A9 00 00 00 00 00 00 00 00 00 00 09 27 1E BB 00 00 00 00 00 00 00 00 00 00 00 00 00 00 00 00 00 00 09 1C 1E D9 00 00 00 00 00 00 00 00 00 00 00 00 00 00 00 00 00 00 63 32
09:48:56.915 设备发送:03 03 06 84 00 04 05 4A
09:49:01.907 设备接收:03 03 08 00 00 13 70 00 13 FF 54 6C CD
09:49:01.923 设备发送:03 03 04 04 00 01 C5 19
09:49:06.916 设备接收:03 03 02 00 02 40 45
09:49:06.932 设备发送:03 03 05 84 00 0F 44 C9
09:49:11.976 设备接收:03 03 1E 20 50 04 74 03 AF 1F E5 04 82 03 AE 1F D6 04 68 03 97 20 42 04 59 03 97 17 E9 04 5B 02 AA E6 F8
09:49:12.024 设备发送:03 03 05 93 00 0F F4 CD
09:49:16.984 设备接收:03 03 1E 05 33 00 00 00 00 13 58 03 DB 01 E9 1C 87 02 46 01 A9 1C 4A 02 4E 01 AB 05 37 00 00 00 00 36 2B
09:49:17.000 设备发送:03 03 05 A2 00 0F A5 02
09:49:22.024 设备接收:03 03 1E 00 0E 00 00 00 00 00 00 00 00 00 00 00 00 00 00 00 00 00 00 00 00 00 00 00 00 00 00 00 00 81 70
09:49:22.040 设备发送:03 03 05 B1 00 03 54 C2
09:49:27.042 设备接收:03 03 06 00 00 00 00 00 00 38 15
09:49:27.058 设备发送:03 03 04 2B 00 01 F4 D0
09:49:32.072 设备接收:03 03 02 02 D1 00 B8
09:49:32.103 设备发送:03 03 04 20 00 01 85 12
09:49:37.109 设备接收:03 03 02 00 2B 81 9B
09:49:37.124 设备发送:03 03 04 05 00 01 94 D9
09:49:42.117 设备接收:03 03 02 00 00 C1 84
09:49:42.148 设备发送:01 03 04 84 00 04 05 10
09:49:47.162 设备接收:01 03 08 13 8B 14 77 FF D3 14 77 96 12
09:49:47.178 设备发送:01 03 04 8D 00 21 14 C9
09:49:52.198 设备发送:01 03 04 8D 00 21 14 C9
09:49:57.209 设备接收:01 03 D2 FE 7F DF BD D7 7D 00 00 00 00 00 00 00 00 00 00 00 00 00 00 09 26 1D 61 00 00 00 00 00 00 00 00 00 00 00 00 00 00 00 00 00 00 09 1F 1D 72 00 00 00 00 00 00 00 00 00 00 00 00 00 00 00 00 00 00 27 9B
09:49:57.224 设备发送:01 03 06 84 00 04 04 A8
09:50:02.241 设备接收:01 03 08 00 00 10 4A 00 13 2C E4 E3 C7
09:50:02.258 设备发送:01 03 04 04 00 01 C4 FB
09:50:07.246 设备接收:01 03 02 00 02 39 85
09:50:07.262 设备发送:01 03 05 84 00 0F 45 2B
09:50:12.272 设备接收:01 03 1E 20 A5 04 21 03 74 20 2E 04 33 03 76 20 AA 04 16 03 6B 20 32 04 2E 03 72 17 C1 02 35 01 57 03 CB
09:50:12.287 设备发送:01 03 05 93 00 0F F5 2F
09:50:17.333 设备接收:01 03 1E 00 00 00 00 00 00 1B 16 04 76 03 18 1C E4 02 2C 01 9B 1D 02 02 3B 01 A8 00 00 00 04 00 00 F8 E1
09:50:17.348 设备发送:01 03 05 A2 00 0F A4 E0
09:50:22.371 设备发送:01 03 05 A2 00 0F A4 E0
09:50:27.387 设备接收:01 03 1E 00 00 00 00 00 00 00 00 00 00 00 00 00 00 00 00 00 00 00 00 00 00 00 00 00 00 00 00 00 00 D8 BA
09:50:27.402 设备发送:01 03 05 B1 00 03 55 20
09:50:32.410 设备接收:01 03 06 00 00 00 00 00 00 21 75
09:50:32.425 设备发送:01 03 04 2B 00 01 F5 32
09:50:37.429 设备接收:01 03 02 02 CE 38 B0
09:50:37.445 设备发送:01 03 04 20 00 01 84 F0
09:50:42.467 设备接收:01 03 02 00 2C B9 99
09:50:42.484 设备发送:01 03 04 05 00 01 95 3B
09:50:47.487 设备接收:01 03 02 00 00 B8 44
09:50:47.503 设备发送:02 03 04 84 00 04 05 23
09:50:52.494 设备接收:02 03 08 13 8A 13 83 FF 8B 13 85 3B 92
09:50:52.541 设备发送:02 03 04 8D 00 21 14 FA
09:50:57.549 设备发送:02 03 04 8D 00 21 14 FA
09:51:02.562 设备接收:02 03 42 09 0E 1B E7 B0 F9 F7 F5 BD D7 1B 00 00 00 00 00 00 00 00 00 09 29 1C 06 00 00 00 00 00 00 00 00 00 00 00 00 00 00 00 00 00 00 09 1C 1C 08 00 00 00 00 00 00 00 00 00 00 00 00 00 00 00 00 00 00 D3 BD
09:51:02.578 设备发送:02 03 06 84 00 04 04 9B
09:51:07.576 设备接收:02 03 08 00 00 0F 8E 00 13 75 3D E4 F7
09:51:07.591 设备发送:02 03 04 04 00 01 C4 C8
09:51:12.616 设备接收:02 03 02 00 02 7D 85
09:51:12.632 设备发送:02 03 05 84 00 0F 45 18
09:51:17.643 设备接收:02 03 1E 20 83 02 07 01 B0 20 05 02 04 01 A7 1F CB 02 0F 01 AD 20 2A 04 10 03 59 20 8C 01 FB 01 A7 89 F5
09:51:17.675 设备发送:02 03 05 93 00 0F F5 1C
09:51:22.663 设备接收:02 03 1E 1F FD 02 04 01 A7 20 7B 02 05 01 AE 20 51 04 30 03 77 20 4C 02 15 01 B8 20 0A 02 2A 01 C6 41 07
09:51:22.678 设备发送:02 03 05 A2 00 0F A4 D3
09:51:27.709 设备接收:02 03 1E 00 00 00 04 00 00 00 00 00 00 00 00 00 00 00 00 00 00 00 00 00 00 00 00 00 00 00 00 00 00 92 31
09:51:27.725 设备发送:02 03 05 B1 00 03 55 13
09:51:32.746 设备接收:02 03 06 00 00 00 00 00 00 35 85
09:51:32.761 设备发送:02 03 04 2B 00 01 F5 01
09:51:37.754 设备接收:02 03 02 02 C9 3D 72
09:51:37.770 设备发送:02 03 04 20 00 01 84 C3
09:51:42.763 设备接收:02 03 02 00 42 7C 75
09:51:42.808 设备发送:02 03 04 05 00 01 95 08
09:51:47.814 设备接收:02 03 02 00 00 FC 44
09:51:47.861 设备发送:03 03 04 84 00 04 04 F2
09:51:52.841 设备接收:03 03 08 13 8B 16 01 FF D3 16 02 95 04
09:51:52.873 设备发送:03 03 04 8D 00 21 15 2B
09:51:57.900 设备发送:03 03 04 8D 00 21 15 2B
09:52:02.908 设备接收:FB F7 E7 FF BD DF FB 00 00 00 00 00 00 00 00 00 00 00 00 00 00 00 00 00 00 09 2B 1F 69 00 00 00 00 00 00 00 00 00 00 00 00 00 00 00 00 00 00 09 20 1F 7D 00 00 00 00 00 00 00 00 00 00 00 00 00 00 00 00 00 00 AA 8F
09:52:02.955 设备发送:03 03 06 84 00 04 05 4A
09:52:07.951 设备接收:03 03 08 00 00 14 91 00 13 FF 71 10 B7
09:52:07.983 设备发送:03 03 04 04 00 01 C5 19
09:52:12.978 设备接收:03 03 02 00 02 40 45
09:52:12.994 设备发送:03 03 05 84 00 0F 44 C9
09:52:17.994 设备接收:03 03 1E 1F B5 04 A9 03 C8 1F CE 04 A2 03 C6 1F F3 04 7D 03 AC 1F F3 04 81 03 AF 17 74 04 90 02 BD B3 F8
09:52:18.010 设备发送:03 03 05 93 00 0F F4 CD
09:52:23.044 设备接收:03 03 1E 05 2F 00 00 00 00 13 53 03 F2 01 F3 1C 65 02 58 01 B4 1C 26 02 5D 01 B4 05 33 00 00 00 00 B8 BF
09:52:23.060 设备发送:03 03 05 A2 00 0F A5 02
09:52:28.072 设备接收:03 03 1E 00 0E 00 00 00 00 00 00 00 00 00 00 00 00 00 00 00 00 00 00 00 00 00 00 00 00 00 00 00 00 81 70
09:52:28.087 设备发送:03 03 05 B1 00 03 54 C2
09:52:33.082 设备接收:03 03 06 00 00 00 00 00 00 38 15
09:52:33.129 设备发送:03 03 04 2B 00 01 F4 D0
09:52:38.104 设备接收:03 03 02 02 D1 00 B8
09:52:38.167 设备发送:03 03 04 20 00 01 85 12
09:52:43.162 设备接收:03 03 02 00 37 80 52
09:52:43.177 设备发送:03 03 04 05 00 01 94 D9
09:52:48.170 设备接收:03 03 02 00 00 C1 84
09:52:48.186 设备发送:01 03 04 84 00 04 05 10
09:52:53.210 设备接收:01 03 08 13 8B 14 DF FF 83 14 E1 77 B5
09:52:53.226 设备发送:01 03 04 8D 00 21 14 C9
09:52:58.240 设备发送:01 03 04 8D 00 21 14 C9
09:53:03.257 设备接收:E9 F9 FF E5 FB 6D 00 00 00 00 00 00 00 00 00 00 00 00 00 00 00 00 09 27 1D EE 00 00 00 00 00 00 00 00 00 00 00 00 00 00 00 00 00 00 09 20 1D FD 00 00 00 00 00 00 00 00 00 00 00 00 00 00 00 00 00 00 FF BE
09:53:03.304 设备发送:01 03 06 84 00 04 04 A8
09:53:08.313 设备接收:01 03 08 00 00 11 5D 00 13 2C FF D6 1E
09:53:08.329 设备发送:01 03 04 04 00 01 C4 FB
09:53:13.357 设备接收:01 03 02 00 02 39 85
09:53:13.372 设备发送:01 03 05 84 00 0F 45 2B
09:53:18.382 设备接收:01 03 1E 21 1A 04 14 03 74 20 56 04 44 03 88 21 1F 04 07 03 6A 1F E7 04 44 03 7B 17 C2 02 3D 01 5C 91 2A
09:53:18.398 设备发送:01 03 05 93 00 0F F5 2F
09:53:23.390 设备接收:01 03 1E 00 00 00 00 00 00 1B 15 04 84 03 21 1C E2 02 33 01 A0 1D 01 02 43 01 AE 00 00 00 02 00 00 97 15
09:53:23.453 设备发送:01 03 05 A2 00 0F A4 E0
09:53:28.428 设备接收:01 03 1E 00 00 00 00 00 00 00 00 00 00 00 00 00 00 00 00 00 00 00 00 00 00 00 00 00 00 00 00 00 00 D8 BA
09:53:28.443 设备发送:01 03 05 B1 00 03 55 20
09:53:33.468 设备接收:01 03 06 00 00 00 00 00 00 21 75
09:53:33.484 设备发送:01 03 04 2B 00 01 F5 32
09:53:38.495 设备接收:01 03 02 02 CE 38 B0
09:53:38.511 设备发送:01 03 04 20 00 01 84 F0
09:53:43.518 设备接收:01 03 02 00 36 38 52
09:53:43.549 设备发送:01 03 04 05 00 01 95 3B
09:53:48.534 设备接收:01 03 02 00 00 B8 44
09:53:48.564 设备发送:02 03 04 84 00 04 05 23
09:53:53.579 设备接收:02 03 08 13 85 13 FA FF D6 13 FA 89 6A
09:53:53.595 设备发送:02 03 04 8D 00 21 14 FA
09:53:58.631 设备发送:02 03 04 8D 00 21 14 FA
09:54:03.614 设备接收:02 03 42 09 13 1C DB F9 F7 E5 BD F7 2B 00 00 00 00 00 00 00 00 00 00 09 29 1C A5 00 00 00 00 00 00 00 00 00 00 00 00 00 00 00 00 00 00 09 1B 1C A7 00 00 00 00 00 00 00 00 00 00 00 00 00 00 00 00 00 00 9D FD
09:54:03.658 设备发送:02 03 06 84 00 04 04 9B
09:54:08.658 设备接收:02 03 08 00 00 10 8D 00 13 75 56 E3 77
09:54:08.678 设备发送:02 03 04 04 00 01 C4 C8

