
13:57:41.226 设备接收:01 03 06 00 00 00 00 00 00 21 75
13:57:41.248 设备发送:01 03 04 2B 00 01 F5 32
13:57:42.066 设备发送:01 03 04 2B 00 01 F5 32
13:57:42.901 设备接收:01 03 02 02 E1 79 6C
13:57:42.917 设备发送:01 03 04 20 00 01 84 F0
13:57:43.727 设备发送:01 03 04 20 00 01 84 F0
13:57:44.539 设备接收:01 03 02 00 21 78 5C
13:57:44.554 设备发送:01 03 04 05 00 01 95 3B
13:57:45.340 设备接收:01 03 02 00 00 B8 44
13:57:45.356 设备发送:02 03 04 84 00 04 05 23
13:57:46.171 设备接收:02 03 08 13 8A 1A E7 FF 5F 1A E9 0C 86
13:57:46.187 设备发送:02 03 04 8D 00 21 14 FA
13:57:46.998 设备接收:02 03 42 08 FC 26 A9 00 00 00 00 00 00 00 00 00 00 00 00 00 00 00 00 00 00 09 20 26 C3 00 00 00 00 00 00 00 00 00 00 00 00 00 00 00 00 00 00 09 0C 26 BE 00 00 00 00 00 00 00 00 00 00 00 00 00 00 00 00 00 00 D0 10
13:57:47.013 设备发送:02 03 06 84 00 04 04 9B
13:57:47.825 设备接收:02 03 08 00 00 6E C1 00 13 6F B9 B2 4B
13:57:47.841 设备发送:02 03 04 04 00 01 C4 C8
13:57:48.624 设备接收:02 03 02 00 02 7D 85
13:57:48.639 设备发送:02 03 05 84 00 0F 45 18
13:57:49.462 设备接收:02 03 1E 1E DB 02 E2 02 47 1F 1B 02 DD 02 47 1F 5B 02 E3 02 51 1F 9D 05 AC 04 97 1F 68 02 D6 02 48 40 CC
13:57:49.478 设备发送:02 03 05 93 00 0F F5 1C
13:57:50.290 设备发送:02 03 05 A2 00 0F A4 D3
13:57:50.321 设备接收:02 03 1E 1E D5 02 DE 02 43 1F 32 02 EC 02 55 1E ED 05 E4 04 AA 1F 42 02 EE 02 58 1F 27 03 14 02 74 E8 54
13:57:51.083 设备接收:02 03 1E 00 00 00 04 00 00 00 00 00 00 00 00 00 00 00 00 00 00 00 00 00 00 00 00 00 00 00 00 00 00 92 31
13:57:51.099 设备发送:02 03 05 B1 00 03 55 13
13:57:51.914 设备接收:02 03 06 00 00 00 00 00 00 35 85
13:57:51.929 设备发送:02 03 04 2B 00 01 F5 01
13:57:52.714 设备接收:02 03 02 02 E2 7D 6D
13:57:52.746 设备发送:02 03 04 20 00 01 84 C3
13:57:53.560 设备接收:02 03 02 00 3F BC 54
13:57:53.591 设备发送:02 03 04 05 00 01 95 08
13:57:54.374 设备接收:02 03 02 00 00 FC 44
13:57:54.390 设备发送:03 03 04 84 00 04 04 F2
13:57:55.199 设备接收:03 03 08 13 8A 1C DD FF C4 1C DD A3 81
13:57:55.215 设备发送:03 03 04 8D 00 21 15 2B
13:57:56.031 设备接收:03 03 42 08 FA 29 7A 00 00 00 00 00 00 00 00 00 00 00 00 00 00 00 00 00 00 09 26 29 69 00 00 00 00 00 00 00 00 00 00 00 00 00 00 00 00 00 00 09 13 29 79 00 00 00 00 00 00 00 00 00 00 00 00 00 00 00 00 00 00 33 9A
13:57:56.046 设备发送:03 03 06 84 00 04 05 4A
13:57:56.855 设备接收:03 03 08 00 00 77 6F 00 13 F8 C6 72 B6
13:57:56.872 设备发送:03 03 04 04 00 01 C5 19
13:57:57.650 设备接收:03 03 02 00 02 40 45
13:57:57.666 设备发送:03 03 05 84 00 0F 44 C9
13:57:58.479 设备接收:03 03 1E 1E AE 06 4C 04 F2 1E 9B 06 55 04 F6 1F 08 06 1F 04 DD 1E 8C 06 35 04 DB 16 DE 06 35 03 A2 9D 3E
13:57:58.510 设备发送:03 03 05 93 00 0F F4 CD
13:57:59.321 设备接收:03 03 1E 05 13 00 00 00 00 13 7C 04 7F 02 3E 1B 3C 03 2C 02 36 1B 5B 03 2B 02 38 05 16 00 00 00 00 2E 9D
13:57:59.337 设备发送:03 03 05 A2 00 0F A5 02
13:58:00.117 设备接收:03 03 1E 00 0D 00 00 00 00 00 00 00 00 00 00 00 00 00 00 00 00 00 00 00 00 00 00 00 00 00 00 00 00 C1 72
13:58:00.133 设备发送:03 03 05 B1 00 03 54 C2
13:58:00.943 设备接收:03 03 06 00 00 00 00 00 00 38 15
13:58:00.958 设备发送:03 03 04 2B 00 01 F4 D0
13:58:01.740 设备接收:03 03 02 02 E2 40 AD
13:58:01.802 设备发送:03 03 04 20 00 01 85 12
13:58:02.612 设备发送:03 03 04 20 00 01 85 12
13:58:03.424 设备发送:03 03 04 20 00 01 85 12
13:58:04.236 设备接收:03 03 02 00 24 C1 9F
13:58:04.252 设备发送:03 03 04 05 00 01 94 D9
13:58:05.034 设备接收:03 03 02 00 00 C1 84
13:58:05.066 设备发送:04 03 04 84 00 04 05 45
13:58:05.893 设备发送:04 03 04 84 00 04 05 45
13:58:06.703 设备发送:04 03 04 84 00 04 05 45
13:58:07.517 设备发送:04 03 04 8D 00 21 14 9C
13:58:08.334 设备发送:04 03 04 8D 00 21 14 9C
13:58:09.142 设备发送:04 03 04 8D 00 21 14 9C
13:58:09.968 设备发送:04 03 06 84 00 04 04 FD
13:58:10.797 设备发送:04 03 06 84 00 04 04 FD
13:58:11.623 设备发送:04 03 06 84 00 04 04 FD
13:58:12.436 设备发送:04 03 04 04 00 01 C4 AE
13:58:13.266 设备发送:04 03 04 04 00 01 C4 AE
13:58:14.078 设备发送:04 03 04 04 00 01 C4 AE
13:58:14.887 设备发送:04 03 05 84 00 0F 45 7E
13:58:15.697 设备发送:04 03 05 84 00 0F 45 7E
13:58:16.519 设备发送:04 03 05 84 00 0F 45 7E
13:58:17.360 设备发送:04 03 05 93 00 0F F5 7A
13:58:18.173 设备发送:04 03 05 93 00 0F F5 7A
13:58:18.985 设备发送:04 03 05 93 00 0F F5 7A
13:58:19.812 设备发送:04 03 05 A2 00 0F A4 B5
13:58:20.624 设备发送:04 03 05 A2 00 0F A4 B5
13:58:21.466 设备发送:04 03 05 A2 00 0F A4 B5
13:58:22.280 设备发送:04 03 05 B1 00 03 55 75
13:58:23.097 设备发送:04 03 05 B1 00 03 55 75
13:58:23.913 设备发送:04 03 05 B1 00 03 55 75
13:58:24.745 设备发送:04 03 04 2B 00 01 F5 67
13:58:25.559 设备发送:04 03 04 2B 00 01 F5 67
13:58:26.371 设备发送:04 03 04 2B 00 01 F5 67
13:58:27.183 设备发送:04 03 04 20 00 01 84 A5
13:58:27.995 设备发送:04 03 04 20 00 01 84 A5
13:58:28.838 设备发送:04 03 04 20 00 01 84 A5
13:58:29.652 设备发送:04 03 04 05 00 01 95 6E
13:58:30.468 设备发送:04 03 04 05 00 01 95 6E
13:58:31.311 设备发送:04 03 04 05 00 01 95 6E
13:58:32.124 设备发送:05 03 04 84 00 04 04 94
13:58:32.936 设备发送:05 03 04 84 00 04 04 94
13:58:33.766 设备发送:05 03 04 84 00 04 04 94
13:58:34.581 设备发送:05 03 04 8D 00 21 15 4D
13:58:35.393 设备发送:05 03 04 8D 00 21 15 4D
13:58:36.223 设备发送:05 03 04 8D 00 21 15 4D
13:58:37.033 设备发送:05 03 06 84 00 04 05 2C
13:58:37.866 设备发送:05 03 06 84 00 04 05 2C
13:58:38.679 设备发送:05 03 06 84 00 04 05 2C
13:58:39.489 设备发送:05 03 04 04 00 01 C5 7F
13:58:40.317 设备发送:05 03 04 04 00 01 C5 7F
13:58:41.131 设备发送:05 03 04 04 00 01 C5 7F
13:58:41.943 设备发送:05 03 05 84 00 0F 44 AF
13:58:42.785 设备发送:05 03 05 84 00 0F 44 AF
13:58:43.593 设备发送:05 03 05 84 00 0F 44 AF
13:58:44.406 设备发送:05 03 05 93 00 0F F4 AB
13:58:45.213 设备发送:05 03 05 93 00 0F F4 AB
13:58:46.045 设备发送:05 03 05 93 00 0F F4 AB
13:58:46.884 设备发送:05 03 05 A2 00 0F A5 64
13:58:47.696 设备发送:05 03 05 A2 00 0F A5 64
13:58:48.506 设备发送:05 03 05 A2 00 0F A5 64
13:58:49.330 设备发送:05 03 05 B1 00 03 54 A4
13:58:50.174 设备发送:05 03 05 B1 00 03 54 A4
13:58:50.985 设备发送:05 03 05 B1 00 03 54 A4
13:58:51.796 设备发送:05 03 04 2B 00 01 F4 B6
13:58:52.608 设备发送:05 03 04 2B 00 01 F4 B6
13:58:53.419 设备发送:05 03 04 2B 00 01 F4 B6
13:58:54.264 设备发送:05 03 04 20 00 01 85 74
13:58:55.079 设备发送:05 03 04 20 00 01 85 74
13:58:55.906 设备发送:05 03 04 20 00 01 85 74
13:58:56.718 设备发送:05 03 04 05 00 01 94 BF
13:58:57.532 设备发送:05 03 04 05 00 01 94 BF
13:58:58.346 设备发送:05 03 04 05 00 01 94 BF
13:58:59.162 设备发送:06 03 04 84 00 04 04 A7
13:59:00.007 设备发送:06 03 04 84 00 04 04 A7
13:59:00.819 设备发送:06 03 04 84 00 04 04 A7
13:59:01.632 设备发送:06 03 04 8D 00 21 15 7E
13:59:02.447 设备发送:06 03 04 8D 00 21 15 7E
13:59:03.294 设备发送:06 03 04 8D 00 21 15 7E
13:59:04.106 设备发送:06 03 06 84 00 04 05 1F
13:59:04.917 设备发送:06 03 06 84 00 04 05 1F
13:59:05.741 设备发送:06 03 06 84 00 04 05 1F
13:59:06.552 设备发送:06 03 04 04 00 01 C5 4C
13:59:07.376 设备发送:06 03 04 04 00 01 C5 4C
13:59:08.190 设备发送:06 03 04 04 00 01 C5 4C
13:59:08.999 设备发送:06 03 05 84 00 0F 44 9C
13:59:09.843 设备发送:06 03 05 84 00 0F 44 9C
13:59:10.656 设备发送:06 03 05 84 00 0F 44 9C
13:59:11.467 设备发送:06 03 05 93 00 0F F4 98
13:59:12.297 设备发送:06 03 05 93 00 0F F4 98
13:59:13.123 设备发送:06 03 05 93 00 0F F4 98
13:59:13.936 设备发送:06 03 05 A2 00 0F A5 57
13:59:14.763 设备发送:06 03 05 A2 00 0F A5 57
13:59:15.572 设备发送:06 03 05 A2 00 0F A5 57
13:59:16.392 设备发送:06 03 05 B1 00 03 54 97
13:59:17.210 设备发送:06 03 05 B1 00 03 54 97
13:59:18.023 设备发送:06 03 05 B1 00 03 54 97
13:59:18.865 设备发送:06 03 04 2B 00 01 F4 85
13:59:19.682 设备发送:06 03 04 2B 00 01 F4 85
13:59:20.506 设备发送:06 03 04 2B 00 01 F4 85
13:59:21.318 设备发送:06 03 04 20 00 01 85 47
13:59:22.141 设备发送:06 03 04 20 00 01 85 47
13:59:22.969 设备发送:06 03 04 20 00 01 85 47
13:59:23.782 设备发送:06 03 04 05 00 01 94 8C
13:59:24.610 设备发送:06 03 04 05 00 01 94 8C
13:59:25.420 设备发送:06 03 04 05 00 01 94 8C
13:59:26.234 设备发送:07 03 04 84 00 04 05 76
13:59:27.060 设备发送:07 03 04 84 00 04 05 76
13:59:27.870 设备发送:07 03 04 84 00 04 05 76
13:59:28.684 设备发送:07 03 04 8D 00 21 14 AF
13:59:29.512 设备发送:07 03 04 8D 00 21 14 AF
13:59:30.355 设备发送:07 03 04 8D 00 21 14 AF
13:59:31.136 设备发送:07 03 06 84 00 04 04 CE
13:59:31.969 设备发送:07 03 06 84 00 04 04 CE
13:59:32.783 设备发送:07 03 06 84 00 04 04 CE
13:59:33.609 设备发送:07 03 04 04 00 01 C4 9D
13:59:34.452 设备发送:07 03 04 04 00 01 C4 9D
13:59:35.268 设备发送:07 03 04 04 00 01 C4 9D
13:59:36.078 设备发送:07 03 05 84 00 0F 45 4D
13:59:36.910 设备发送:07 03 05 84 00 0F 45 4D
13:59:37.707 设备发送:07 03 05 84 00 0F 45 4D
13:59:38.551 设备发送:07 03 05 93 00 0F F5 49
13:59:39.332 设备发送:07 03 05 93 00 0F F5 49
13:59:40.196 设备发送:07 03 05 93 00 0F F5 49
13:59:41.004 设备发送:07 03 05 A2 00 0F A4 86
13:59:41.819 设备发送:07 03 05 A2 00 0F A4 86
13:59:42.631 设备发送:07 03 05 A2 00 0F A4 86
13:59:43.459 设备发送:07 03 05 B1 00 03 55 46
13:59:44.270 设备发送:07 03 05 B1 00 03 55 46
13:59:45.097 设备发送:07 03 05 B1 00 03 55 46
13:59:45.915 设备发送:07 03 04 2B 00 01 F5 54
13:59:46.723 设备发送:07 03 04 2B 00 01 F5 54
13:59:47.536 设备发送:07 03 04 2B 00 01 F5 54
13:59:48.362 设备发送:07 03 04 20 00 01 84 96
13:59:49.191 设备发送:07 03 04 20 00 01 84 96
13:59:50.012 设备发送:07 03 04 20 00 01 84 96
13:59:50.824 设备发送:07 03 04 05 00 01 95 5D
13:59:51.655 设备发送:07 03 04 05 00 01 95 5D
13:59:52.465 设备发送:07 03 04 05 00 01 95 5D
13:59:53.289 设备发送:08 03 04 84 00 04 05 89
13:59:54.116 设备发送:08 03 04 84 00 04 05 89
13:59:54.943 设备发送:08 03 04 84 00 04 05 89
13:59:55.755 设备发送:08 03 04 8D 00 21 14 50
13:59:56.566 设备发送:08 03 04 8D 00 21 14 50
13:59:57.381 设备发送:08 03 04 8D 00 21 14 50
13:59:58.210 设备发送:08 03 06 84 00 04 04 31
13:59:59.039 设备发送:08 03 06 84 00 04 04 31
13:59:59.866 设备发送:08 03 06 84 00 04 04 31
14:00:00.679 设备发送:08 03 04 04 00 01 C4 62
14:00:01.490 设备发送:08 03 04 04 00 01 C4 62
14:00:02.302 设备发送:08 03 04 04 00 01 C4 62
14:00:03.112 设备发送:08 03 05 84 00 0F 45 B2
14:00:03.957 设备发送:08 03 05 84 00 0F 45 B2
14:00:04.786 设备发送:08 03 05 84 00 0F 45 B2
14:00:05.600 设备发送:08 03 05 93 00 0F F5 B6
14:00:06.410 设备发送:08 03 05 93 00 0F F5 B6
14:00:07.223 设备发送:08 03 05 93 00 0F F5 B6
14:00:08.064 设备发送:08 03 05 A2 00 0F A4 79
14:00:08.883 设备发送:08 03 05 A2 00 0F A4 79
14:00:09.677 设备发送:08 03 05 A2 00 0F A4 79
14:00:10.518 设备发送:08 03 05 B1 00 03 55 B9
14:00:11.347 设备发送:08 03 05 B1 00 03 55 B9
14:00:12.160 设备发送:08 03 05 B1 00 03 55 B9
14:00:12.985 设备发送:08 03 04 2B 00 01 F5 AB
14:00:13.798 设备发送:08 03 04 2B 00 01 F5 AB
14:00:14.623 设备发送:08 03 04 2B 00 01 F5 AB
14:00:15.434 设备发送:08 03 04 20 00 01 84 69
14:00:16.243 设备发送:08 03 04 20 00 01 84 69
14:00:17.087 设备发送:08 03 04 20 00 01 84 69
14:00:17.903 设备发送:08 03 04 05 00 01 95 A2
14:00:18.715 设备发送:08 03 04 05 00 01 95 A2
14:00:19.542 设备发送:08 03 04 05 00 01 95 A2
14:00:20.350 设备发送:09 03 04 84 00 04 04 58
14:00:21.164 设备发送:09 03 04 84 00 04 04 58
14:00:22.007 设备发送:09 03 04 84 00 04 04 58
14:00:22.815 设备发送:09 03 04 8D 00 21 15 81
14:00:23.626 设备发送:09 03 04 8D 00 21 15 81
14:00:24.440 设备发送:09 03 04 8D 00 21 15 81
14:00:25.285 设备发送:09 03 06 84 00 04 05 E0
14:00:26.100 设备发送:09 03 06 84 00 04 05 E0
14:00:26.884 设备发送:09 03 06 84 00 04 05 E0
14:00:27.727 设备发送:09 03 04 04 00 01 C5 B3
14:00:28.543 设备发送:09 03 04 04 00 01 C5 B3
14:00:29.371 设备发送:09 03 04 04 00 01 C5 B3
14:00:30.184 设备发送:09 03 05 84 00 0F 44 63
14:00:31.013 设备发送:09 03 05 84 00 0F 44 63
14:00:31.830 设备发送:09 03 05 84 00 0F 44 63
14:00:32.647 设备发送:09 03 05 93 00 0F F4 67
14:00:33.474 设备发送:09 03 05 93 00 0F F4 67
14:00:34.291 设备发送:09 03 05 93 00 0F F4 67
14:00:35.119 设备发送:09 03 05 A2 00 0F A5 A8
14:00:35.915 设备发送:09 03 05 A2 00 0F A5 A8
14:00:36.727 设备发送:09 03 05 A2 00 0F A5 A8
14:00:37.584 设备发送:09 03 05 B1 00 03 54 68
14:00:38.396 设备发送:09 03 05 B1 00 03 54 68
14:00:39.223 设备发送:09 03 05 B1 00 03 54 68
14:00:40.034 设备发送:09 03 04 2B 00 01 F4 7A
14:00:40.849 设备发送:09 03 04 2B 00 01 F4 7A
14:00:41.677 设备发送:09 03 04 2B 00 01 F4 7A
14:00:42.488 设备发送:09 03 04 20 00 01 85 B8
14:00:43.317 设备发送:09 03 04 20 00 01 85 B8
14:00:44.131 设备发送:09 03 04 20 00 01 85 B8
14:00:44.975 设备发送:09 03 04 05 00 01 94 73
14:00:45.789 设备发送:09 03 04 05 00 01 94 73
14:00:46.603 设备发送:09 03 04 05 00 01 94 73
14:00:47.419 设备发送:0A 03 04 84 00 04 04 6B
14:00:48.237 设备发送:0A 03 04 84 00 04 04 6B
14:00:49.064 设备发送:0A 03 04 84 00 04 04 6B
14:00:49.874 设备发送:0A 03 04 8D 00 21 15 B2
14:00:50.704 设备发送:0A 03 04 8D 00 21 15 B2
14:00:51.517 设备发送:0A 03 04 8D 00 21 15 B2
14:00:52.331 设备发送:0A 03 06 84 00 04 05 D3
14:00:53.145 设备发送:0A 03 06 84 00 04 05 D3
14:00:53.974 设备发送:0A 03 06 84 00 04 05 D3
14:00:54.804 设备发送:0A 03 04 04 00 01 C5 80
14:00:55.615 设备发送:0A 03 04 04 00 01 C5 80
14:00:56.431 设备发送:0A 03 04 04 00 01 C5 80
14:00:57.261 设备发送:0A 03 05 84 00 0F 44 50
14:00:58.070 设备发送:0A 03 05 84 00 0F 44 50
14:00:58.898 设备发送:0A 03 05 84 00 0F 44 50
14:00:59.708 设备发送:0A 03 05 93 00 0F F4 54
14:01:00.550 设备发送:0A 03 05 93 00 0F F4 54
14:01:01.361 设备发送:0A 03 05 93 00 0F F4 54
14:01:02.174 设备发送:0A 03 05 A2 00 0F A5 9B
14:01:02.990 设备发送:0A 03 05 A2 00 0F A5 9B
14:01:03.800 设备发送:0A 03 05 A2 00 0F A5 9B
14:01:04.643 设备发送:0A 03 05 B1 00 03 54 5B
14:01:05.454 设备发送:0A 03 05 B1 00 03 54 5B
14:01:06.280 设备发送:0A 03 05 B1 00 03 54 5B
14:01:07.091 设备发送:0A 03 04 2B 00 01 F4 49
14:01:07.909 设备发送:0A 03 04 2B 00 01 F4 49
14:01:08.741 设备发送:0A 03 04 2B 00 01 F4 49
14:01:09.554 设备发送:0A 03 04 20 00 01 85 8B
14:01:10.365 设备发送:0A 03 04 20 00 01 85 8B
14:01:11.206 设备发送:0A 03 04 20 00 01 85 8B
14:01:12.037 设备发送:0A 03 04 05 00 01 94 40
14:01:12.816 设备发送:0A 03 04 05 00 01 94 40
14:01:13.661 设备发送:0A 03 04 05 00 01 94 40
14:01:14.486 设备发送:01 03 04 84 00 04 05 10
14:01:15.267 设备接收:01 03 08 13 8B 1B BD FF C5 1B BD 6A 9E
14:01:15.299 设备发送:01 03 04 8D 00 21 14 C9
14:01:16.080 设备接收:01 03 42 08 FC 27 D8 00 00 00 00 00 00 00 00 00 00 00 00 00 00 00 00 00 00 09 21 27 DF 00 00 00 00 00 00 00 00 00 00 00 00 00 00 00 00 00 00 09 14 27 E3 00 00 00 00 00 00 00 00 00 00 00 00 00 00 00 00 00 00 13 E9
14:01:16.097 设备发送:01 03 06 84 00 04 04 A8
14:01:16.946 设备发送:01 03 06 84 00 04 04 A8
14:01:17.760 设备接收:01 03 08 00 00 75 24 00 13 27 51 C5 7C
14:01:17.775 设备发送:01 03 04 04 00 01 C4 FB
14:01:18.557 设备接收:01 03 02 00 02 39 85
14:01:18.573 设备发送:01 03 05 84 00 0F 45 2B
14:01:19.354 设备接收:01 03 1E 1F 57 05 CD 04 A8 1F 05 05 E8 04 B1 1F 43 05 C3 04 9C 1F 92 05 CB 04 AF 16 F7 02 FD 01 C1 B8 02
14:01:19.385 设备发送:01 03 05 93 00 0F F5 2F
14:01:20.196 设备接收:01 03 1E 00 00 00 00 00 00 1A 00 06 2E 04 1D 1C 05 03 05 02 2B 1B F4 03 07 02 2B 00 00 00 03 00 00 47 CC
14:01:20.212 设备发送:01 03 05 A2 00 0F A4 E0
14:01:21.023 设备接收:01 03 1E 00 00 00 00 00 00 00 00 00 00 00 00 00 00 00 00 00 00 00 00 00 00 00 00 00 00 00 00 00 00 D8 BA
14:01:21.039 设备发送:01 03 05 B1 00 03 55 20
14:01:21.850 设备接收:01 03 06 00 00 00 00 00 00 21 75
14:01:21.865 设备发送:01 03 04 2B 00 01 F5 32
14:01:22.643 设备接收:01 03 02 02 E1 79 6C
14:01:22.659 设备发送:01 03 04 20 00 01 84 F0
14:01:23.453 设备接收:01 03 02 00 21 78 5C
14:01:23.516 设备发送:01 03 04 05 00 01 95 3B
14:01:24.298 设备接收:01 03 02 00 00 B8 44
14:01:24.314 设备发送:02 03 04 84 00 04 05 23
14:01:25.111 设备接收:02 03 08 13 8B 1A 8D FF C9 1A 8D E5 88
14:01:25.127 设备发送:02 03 04 8D 00 21 14 FA
14:01:25.952 设备接收:02 03 42 08 FD 26 21 00 00 00 00 00 00 00 00 00 00 00 00 00 00 00 00 00 00 09 23 26 37 00 00 00 00 00 00 00 00 00 00 00 00 00 00 00 00 00 00 09 0E 26 3B 00 00 00 00 00 00 00 00 00 00 00 00 00 00 00 00 00 00 B0 16
14:01:25.969 设备发送:02 03 06 84 00 04 04 9B
14:01:26.751 设备接收:02 03 08 00 00 70 5E 00 13 6F E2 64 12
14:01:26.767 设备发送:02 03 04 04 00 01 C4 C8
14:01:27.580 设备接收:02 03 02 00 02 7D 85
14:01:27.595 设备发送:02 03 05 84 00 0F 45 18
14:01:28.388 设备接收:02 03 1E 1F 53 02 CD 02 3F 1F 6B 02 CB 02 3F 1F 34 02 DE 02 4A 1F 9F 05 9A 04 89 1F 68 02 CC 02 40 7C 93
14:01:28.435 设备发送:02 03 05 93 00 0F F5 1C
14:01:29.214 设备接收:02 03 1E 1F 27 02 D0 02 3E 1F 83 02 DB 02 4E 1E EE 05 D5 04 9E 1F 68 02 E3 02 52 1E FF 03 10 02 6E 91 0B
14:01:29.247 设备发送:02 03 05 A2 00 0F A4 D3
14:01:30.042 设备接收:02 03 1E 00 00 00 04 00 00 00 00 00 00 00 00 00 00 00 00 00 00 00 00 00 00 00 00 00 00 00 00 00 00 92 31
14:01:30.058 设备发送:02 03 05 B1 00 03 55 13
14:01:30.852 设备接收:02 03 06 00 00 00 00 00 00 35 85
14:01:30.914 设备发送:02 03 04 2B 00 01 F5 01
14:01:31.696 设备接收:02 03 02 02 E2 7D 6D
14:01:31.711 设备发送:02 03 04 20 00 01 84 C3
14:01:32.527 设备发送:02 03 04 20 00 01 84 C3
14:01:33.333 设备接收:02 03 02 00 40 FD B4
14:01:33.348 设备发送:02 03 04 05 00 01 95 08
14:01:34.157 设备接收:02 03 02 00 00 FC 44
14:01:34.189 设备发送:03 03 04 84 00 04 04 F2
14:01:34.984 设备接收:03 03 08 13 8B 1C A0 FF C2 1C A1 3E AB
14:01:34.999 设备发送:03 03 04 8D 00 21 15 2B
14:01:35.795 设备接收:03 03 42 08 FF 29 26 00 00 00 00 00 00 00 00 00 00 00 00 00 00 00 00 00 00 09 27 29 05 00 00 00 00 00 00 00 00 00 00 00 00 00 00 00 00 00 00 09 13 29 16 00 00 00 00 00 00 00 00 00 00 00 00 00 00 00 00 00 00 C6 BC
14:01:35.810 设备发送:03 03 06 84 00 04 05 4A
14:01:36.622 设备接收:03 03 08 00 00 79 31 00 13 F8 F3 1A 42
14:01:36.652 设备发送:03 03 04 04 00 01 C5 19
14:01:37.434 设备接收:03 03 02 00 02 40 45
14:01:37.466 设备发送:03 03 05 84 00 0F 44 C9
14:01:38.228 设备接收:03 03 1E 1E D7 06 36 04 E7 1E C1 06 3C 04 E9 1E E4 06 1A 04 D3 1E 90 06 27 04 D0 16 E4 06 23 03 99 E0 DE
14:01:38.259 设备发送:03 03 05 93 00 0F F4 CD
14:01:39.058 设备接收:03 03 1E 05 15 00 00 00 00 13 7C 04 78 02 3B 1B 8D 03 1E 02 33 1B 85 03 1F 02 33 05 17 00 00 00 00 F3 6F
14:01:39.088 设备发送:03 03 05 A2 00 0F A5 02
14:01:39.900 设备接收:03 03 1E 00 0D 00 00 00 00 00 00 00 00 00 00 00 00 00 00 00 00 00 00 00 00 00 00 00 00 00 00 00 00 C1 72
14:01:39.915 设备发送:03 03 05 B1 00 03 54 C2
14:01:40.726 设备接收:03 03 06 00 00 00 00 00 00 38 15
14:01:40.742 设备发送:03 03 04 2B 00 01 F4 D0
14:01:41.523 设备接收:03 03 02 02 E2 40 AD
14:01:41.540 设备发送:03 03 04 20 00 01 85 12
14:01:42.367 设备发送:03 03 04 20 00 01 85 12
14:01:43.176 设备接收:03 03 02 00 24 C1 9F
14:01:43.192 设备发送:03 03 04 05 00 01 94 D9
14:01:43.977 设备接收:03 03 02 00 00 C1 84
14:01:44.025 设备发送:04 03 04 84 00 04 05 45
14:01:44.852 设备发送:04 03 04 84 00 04 05 45
14:01:45.673 设备发送:04 03 04 84 00 04 05 45
14:01:46.486 设备发送:04 03 04 8D 00 21 14 9C
14:01:47.270 设备发送:04 03 04 8D 00 21 14 9C
14:01:48.109 设备发送:04 03 04 8D 00 21 14 9C
14:01:48.922 设备发送:04 03 06 84 00 04 04 FD
14:01:49.749 设备发送:04 03 06 84 00 04 04 FD
14:01:50.578 设备发送:04 03 06 84 00 04 04 FD
14:01:51.387 设备发送:04 03 04 04 00 01 C4 AE
14:01:52.198 设备发送:04 03 04 04 00 01 C4 AE
14:01:53.008 设备发送:04 03 04 04 00 01 C4 AE
14:01:53.851 设备发送:04 03 05 84 00 0F 45 7E
14:01:54.664 设备发送:04 03 05 84 00 0F 45 7E
14:01:55.474 设备发送:04 03 05 84 00 0F 45 7E
14:01:56.303 设备发送:04 03 05 93 00 0F F5 7A
14:01:57.134 设备发送:04 03 05 93 00 0F F5 7A
14:01:57.944 设备发送:04 03 05 93 00 0F F5 7A
14:01:58.773 设备发送:04 03 05 A2 00 0F A4 B5
14:01:59.580 设备发送:04 03 05 A2 00 0F A4 B5
14:02:00.421 设备发送:04 03 05 A2 00 0F A4 B5
14:02:01.249 设备发送:04 03 05 B1 00 03 55 75
14:02:02.065 设备发送:04 03 05 B1 00 03 55 75
14:02:02.880 设备发送:04 03 05 B1 00 03 55 75
14:02:03.692 设备发送:04 03 04 2B 00 01 F5 67
14:02:04.519 设备发送:04 03 04 2B 00 01 F5 67
14:02:05.329 设备发送:04 03 04 2B 00 01 F5 67
14:02:06.154 设备发送:04 03 04 20 00 01 84 A5
14:02:06.987 设备发送:04 03 04 20 00 01 84 A5
14:02:07.798 设备发送:04 03 04 20 00 01 84 A5
14:02:08.610 设备发送:04 03 04 05 00 01 95 6E
14:02:09.449 设备发送:04 03 04 05 00 01 95 6E
14:02:10.262 设备发送:04 03 04 05 00 01 95 6E
14:02:11.091 设备发送:05 03 04 84 00 04 04 94
14:02:11.905 设备发送:05 03 04 84 00 04 04 94
14:02:12.720 设备发送:05 03 04 84 00 04 04 94
14:02:13.534 设备发送:05 03 04 8D 00 21 15 4D
14:02:14.367 设备发送:05 03 04 8D 00 21 15 4D
14:02:15.180 设备发送:05 03 04 8D 00 21 15 4D
14:02:15.993 设备发送:05 03 06 84 00 04 05 2C
14:02:16.820 设备发送:05 03 06 84 00 04 05 2C
14:02:17.632 设备发送:05 03 06 84 00 04 05 2C
14:02:18.458 设备发送:05 03 04 04 00 01 C5 7F
14:02:19.272 设备发送:05 03 04 04 00 01 C5 7F
14:02:20.084 设备发送:05 03 04 04 00 01 C5 7F
14:02:20.899 设备发送:05 03 05 84 00 0F 44 AF
14:02:21.727 设备发送:05 03 05 84 00 0F 44 AF
14:02:22.568 设备发送:05 03 05 84 00 0F 44 AF
14:02:23.381 设备发送:05 03 05 93 00 0F F4 AB
14:02:24.207 设备发送:05 03 05 93 00 0F F4 AB
14:02:25.021 设备发送:05 03 05 93 00 0F F4 AB
14:02:25.836 设备发送:05 03 05 A2 00 0F A5 64
14:02:26.646 设备发送:05 03 05 A2 00 0F A5 64
14:02:27.476 设备发送:05 03 05 A2 00 0F A5 64
14:02:28.287 设备发送:05 03 05 B1 00 03 54 A4
14:02:29.114 设备发送:05 03 05 B1 00 03 54 A4
14:02:29.942 设备发送:05 03 05 B1 00 03 54 A4
14:02:30.754 设备发送:05 03 04 2B 00 01 F4 B6
14:02:31.579 设备发送:05 03 04 2B 00 01 F4 B6
14:02:32.408 设备发送:05 03 04 2B 00 01 F4 B6
14:02:33.219 设备发送:05 03 04 20 00 01 85 74
14:02:34.029 设备发送:05 03 04 20 00 01 85 74
14:02:34.859 设备发送:05 03 04 20 00 01 85 74
14:02:35.687 设备发送:05 03 04 05 00 01 94 BF
14:02:36.499 设备发送:05 03 04 05 00 01 94 BF
14:02:37.309 设备发送:05 03 04 05 00 01 94 BF
14:02:38.138 设备发送:06 03 04 84 00 04 04 A7
14:02:38.964 设备发送:06 03 04 84 00 04 04 A7
14:02:39.777 设备发送:06 03 04 84 00 04 04 A7
14:02:40.603 设备发送:06 03 04 8D 00 21 15 7E
14:02:41.428 设备发送:06 03 04 8D 00 21 15 7E
14:02:42.240 设备发送:06 03 04 8D 00 21 15 7E
14:02:43.066 设备发送:06 03 06 84 00 04 05 1F
14:02:43.846 设备发送:06 03 06 84 00 04 05 1F
14:02:44.671 设备发送:06 03 06 84 00 04 05 1F
14:02:45.515 设备发送:06 03 04 04 00 01 C5 4C
14:02:46.330 设备发送:06 03 04 04 00 01 C5 4C
14:02:47.159 设备发送:06 03 04 04 00 01 C5 4C
14:02:47.970 设备发送:06 03 05 84 00 0F 44 9C
14:02:48.798 设备发送:06 03 05 84 00 0F 44 9C
14:02:49.629 设备发送:06 03 05 84 00 0F 44 9C
14:02:50.440 设备发送:06 03 05 93 00 0F F4 98
14:02:51.251 设备发送:06 03 05 93 00 0F F4 98
14:02:52.082 设备发送:06 03 05 93 00 0F F4 98
14:02:52.897 设备发送:06 03 05 A2 00 0F A5 57
14:02:53.711 设备发送:06 03 05 A2 00 0F A5 57
14:02:54.557 设备发送:06 03 05 A2 00 0F A5 57
14:02:55.366 设备发送:06 03 05 B1 00 03 54 97
14:02:56.177 设备发送:06 03 05 B1 00 03 54 97
14:02:56.996 设备发送:06 03 05 B1 00 03 54 97
14:02:57.840 设备发送:06 03 04 2B 00 01 F4 85
14:02:58.627 设备发送:06 03 04 2B 00 01 F4 85
14:02:59.442 设备发送:06 03 04 2B 00 01 F4 85
14:03:00.301 设备发送:06 03 04 20 00 01 85 47
14:03:01.113 设备发送:06 03 04 20 00 01 85 47
14:03:01.923 设备发送:06 03 04 20 00 01 85 47
14:03:02.750 设备发送:06 03 04 05 00 01 94 8C
14:03:03.562 设备发送:06 03 04 05 00 01 94 8C
14:03:04.395 设备发送:06 03 04 05 00 01 94 8C
14:03:05.209 设备发送:07 03 04 84 00 04 05 76
14:03:06.021 设备发送:07 03 04 84 00 04 05 76
14:03:06.828 设备发送:07 03 04 84 00 04 05 76
14:03:07.654 设备发送:07 03 04 8D 00 21 14 AF
14:03:08.482 设备发送:07 03 04 8D 00 21 14 AF
14:03:09.314 设备发送:07 03 04 8D 00 21 14 AF
14:03:10.126 设备发送:07 03 06 84 00 04 04 CE
14:03:10.955 设备发送:07 03 06 84 00 04 04 CE
14:03:11.768 设备发送:07 03 06 84 00 04 04 CE
14:03:12.589 设备发送:07 03 04 04 00 01 C4 9D
14:03:13.419 设备发送:07 03 04 04 00 01 C4 9D
14:03:14.231 设备发送:07 03 04 04 00 01 C4 9D
14:03:15.045 设备发送:07 03 05 84 00 0F 45 4D
14:03:15.850 设备发送:07 03 05 84 00 0F 45 4D
14:03:16.695 设备发送:07 03 05 84 00 0F 45 4D
14:03:17.507 设备发送:07 03 05 93 00 0F F5 49
14:03:18.321 设备发送:07 03 05 93 00 0F F5 49
14:03:19.138 设备发送:07 03 05 93 00 0F F5 49
14:03:19.957 设备发送:07 03 05 A2 00 0F A4 86
14:03:20.801 设备发送:07 03 05 A2 00 0F A4 86
14:03:21.582 设备发送:07 03 05 A2 00 0F A4 86
14:03:22.393 设备发送:07 03 05 B1 00 03 55 46
14:03:23.252 设备发送:07 03 05 B1 00 03 55 46
14:03:24.050 设备发送:07 03 05 B1 00 03 55 46
14:03:24.878 设备发送:07 03 04 2B 00 01 F5 54
14:03:25.698 设备发送:07 03 04 2B 00 01 F5 54
14:03:26.508 设备发送:07 03 04 2B 00 01 F5 54
14:03:27.344 设备发送:07 03 04 20 00 01 84 96
14:03:28.140 设备发送:07 03 04 20 00 01 84 96
14:03:28.969 设备发送:07 03 04 20 00 01 84 96
14:03:29.798 设备发送:07 03 04 05 00 01 95 5D
14:03:30.628 设备发送:07 03 04 05 00 01 95 5D
14:03:31.437 设备发送:07 03 04 05 00 01 95 5D
14:03:32.278 设备发送:08 03 04 84 00 04 05 89
14:03:33.090 设备发送:08 03 04 84 00 04 05 89
14:03:33.905 设备发送:08 03 04 84 00 04 05 89
14:03:34.719 设备发送:08 03 04 8D 00 21 14 50
14:03:35.532 设备发送:08 03 04 8D 00 21 14 50
14:03:36.380 设备发送:08 03 04 8D 00 21 14 50
14:03:37.192 设备发送:08 03 06 84 00 04 04 31
14:03:38.005 设备发送:08 03 06 84 00 04 04 31
14:03:38.817 设备发送:08 03 06 84 00 04 04 31
14:03:39.644 设备发送:08 03 04 04 00 01 C4 62
14:03:40.459 设备发送:08 03 04 04 00 01 C4 62
14:03:41.274 设备发送:08 03 04 04 00 01 C4 62
14:03:42.085 设备发送:08 03 05 84 00 0F 45 B2
14:03:42.913 设备发送:08 03 05 84 00 0F 45 B2
14:03:43.739 设备发送:08 03 05 84 00 0F 45 B2
14:03:44.548 设备发送:08 03 05 93 00 0F F5 B6
14:03:45.373 设备发送:08 03 05 93 00 0F F5 B6
14:03:46.201 设备发送:08 03 05 93 00 0F F5 B6
14:03:47.011 设备发送:08 03 05 A2 00 0F A4 79
14:03:47.856 设备发送:08 03 05 A2 00 0F A4 79
14:03:48.669 设备发送:08 03 05 A2 00 0F A4 79
14:03:49.481 设备发送:08 03 05 B1 00 03 55 B9
14:03:50.292 设备发送:08 03 05 B1 00 03 55 B9
14:03:51.107 设备发送:08 03 05 B1 00 03 55 B9
14:03:51.920 设备发送:08 03 04 2B 00 01 F5 AB
14:03:52.768 设备发送:08 03 04 2B 00 01 F5 AB
14:03:53.582 设备发送:08 03 04 2B 00 01 F5 AB
14:03:54.391 设备发送:08 03 04 20 00 01 84 69
14:03:55.217 设备发送:08 03 04 20 00 01 84 69
14:03:56.044 设备发送:08 03 04 20 00 01 84 69
14:03:56.863 设备发送:08 03 04 05 00 01 95 A2
14:03:57.678 设备发送:08 03 04 05 00 01 95 A2
14:03:58.496 设备发送:08 03 04 05 00 01 95 A2
14:03:59.338 设备发送:09 03 04 84 00 04 04 58
14:04:00.150 设备发送:09 03 04 84 00 04 04 58
14:04:00.960 设备发送:09 03 04 84 00 04 04 58
14:04:01.793 设备发送:09 03 04 8D 00 21 15 81
14:04:02.609 设备发送:09 03 04 8D 00 21 15 81
14:04:03.422 设备发送:09 03 04 8D 00 21 15 81
14:04:04.249 设备发送:09 03 06 84 00 04 05 E0
14:04:05.060 设备发送:09 03 06 84 00 04 05 E0
14:04:05.894 设备发送:09 03 06 84 00 04 05 E0
14:04:06.707 设备发送:09 03 04 04 00 01 C5 B3
14:04:07.525 设备发送:09 03 04 04 00 01 C5 B3
14:04:08.338 设备发送:09 03 04 04 00 01 C5 B3
14:04:09.163 设备发送:09 03 05 84 00 0F 44 63
14:04:09.974 设备发送:09 03 05 84 00 0F 44 63
14:04:10.788 设备发送:09 03 05 84 00 0F 44 63
14:04:11.614 设备发送:09 03 05 93 00 0F F4 67
14:04:12.456 设备发送:09 03 05 93 00 0F F4 67
14:04:13.271 设备发送:09 03 05 93 00 0F F4 67
14:04:14.083 设备发送:09 03 05 A2 00 0F A5 A8
14:04:14.897 设备发送:09 03 05 A2 00 0F A5 A8
14:04:15.722 设备发送:09 03 05 A2 00 0F A5 A8
14:04:16.533 设备发送:09 03 05 B1 00 03 54 68
14:04:17.360 设备发送:09 03 05 B1 00 03 54 68
14:04:18.186 设备发送:09 03 05 B1 00 03 54 68
14:04:19.002 设备发送:09 03 04 2B 00 01 F4 7A
14:04:19.816 设备发送:09 03 04 2B 00 01 F4 7A
14:04:20.629 设备发送:09 03 04 2B 00 01 F4 7A
14:04:21.441 设备发送:09 03 04 20 00 01 85 B8
14:04:22.302 设备发送:09 03 04 20 00 01 85 B8
14:04:23.112 设备发送:09 03 04 20 00 01 85 B8
14:04:23.925 设备发送:09 03 04 05 00 01 94 73
14:04:24.756 设备发送:09 03 04 05 00 01 94 73
14:04:25.568 设备发送:09 03 04 05 00 01 94 73
14:04:26.381 设备发送:0A 03 04 84 00 04 04 6B
14:04:27.208 设备发送:0A 03 04 84 00 04 04 6B
14:04:28.021 设备发送:0A 03 04 84 00 04 04 6B
14:04:28.836 设备发送:0A 03 04 8D 00 21 15 B2
14:04:29.677 设备发送:0A 03 04 8D 00 21 15 B2
14:04:30.487 设备发送:0A 03 04 8D 00 21 15 B2
14:04:31.297 设备发送:0A 03 06 84 00 04 05 D3
14:04:32.145 设备发送:0A 03 06 84 00 04 05 D3
14:04:32.959 设备发送:0A 03 06 84 00 04 05 D3
14:04:33.738 设备发送:0A 03 04 04 00 01 C5 80
14:04:34.581 设备发送:0A 03 04 04 00 01 C5 80
14:04:35.410 设备发送:0A 03 04 04 00 01 C5 80
14:04:36.219 设备发送:0A 03 05 84 00 0F 44 50
14:04:37.045 设备发送:0A 03 05 84 00 0F 44 50
14:04:37.872 设备发送:0A 03 05 84 00 0F 44 50
14:04:38.697 设备发送:0A 03 05 93 00 0F F4 54
14:04:39.477 设备发送:0A 03 05 93 00 0F F4 54
14:04:40.304 设备发送:0A 03 05 93 00 0F F4 54
14:04:41.163 设备发送:0A 03 05 A2 00 0F A5 9B
14:04:41.976 设备发送:0A 03 05 A2 00 0F A5 9B
14:04:42.787 设备发送:0A 03 05 A2 00 0F A5 9B
14:04:43.602 设备发送:0A 03 05 B1 00 03 54 5B
14:04:44.417 设备发送:0A 03 05 B1 00 03 54 5B
14:04:45.243 设备发送:0A 03 05 B1 00 03 54 5B
14:04:46.071 设备发送:0A 03 04 2B 00 01 F4 49
14:04:46.880 设备发送:0A 03 04 2B 00 01 F4 49
14:04:47.692 设备发送:0A 03 04 2B 00 01 F4 49
14:04:48.518 设备发送:0A 03 04 20 00 01 85 8B
14:04:49.349 设备发送:0A 03 04 20 00 01 85 8B
14:04:50.158 设备发送:0A 03 04 20 00 01 85 8B
14:04:50.968 设备发送:0A 03 04 05 00 01 94 40
14:04:51.813 设备发送:0A 03 04 05 00 01 94 40
14:04:52.626 设备发送:0A 03 04 05 00 01 94 40
14:04:53.452 设备发送:01 03 04 84 00 04 05 10
14:04:54.264 设备接收:01 03 08 13 88 1B 60 FF 5B 1B 62 95 FB
14:04:54.280 设备发送:01 03 04 8D 00 21 14 C9
14:04:55.076 设备接收:01 03 42 08 F8 27 53 00 00 00 00 00 00 00 00 00 00 00 00 00 00 00 00 00 00 09 1E 27 5E 00 00 00 00 00 00 00 00 00 00 00 00 00 00 00 00 00 00 09 11 27 5F 00 00 00 00 00 00 00 00 00 00 00 00 00 00 00 00 00 00 C0 44
14:04:55.092 设备发送:01 03 06 84 00 04 04 A8
14:04:55.872 设备接收:01 03 08 00 00 76 D0 00 13 27 7C B4 87
14:04:55.887 设备发送:01 03 04 04 00 01 C4 FB
14:04:56.717 设备发送:01 03 04 04 00 01 C4 FB
14:04:57.531 设备接收:01 03 02 00 02 39 85
14:04:57.548 设备发送:01 03 05 84 00 0F 45 2B
14:04:58.345 设备接收:01 03 1E 1F 5B 05 BB 04 9A 1F 58 05 C5 04 A1 1F 20 05 B4 04 8B 1F 72 05 BC 04 9D 16 D3 02 F6 01 BB 11 86
14:04:58.376 设备发送:01 03 05 93 00 0F F5 2F
14:04:59.157 设备接收:01 03 1E 00 00 00 00 00 00 1A 03 06 17 04 0E 1B E0 02 FE 02 22 1B CF 03 00 02 23 00 00 00 04 00 00 77 19
14:04:59.173 设备发送:01 03 05 A2 00 0F A4 E0
14:04:59.970 设备接收:01 03 1E 00 00 00 00 00 00 00 00 00 00 00 00 00 00 00 00 00 00 00 00 00 00 00 00 00 00 00 00 00 00 D8 BA
14:05:00.002 设备发送:01 03 05 B1 00 03 55 20
14:05:00.813 设备接收:01 03 06 00 00 00 00 00 00 21 75
14:05:00.828 设备发送:01 03 04 2B 00 01 F5 32
14:05:01.641 设备接收:01 03 02 02 E1 79 6C
14:05:01.656 设备发送:01 03 04 20 00 01 84 F0
14:05:02.463 设备接收:01 03 02 00 21 78 5C
14:05:02.479 设备发送:01 03 04 05 00 01 95 3B
14:05:03.259 设备接收:01 03 02 00 00 B8 44
14:05:03.278 设备发送:02 03 04 84 00 04 05 23
14:05:04.088 设备接收:02 03 08 13 8A 1A 26 00 2D 1A 26 E1 0C
14:05:04.103 设备发送:02 03 04 8D 00 21 14 FA
14:05:04.916 设备接收:02 03 42 08 F7 25 9C 00 00 00 00 00 00 00 00 00 00 00 00 00 00 00 00 00 00 09 1D 25 B3 00 00 00 00 00 00 00 00 00 00 00 00 00 00 00 00 00 00 09 0A 25 B9 00 00 00 00 00 00 00 00 00 00 00 00 00 00 00 00 00 00 18 06
14:05:04.932 设备发送:02 03 06 84 00 04 04 9B
14:05:05.741 设备接收:02 03 08 00 00 71 F9 00 13 70 0B 99 A4
14:05:05.758 设备发送:02 03 04 04 00 01 C4 C8
14:05:06.571 设备接收:02 03 02 00 02 7D 85
14:05:06.587 设备发送:02 03 05 84 00 0F 45 18
14:05:07.386 设备接收:02 03 1E 1F 2E 02 C7 02 37 1F 6B 02 BF 02 35 1F 88 02 CA 02 40 1F A2 05 85 04 78 1F 19 02 C5 02 35 CA A1
14:05:07.405 设备发送:02 03 05 93 00 0F F5 1C
14:05:08.183 设备接收:02 03 1E 1F 27 02 C4 02 35 1F 84 02 D1 02 46 1E EE 05 BB 04 89 1F 69 02 D8 02 49 1E FF 03 04 02 64 79 C7
14:05:08.199 设备发送:02 03 05 A2 00 0F A4 D3
14:05:09.029 设备接收:02 03 1E 00 00 00 03 00 00 00 00 00 00 00 00 00 00 00 00 00 00 00 00 00 00 00 00 00 00 00 00 00 00 6D 7D
14:05:09.045 设备发送:02 03 05 B1 00 03 55 13
14:05:09.827 设备接收:02 03 06 00 00 00 00 00 00 35 85
14:05:09.843 设备发送:02 03 04 2B 00 01 F5 01
14:05:10.669 设备发送:02 03 04 2B 00 01 F5 01
14:05:11.465 设备接收:02 03 02 02 E2 7D 6D
14:05:11.480 设备发送:02 03 04 20 00 01 84 C3
14:05:12.293 设备接收:02 03 02 00 41 3C 74
14:05:12.309 设备发送:02 03 04 05 00 01 95 08
14:05:13.090 设备接收:02 03 02 00 00 FC 44
14:05:13.137 设备发送:03 03 04 84 00 04 04 F2
14:05:13.918 设备接收:03 03 08 13 8B 1C 29 FF 57 1C 2B 72 FF
14:05:13.933 设备发送:03 03 04 8D 00 21 15 2B
14:05:14.748 设备接收:03 03 42 08 F7 28 8B 00 00 00 00 00 00 00 00 00 00 00 00 00 00 00 00 00 00 09 23 28 7D 00 00 00 00 00 00 00 00 00 00 00 00 00 00 00 00 00 00 09 11 28 84 00 00 00 00 00 00 00 00 00 00 00 00 00 00 00 00 00 00 31 AC
14:05:14.767 设备发送:03 03 06 84 00 04 05 4A
14:05:15.544 设备接收:03 03 08 00 00 7A ED 00 13 F9 1F CB BF
14:05:15.606 设备发送:03 03 04 04 00 01 C5 19
14:05:16.384 设备接收:03 03 02 00 02 40 45
14:05:16.416 设备发送:03 03 05 84 00 0F 44 C9
14:05:17.203 设备接收:03 03 1E 1E FD 06 19 04 D6 1E C1 06 24 04 D6 1E E0 05 FA 04 BA 1E 8C 06 07 04 B6 16 E0 06 0B 03 8A 0D 62
14:05:17.219 设备发送:03 03 05 93 00 0F F4 CD
14:05:18.013 设备接收:03 03 1E 05 17 00 00 00 00 13 7A 04 6A 02 33 1B 63 03 15 02 29 1B 0B 03 1A 02 26 05 1A 00 00 00 00 80 86
14:05:18.034 设备发送:03 03 05 A2 00 0F A5 02
14:05:18.841 设备接收:03 03 1E 00 0E 00 00 00 00 00 00 00 00 00 00 00 00 00 00 00 00 00 00 00 00 00 00 00 00 00 00 00 00 81 70
14:05:18.856 设备发送:03 03 05 B1 00 03 54 C2
14:05:19.652 设备接收:03 03 06 00 00 00 00 00 00 38 15
14:05:19.714 设备发送:03 03 04 2B 00 01 F4 D0
14:05:20.477 设备接收:03 03 02 02 E2 40 AD
14:05:20.508 设备发送:03 03 04 20 00 01 85 12
14:05:21.317 设备接收:03 03 02 00 23 80 5D
14:05:21.332 设备发送:03 03 04 05 00 01 94 D9
14:05:22.146 设备接收:03 03 02 00 00 C1 84
14:05:22.162 设备发送:04 03 04 84 00 04 05 45
14:05:22.961 设备发送:04 03 04 84 00 04 05 45
14:05:23.788 设备发送:04 03 04 84 00 04 05 45
14:05:24.597 设备发送:04 03 04 8D 00 21 14 9C
14:05:25.426 设备发送:04 03 04 8D 00 21 14 9C

