
14:49:07.17800
14:49:07.18000
14:49:07.18200
14:49:07.19100
14:49:07.20000
14:49:07.20200
14:49:07.20500
14:49:07.20700
14:49:07.20800
14:49:07.21000
14:49:08.412 设备接收:03 03 1E 1E FF 05 24 04 14 1E ED 05 2A 04 16 1F 34 04 FD 03 FC 1F 08 05 04 03 FC 17 57 04 F9 02 F8 AA EA
14:49:08.442 设备发送:03 03 05 93 00 0F F4 CD
14:49:09.947 设备接收:03 03 1E 05 24 00 00 00 00 13 70 03 E7 01 F1 1B 8C 02 97 01 D3 1B D3 02 90 01 D3 05 28 00 00 00 00 BE 04
14:49:09.962 设备发送:03 03 05 A2 00 0F A5 02
14:49:11.478 设备接收:03 03 1E 00 10 00 00 00 00 00 00 00 00 00 00 00 00 00 00 00 00 00 00 00 00 00 00 00 00 00 00 00 00 01 66
14:49:11.493 设备发送:03 03 05 B1 00 03 54 C2
14:49:13.014 设备接收:03 03 06 00 00 00 00 00 00 38 15
14:49:13.029 设备发送:03 03 04 2B 00 01 F4 D0
14:49:14.522 设备接收:03 03 02 02 E2 40 AD
14:49:14.585 设备发送:03 03 04 20 00 01 85 12
14:49:16.052 设备接收:03 03 02 00 2D 01 99
14:49:16.084 设备发送:03 03 04 05 00 01 94 D9
14:49:17.584 设备发送:03 03 04 05 00 01 94 D9
14:49:19.100 设备接收:03 03 02 00 00 C1 84
14:49:19.148 设备发送:01 03 04 84 00 04 05 10
14:49:20.633 设备接收:01 03 08 13 8B 16 9F FF D2 16 9F A7 09
14:49:20.648 设备发送:01 03 04 8D 00 21 14 C9
14:49:22.161 设备接收:01 03 42 08 F9 20 A8 00 00 00 00 00 00 00 00 00 00 00 00 00 00 00 00 00 00 09 14 20 AF 00 00 00 00 00 00 00 00 00 00 00 00 00 00 00 00 00 00 09 0C 20 B9 00 00 00 00 00 00 00 00 00 00 00 00 00 00 00 00 00 00 EA 93
14:49:22.193 设备发送:01 03 06 84 00 04 04 A8
14:49:23.703 设备接收:01 03 08 00 00 89 5F 00 13 29 57 B1 28
14:49:23.719 设备发送:01 03 04 04 00 01 C4 FB
14:49:25.244 设备发送:01 03 04 04 00 01 C4 FB
14:49:26.760 设备接收:01 03 02 00 02 39 85
14:49:26.776 设备发送:01 03 05 84 00 0F 45 2B
14:49:28.275 设备接收:01 03 1E 1F AB 04 B0 03 CD 1F 7F 04 BC 03 D2 1F 6F 04 A6 03 BD 1F C0 04 B3 03 D2 17 22 02 70 01 71 79 BA
14:49:28.290 设备发送:01 03 05 93 00 0F F5 2F
14:49:29.820 设备接收:01 03 1E 00 00 00 00 00 00 1A 51 05 08 03 63 1C 2D 02 75 01 C6 1C 6C 02 6F 01 C5 00 00 00 03 00 00 77 CD
14:49:29.836 设备发送:01 03 05 A2 00 0F A4 E0
14:49:31.352 设备接收:01 03 1E 00 00 00 00 00 00 00 00 00 00 00 00 00 00 00 00 00 00 00 00 00 00 00 00 00 00 00 00 00 00 D8 BA
14:49:31.368 设备发送:01 03 05 B1 00 03 55 20
14:49:32.868 设备接收:01 03 06 00 00 00 00 00 00 21 75
14:49:32.884 设备发送:01 03 04 2B 00 01 F5 32
14:49:34.394 设备接收:01 03 02 02 E1 79 6C
14:49:34.425 设备发送:01 03 04 20 00 01 84 F0
14:49:35.919 设备接收:01 03 02 00 30 B8 50
14:49:35.967 设备发送:01 03 04 05 00 01 95 3B
14:49:37.463 设备接收:01 03 02 00 00 B8 44
14:49:37.479 设备发送:02 03 04 84 00 04 05 23
14:49:38.993 设备接收:02 03 08 13 8B 15 86 FF D3 15 86 25 46
14:49:39.009 设备发送:02 03 04 8D 00 21 14 FA
14:49:40.508 设备接收:02 03 42 08 F9 1F 25 00 00 00 00 00 00 00 00 00 00 00 00 00 00 00 00 00 00 09 10 1F 29 00 00 00 00 00 00 00 00 00 00 00 00 00 00 00 00 00 00 09 03 1F 35 00 00 00 00 00 00 00 00 00 00 00 00 00 00 00 00 00 00 8D 18
14:49:40.555 设备发送:02 03 06 84 00 04 04 9B
14:49:42.067 设备接收:02 03 08 00 00 83 CA 00 13 71 D3 89 78
14:49:42.082 设备发送:02 03 04 04 00 01 C4 C8
14:49:43.595 设备接收:02 03 02 00 02 7D 85
14:49:43.611 设备发送:02 03 05 84 00 0F 45 18
14:49:45.114 设备接收:02 03 1E 1F A6 02 45 01 D7 1F BB 02 3E 01 D2 1F AF 02 48 01 D9 1F F1 04 83 03 B1 1F E3 02 3C 01 D3 5B 25
14:49:45.161 设备发送:02 03 05 93 00 0F F5 1C
14:49:46.649 设备接收:02 03 1E 1F 9F 02 3C 01 CF 1F FB 02 4A 01 E0 1F 8E 04 AD 03 C7 1F B9 02 57 01 E6 1F 4F 02 80 02 01 24 2E
14:49:46.665 设备发送:02 03 05 A2 00 0F A4 D3
14:49:48.168 设备接收:02 03 1E 00 00 00 04 00 00 00 00 00 00 00 00 00 00 00 00 00 00 00 00 00 00 00 00 00 00 00 00 00 00 92 31
14:49:48.215 设备发送:02 03 05 B1 00 03 55 13
14:49:49.698 设备接收:02 03 06 00 00 00 00 00 00 35 85
14:49:49.713 设备发送:02 03 04 2B 00 01 F5 01
14:49:51.237 设备接收:02 03 02 02 E2 7D 6D
14:49:51.252 设备发送:02 03 04 20 00 01 84 C3
14:49:52.741 设备接收:02 03 02 00 44 FC 77
14:49:52.757 设备发送:02 03 04 05 00 01 95 08
14:49:54.274 设备接收:02 03 02 00 00 FC 44
14:49:54.290 设备发送:03 03 04 84 00 04 04 F2
14:49:55.807 设备接收:03 03 08 13 8B 17 A3 FF CD 17 A3 CD 22
14:49:55.838 设备发送:03 03 04 8D 00 21 15 2B
14:49:57.338 设备接收:03 03 42 08 F6 22 06 00 00 00 00 00 00 00 00 00 00 00 00 00 00 00 00 00 00 09 19 21 FD 00 00 00 00 00 00 00 00 00 00 00 00 00 00 00 00 00 00 09 0C 22 10 00 00 00 00 00 00 00 00 00 00 00 00 00 00 00 00 00 00 A5 8D
14:49:57.354 设备发送:03 03 06 84 00 04 05 4A
14:49:58.880 设备接收:03 03 08 00 00 8E 51 00 13 FB 10 CE 74
14:49:58.895 设备发送:03 03 04 04 00 01 C5 19
14:50:00.415 设备接收:03 03 02 00 02 40 45
14:50:00.431 设备发送:03 03 05 84 00 0F 44 C9
14:50:01.930 设备接收:03 03 1E 1E FF 05 1A 04 0D 1F 11 05 19 04 0E 1F 59 04 EE 03 F5 1F 05 04 F9 03 F3 17 2F 04 FA 02 F4 B7 BC
14:50:01.962 设备发送:03 03 05 93 00 0F F4 CD
14:50:03.463 设备发送:03 03 05 A2 00 0F A5 02
14:50:03.495 设备接收:03 03 1E 05 25 00 00 00 00 13 7B 03 D1 01 E7 1B 8B 02 90 01 CF 1B FA 02 87 01 CF 05 29 00 00 00 00 06 5A
14:50:04.980 设备接收:03 03 1E 00 0F 00 00 00 00 00 00 00 00 00 00 00 00 00 00 00 00 00 00 00 00 00 00 00 00 00 00 00 00 41 71
14:50:04.996 设备发送:03 03 05 B1 00 03 54 C2
14:50:06.526 设备接收:03 03 06 00 00 00 00 00 00 38 15
14:50:06.541 设备发送:03 03 04 2B 00 01 F4 D0
14:50:08.084 设备发送:03 03 04 2B 00 01 F4 D0
14:50:09.585 设备接收:03 03 02 02 E2 40 AD
14:50:09.601 设备发送:03 03 04 20 00 01 85 12
14:50:11.115 设备接收:03 03 02 00 29 00 5A
14:50:11.130 设备发送:03 03 04 05 00 01 94 D9
14:50:12.648 设备发送:03 03 04 05 00 01 94 D9
14:50:14.183 设备发送:03 03 04 05 00 01 94 D9
14:50:15.667 设备接收:03 03 02 00 00 C1 84
14:50:15.715 设备发送:01 03 04 84 00 04 05 10
14:50:17.229 设备接收:01 03 08 13 89 16 64 FF D0 16 64 81 5E
14:50:17.245 设备发送:01 03 04 8D 00 21 14 C9
14:50:18.768 设备接收:01 03 42 08 F8 20 52 00 00 00 00 00 00 00 00 00 00 00 00 00 00 00 00 00 00 09 14 20 5A 00 00 00 00 00 00 00 00 00 00 00 00 00 00 00 00 00 00 09 0B 20 66 00 00 00 00 00 00 00 00 00 00 00 00 00 00 00 00 00 00 26 76
14:50:18.780 设备发送:01 03 06 84 00 04 04 A8
14:50:20.281 设备接收:01 03 08 00 00 89 B9 00 13 29 60 F9 28
14:50:20.298 设备发送:01 03 04 04 00 01 C4 FB
14:50:21.795 设备接收:01 03 02 00 02 39 85
14:50:21.812 设备发送:01 03 05 84 00 0F 45 2B
14:50:23.330 设备接收:01 03 1E 1F AB 04 A4 03 C3 1F CB 04 A4 03 C7 1F 94 04 94 03 B3 20 0D 04 9F 03 CA 17 47 02 66 01 6E 0F B0
14:50:23.361 设备发送:01 03 05 93 00 0F F5 2F
14:50:24.860 设备接收:01 03 1E 00 00 00 00 00 00 1A 2B 05 05 03 5D 1C 2E 02 72 01 C3 1C 45 02 6F 01 C3 00 00 00 03 00 00 4B 6F
14:50:24.877 设备发送:01 03 05 A2 00 0F A4 E0
14:50:26.375 设备接收:01 03 1E 00 00 00 00 00 00 00 00 00 00 00 00 00 00 00 00 00 00 00 00 00 00 00 00 00 00 00 00 00 00 D8 BA
14:50:26.407 设备发送:01 03 05 B1 00 03 55 20
14:50:27.894 设备接收:01 03 06 00 00 00 00 00 00 21 75
14:50:27.940 设备发送:01 03 04 2B 00 01 F5 32
14:50:29.440 设备接收:01 03 02 02 E1 79 6C
14:50:29.456 设备发送:01 03 04 20 00 01 84 F0
14:50:30.969 设备接收:01 03 02 00 29 79 9A
14:50:31.000 设备发送:01 03 04 05 00 01 95 3B
14:50:32.502 设备接收:01 03 02 00 00 B8 44
14:50:32.517 设备发送:02 03 04 84 00 04 05 23
14:50:34.030 设备接收:02 03 08 13 85 15 4D FF 80 15 4E 9E D1
14:50:34.077 设备发送:02 03 04 8D 00 21 14 FA
14:50:35.559 设备接收:02 03 42 08 F6 1E C4 00 00 00 00 00 00 00 00 00 00 00 00 00 00 00 00 00 00 09 0F 1E CF 00 00 00 00 00 00 00 00 00 00 00 00 00 00 00 00 00 00 09 03 1E DD 00 00 00 00 00 00 00 00 00 00 00 00 00 00 00 00 00 00 27 FE
14:50:35.623 设备发送:02 03 06 84 00 04 04 9B
14:50:37.106 设备接收:02 03 08 00 00 84 1E 00 13 71 DC F8 D9
14:50:37.121 设备发送:02 03 04 04 00 01 C4 C8
14:50:38.653 设备发送:02 03 04 04 00 01 C4 C8
14:50:40.165 设备接收:02 03 02 00 02 7D 85
14:50:40.180 设备发送:02 03 05 84 00 0F 45 18
14:50:41.678 设备接收:02 03 1E 1F 7C 02 3D 01 CE 1F BA 02 36 01 CB 1F D4 02 3E 01 D3 1F EF 04 75 03 A5 1F 68 02 3B 01 CB 9C 4C
14:50:41.725 设备发送:02 03 05 93 00 0F F5 1C
14:50:43.207 设备接收:02 03 1E 1F 77 02 39 01 CB 1F D3 02 49 01 DD 1F 8D 04 9C 03 B9 1F E0 02 4B 01 DF 1F 4E 02 7B 01 FD 24 05
14:50:43.252 设备发送:02 03 05 A2 00 0F A4 D3
14:50:44.738 设备接收:02 03 1E 00 00 00 04 00 00 00 00 00 00 00 00 00 00 00 00 00 00 00 00 00 00 00 00 00 00 00 00 00 00 92 31
14:50:44.771 设备发送:02 03 05 B1 00 03 55 13
14:50:46.285 设备接收:02 03 06 00 00 00 00 00 00 35 85
14:50:46.304 设备发送:02 03 04 2B 00 01 F5 01
14:50:47.814 设备接收:02 03 02 02 E2 7D 6D
14:50:47.829 设备发送:02 03 04 20 00 01 84 C3
14:50:49.345 设备接收:02 03 02 00 43 BD B5
14:50:49.361 设备发送:02 03 04 05 00 01 95 08
14:50:50.859 设备接收:02 03 02 00 00 FC 44
14:50:50.906 设备发送:03 03 04 84 00 04 04 F2
14:50:52.424 设备发送:03 03 04 84 00 04 04 F2
14:50:53.921 设备接收:03 03 08 13 85 17 58 FF CD 17 58 86 B5
14:50:53.937 设备发送:03 03 04 8D 00 21 15 2B
14:50:55.438 设备接收:03 03 42 08 F7 21 B9 00 00 00 00 00 00 00 00 00 00 00 00 00 00 00 00 00 00 09 16 21 A4 00 00 00 00 00 00 00 00 00 00 00 00 00 00 00 00 00 00 09 0A 21 B9 00 00 00 00 00 00 00 00 00 00 00 00 00 00 00 00 00 00 5C 7D
14:50:55.484 设备发送:03 03 06 84 00 04 05 4A
14:50:57.012 设备接收:03 03 08 00 00 8E B3 00 13 FB 1A B6 65
14:50:57.028 设备发送:03 03 04 04 00 01 C5 19
14:50:58.528 设备接收:03 03 02 00 02 40 45
14:50:58.544 设备发送:03 03 05 84 00 0F 44 C9
14:51:00.059 设备接收:03 03 1E 1F 27 05 07 04 03 1F 11 05 0D 04 04 1F 5A 04 E1 03 EA 1F 55 04 E1 03 EA 17 32 04 EE 02 ED F4 E9
14:51:00.136 设备发送:03 03 05 93 00 0F F4 CD
14:51:01.601 设备接收:03 03 1E 05 25 00 00 00 00 13 67 03 DE 01 EC 1C 04 02 82 01 CC 1B A9 02 89 01 CB 05 2A 00 00 00 00 F6 9C
14:51:01.617 设备发送:03 03 05 A2 00 0F A5 02
14:51:03.101 设备接收:03 03 1E 00 11 00 00 00 00 00 00 00 00 00 00 00 00 00 00 00 00 00 00 00 00 00 00 00 00 00 00 00 00 C1 67
14:51:03.163 设备发送:03 03 05 B1 00 03 54 C2
14:51:04.663 设备接收:03 03 06 00 00 00 00 00 00 38 15
14:51:04.680 设备发送:03 03 04 2B 00 01 F4 D0
14:51:06.190 设备接收:03 03 02 02 E2 40 AD
14:51:06.206 设备发送:03 03 04 20 00 01 85 12
14:51:07.706 设备接收:03 03 02 00 2B 81 9B
14:51:07.725 设备发送:03 03 04 05 00 01 94 D9
14:51:09.224 设备接收:03 03 02 00 00 C1 84
14:51:09.240 设备发送:01 03 04 84 00 04 05 10
14:51:10.769 设备接收:01 03 08 13 86 16 36 00 24 16 36 37 89
14:51:10.785 设备发送:01 03 04 8D 00 21 14 C9
14:51:12.281 设备接收:01 03 42 08 F8 20 15 00 00 00 00 00 00 00 00 00 00 00 00 00 00 00 00 00 00 09 10 20 19 00 00 00 00 00 00 00 00 00 00 00 00 00 00 00 00 00 00 09 09 20 24 00 00 00 00 00 00 00 00 00 00 00 00 00 00 00 00 00 00 45 F3
14:51:12.313 设备发送:01 03 06 84 00 04 04 A8
14:51:13.825 设备接收:01 03 08 00 00 8A 0C 00 13 29 69 B4 C7
14:51:13.857 设备发送:01 03 04 04 00 01 C4 FB
14:51:15.381 设备发送:01 03 04 04 00 01 C4 FB
14:51:16.877 设备接收:01 03 02 00 02 39 85
14:51:16.893 设备发送:01 03 05 84 00 0F 45 2B
14:51:18.377 设备接收:01 03 1E 1F A9 04 9A 03 BB 1F A4 04 9F 03 BE 1F 6B 04 8B 03 A8 1F E5 04 97 03 BF 16 FA 02 66 01 69 9A 95
14:51:18.424 设备发送:01 03 05 93 00 0F F5 2F
14:51:19.936 设备接收:01 03 1E 00 00 00 00 00 00 19 FF 04 FC 03 51 1C 2C 02 69 01 BD 1C 43 02 6A 01 BF 00 00 00 04 00 00 CC CA
14:51:19.952 设备发送:01 03 05 A2 00 0F A4 E0
14:51:21.450 设备接收:01 03 1E 00 00 00 00 00 00 00 00 00 00 00 00 00 00 00 00 00 00 00 00 00 00 00 00 00 00 00 00 00 00 D8 BA
14:51:21.466 设备发送:01 03 05 B1 00 03 55 20
14:51:22.992 设备接收:01 03 06 00 00 00 00 00 00 21 75
14:51:23.007 设备发送:01 03 04 2B 00 01 F5 32
14:51:24.489 设备接收:01 03 02 02 E1 79 6C
14:51:24.567 设备发送:01 03 04 20 00 01 84 F0
14:51:26.017 设备接收:01 03 02 00 28 B8 5A
14:51:26.048 设备发送:01 03 04 05 00 01 95 3B
14:51:27.594 设备发送:01 03 04 05 00 01 95 3B
14:51:29.073 设备接收:01 03 02 00 00 B8 44
14:51:29.120 设备发送:02 03 04 84 00 04 05 23
14:51:30.614 设备接收:02 03 08 13 86 15 1F 00 20 15 1F E5 D7
14:51:30.646 设备发送:02 03 04 8D 00 21 14 FA
14:51:32.141 设备接收:02 03 42 08 F6 1E 8B 00 00 00 00 00 00 00 00 00 00 00 00 00 00 00 00 00 00 09 0F 1E 95 00 00 00 00 00 00 00 00 00 00 00 00 00 00 00 00 00 00 09 04 1E A4 00 00 00 00 00 00 00 00 00 00 00 00 00 00 00 00 00 00 A2 4F
14:51:32.173 设备发送:02 03 06 84 00 04 04 9B
14:51:33.665 设备接收:02 03 08 00 00 84 73 00 13 71 E4 54 C2
14:51:33.712 设备发送:02 03 04 04 00 01 C4 C8
14:51:35.196 设备接收:02 03 02 00 02 7D 85
14:51:35.227 设备发送:02 03 05 84 00 0F 45 18
14:51:36.739 设备接收:02 03 1E 1F A5 02 39 01 CD 1F 6C 02 39 01 CA 1F AF 02 3D 01 D1 1F F1 04 6E 03 9F 1F BE 02 35 01 CB DF BF
14:51:36.757 设备发送:02 03 05 93 00 0F F5 1C
14:51:38.266 设备接收:02 03 1E 1F 75 02 35 01 C7 1F F9 02 42 01 D9 1F 8C 04 97 03 B5 1F DE 02 46 01 DB 1F 4C 02 77 01 F9 10 DB
14:51:38.282 设备发送:02 03 05 A2 00 0F A4 D3
14:51:39.781 设备接收:02 03 1E 00 00 00 04 00 00 00 00 00 00 00 00 00 00 00 00 00 00 00 00 00 00 00 00 00 00 00 00 00 00 92 31
14:51:39.802 设备发送:02 03 05 B1 00 03 55 13
14:51:41.326 设备接收:02 03 06 00 00 00 00 00 00 35 85
14:51:41.341 设备发送:02 03 04 2B 00 01 F5 01
14:51:42.840 设备接收:02 03 02 02 E2 7D 6D
14:51:42.856 设备发送:02 03 04 20 00 01 84 C3
14:51:44.395 设备接收:02 03 02 00 41 3C 74
14:51:44.411 设备发送:02 03 04 05 00 01 95 08
14:51:45.921 设备发送:02 03 04 05 00 01 95 08
14:51:47.437 设备接收:02 03 02 00 00 FC 44
14:51:47.453 设备发送:03 03 04 84 00 04 04 F2
14:51:48.953 设备接收:03 03 08 13 86 17 30 FF 77 17 32 75 B6
14:51:48.968 设备发送:03 03 04 8D 00 21 15 2B
14:51:50.483 设备接收:03 03 42 08 F1 21 6B 00 00 00 00 00 00 00 00 00 00 00 00 00 00 00 00 00 00 09 15 21 6B 00 00 00 00 00 00 00 00 00 00 00 00 00 00 00 00 00 00 09 0A 21 81 00 00 00 00 00 00 00 00 00 00 00 00 00 00 00 00 00 00 9F 57
14:51:50.515 设备发送:03 03 06 84 00 04 05 4A
14:51:52.013 设备接收:03 03 08 00 00 8F 0E 00 13 FB 23 1B BD
14:51:52.060 设备发送:03 03 04 04 00 01 C5 19
14:51:53.541 设备接收:03 03 02 00 02 40 45
14:51:53.589 设备发送:03 03 05 84 00 0F 44 C9
14:51:55.072 设备接收:03 03 1E 1E FF 05 04 03 FB 1E EA 05 0C 03 FE 1F 82 04 D3 03 E4 1F 05 04 E7 03 E4 17 09 04 EE 02 E8 00 32
14:51:55.134 设备发送:03 03 05 93 00 0F F4 CD
14:51:56.616 设备接收:03 03 1E 05 25 00 00 00 00 13 66 03 DF 01 EC 1B DC 02 80 01 C9 1B D4 02 82 01 C9 05 29 00 00 00 00 4B 06
14:51:56.647 设备发送:03 03 05 A2 00 0F A5 02
14:51:58.148 设备接收:03 03 1E 00 0F 00 00 00 00 00 00 00 00 00 00 00 00 00 00 00 00 00 00 00 00 00 00 00 00 00 00 00 00 41 71
14:51:58.163 设备发送:03 03 05 B1 00 03 54 C2
14:51:59.661 设备接收:03 03 06 00 00 00 00 00 00 38 15
14:51:59.682 设备发送:03 03 04 2B 00 01 F4 D0
14:52:01.203 设备接收:03 03 02 02 E2 40 AD
14:52:01.219 设备发送:03 03 04 20 00 01 85 12
14:52:02.730 设备接收:03 03 02 00 2F 80 58
14:52:02.761 设备发送:03 03 04 05 00 01 94 D9
14:52:04.274 设备接收:03 03 02 00 00 C1 84
14:52:04.289 设备发送:01 03 04 84 00 04 05 10
14:52:05.800 设备接收:01 03 08 13 89 16 0B 00 25 16 0B 35 5D
14:52:05.816 设备发送:01 03 04 8D 00 21 14 C9
14:52:07.301 设备接收:01 03 42 08 F5 1F DF 00 00 00 00 00 00 00 00 00 00 00 00 00 00 00 00 00 00 09 0F 1F E0 00 00 00 00 00 00 00 00 00 00 00 00 00 00 00 00 00 00 09 09 1F F6 00 00 00 00 00 00 00 00 00 00 00 00 00 00 00 00 00 00 CB EB
14:52:07.348 设备发送:01 03 06 84 00 04 04 A8
14:52:08.830 设备接收:01 03 08 00 00 8A 65 00 13 29 71 E8 C4
14:52:08.846 设备发送:01 03 04 04 00 01 C4 FB
14:52:10.360 设备接收:01 03 02 00 02 39 85
14:52:10.376 设备发送:01 03 05 84 00 0F 45 2B
14:52:11.888 设备接收:01 03 1E 1F D2 04 8C 03 B4 1F A6 04 97 03 B8 1F 96 04 80 03 A3 1F E6 04 8E 03 B8 17 4A 02 5C 01 68 43 CF
14:52:11.919 设备发送:01 03 05 93 00 0F F5 2F
14:52:13.439 设备接收:01 03 1E 00 00 00 00 00 00 1A 53 04 E8 03 4E 1C 06 02 69 01 BA 1C 1D 02 67 01 BB 00 00 00 05 00 00 06 8A
14:52:13.454 设备发送:01 03 05 A2 00 0F A4 E0
14:52:14.956 设备接收:01 03 1E 00 00 00 00 00 00 00 00 00 00 00 00 00 00 00 00 00 00 00 00 00 00 00 00 00 00 00 00 00 00 D8 BA
14:52:14.971 设备发送:01 03 05 B1 00 03 55 20
14:52:16.473 设备接收:01 03 06 00 00 00 00 00 00 21 75
14:52:16.504 设备发送:01 03 04 2B 00 01 F5 32
14:52:17.988 设备接收:01 03 02 02 E1 79 6C
14:52:18.034 设备发送:01 03 04 20 00 01 84 F0
14:52:19.541 设备接收:01 03 02 00 2B F8 5B
14:52:19.556 设备发送:01 03 04 05 00 01 95 3B
14:52:21.091 设备发送:01 03 04 05 00 01 95 3B
14:52:22.597 设备接收:01 03 02 00 00 B8 44
14:52:22.675 设备发送:02 03 04 84 00 04 05 23
14:52:24.096 设备接收:02 03 08 13 86 14 FB 00 22 14 FB 34 0B
14:52:24.159 设备发送:02 03 04 8D 00 21 14 FA
14:52:25.642 设备接收:02 03 42 08 F2 1E 51 00 00 00 00 00 00 00 00 00 00 00 00 00 00 00 00 00 00 09 10 1E 6C 00 00 00 00 00 00 00 00 00 00 00 00 00 00 00 00 00 00 09 04 1E 74 00 00 00 00 00 00 00 00 00 00 00 00 00 00 00 00 00 00 C7 5B
14:52:25.658 设备发送:02 03 06 84 00 04 04 9B
14:52:27.161 设备接收:02 03 08 00 00 84 C3 00 13 71 EC 14 DE
14:52:27.224 设备发送:02 03 04 04 00 01 C4 C8
14:52:28.693 设备接收:02 03 02 00 02 7D 85
14:52:28.723 设备发送:02 03 05 84 00 0F 45 18
14:52:30.238 设备接收:02 03 1E 1F A3 02 33 01 C8 1F 93 02 33 01 C7 1F 85 02 3A 01 CC 1F EF 04 65 03 98 1F BA 02 31 01 C8 10 ED
14:52:30.251 设备发送:02 03 05 93 00 0F F5 1C
14:52:31.780 设备接收:02 03 1E 1F 78 02 31 01 C4 1F D3 02 3F 01 D4 1F 65 04 92 03 AC 1F E2 02 45 01 DA 1F 77 02 6E 01 F5 B5 CB
14:52:31.803 设备发送:02 03 05 A2 00 0F A4 D3
14:52:33.309 设备接收:02 03 1E 00 00 00 04 00 00 00 00 00 00 00 00 00 00 00 00 00 00 00 00 00 00 00 00 00 00 00 00 00 00 92 31
14:52:33.387 设备发送:02 03 05 B1 00 03 55 13
14:52:34.824 设备接收:02 03 06 00 00 00 00 00 00 35 85
14:52:34.840 设备发送:02 03 04 2B 00 01 F5 01
14:52:36.323 设备接收:02 03 02 02 E2 7D 6D
14:52:36.352 设备发送:02 03 04 20 00 01 84 C3
14:52:37.866 设备接收:02 03 02 00 40 FD B4
14:52:37.896 设备发送:02 03 04 05 00 01 95 08
14:52:39.404 设备接收:02 03 02 00 00 FC 44
14:52:39.419 设备发送:03 03 04 84 00 04 04 F2
14:52:40.940 设备接收:03 03 08 13 85 17 0A 00 26 17 0A FE A4
14:52:40.956 设备发送:03 03 04 8D 00 21 15 2B
14:52:42.439 设备接收:03 03 42 08 F6 21 54 00 00 00 00 00 00 00 00 00 00 00 00 00 00 00 00 00 00 09 15 21 47 00 00 00 00 00 00 00 00 00 00 00 00 00 00 00 00 00 00 09 08 21 5A 00 00 00 00 00 00 00 00 00 00 00 00 00 00 00 00 00 00 74 81
14:52:42.485 设备发送:03 03 06 84 00 04 05 4A
14:52:43.985 设备接收:03 03 08 00 00 8F 64 00 13 FB 2B 02 72
14:52:44.004 设备发送:03 03 04 04 00 01 C5 19
14:52:45.513 设备发送:03 03 04 04 00 01 C5 19
14:52:47.027 设备接收:03 03 02 00 02 40 45
14:52:47.074 设备发送:03 03 05 84 00 0F 44 C9
14:52:48.556 设备接收:03 03 1E 1E FE 04 FD 03 F5 1E EB 05 02 03 F6 1F 32 04 D4 03 DB 1F 07 04 DA 03 DB 17 0A 04 E6 02 E4 3F 6F
14:52:48.603 设备发送:03 03 05 93 00 0F F4 CD
14:52:50.106 设备接收:03 03 1E 05 25 00 00 00 00 13 68 03 D2 01 E5 1B DC 02 7A 01 C4 1B AB 02 7E 01 C4 05 28 00 00 00 00 C7 75
14:52:50.121 设备发送:03 03 05 A2 00 0F A5 02
14:52:51.609 设备接收:03 03 1E 00 0F 00 00 00 00 00 00 00 00 00 00 00 00 00 00 00 00 00 00 00 00 00 00 00 00 00 00 00 00 41 71
14:52:51.657 设备发送:03 03 05 B1 00 03 54 C2
14:52:53.153 设备接收:03 03 06 00 00 00 00 00 00 38 15
14:52:53.185 设备发送:03 03 04 2B 00 01 F4 D0
14:52:54.699 设备发送:03 03 04 2B 00 01 F4 D0
14:52:56.248 设备发送:03 03 04 2B 00 01 F4 D0
14:52:57.715 设备接收:03 03 02 02 E2 40 AD
14:52:57.761 设备发送:03 03 04 20 00 01 85 12
14:52:59.275 设备发送:03 03 04 20 00 01 85 12
14:53:00.790 设备接收:03 03 02 00 34 C0 53
14:53:00.806 设备发送:03 03 04 05 00 01 94 D9
14:53:02.338 设备接收:03 03 02 00 00 C1 84
14:53:02.353 设备发送:01 03 04 84 00 04 05 10
14:53:03.848 设备接收:01 03 08 13 86 15 E3 FF D1 15 E3 DB 21
14:53:03.894 设备发送:01 03 04 8D 00 21 14 C9
14:53:05.377 设备接收:01 03 42 08 F6 1F 9C 00 00 00 00 00 00 00 00 00 00 00 00 00 00 00 00 00 00 09 0F 1F A6 00 00 00 00 00 00 00 00 00 00 00 00 00 00 00 00 00 00 09 08 1F AC 00 00 00 00 00 00 00 00 00 00 00 00 00 00 00 00 00 00 FE 40
14:53:05.423 设备发送:01 03 06 84 00 04 04 A8
14:53:06.919 设备接收:01 03 08 00 00 8A BF 00 13 29 7A F0 D0
14:53:06.935 设备发送:01 03 04 04 00 01 C4 FB
14:53:08.449 设备接收:01 03 02 00 02 39 85
14:53:08.465 设备发送:01 03 05 84 00 0F 45 2B
14:53:09.980 设备接收:01 03 1E 1F D1 04 84 03 AD 1F A4 04 91 03 B3 1F 43 04 7F 03 99 1F E6 04 89 03 B4 17 48 02 59 01 66 A5 A1
14:53:09.995 设备发送:01 03 05 93 00 0F F5 2F
14:53:11.496 设备接收:01 03 1E 00 00 00 00 00 00 1A 53 04 E0 03 49 1C 30 02 63 01 B9 1C 1F 02 64 01 B9 00 00 00 04 00 00 2F 94
14:53:11.511 设备发送:01 03 05 A2 00 0F A4 E0
14:53:13.010 设备接收:01 03 1E 00 00 00 00 00 00 00 00 00 00 00 00 00 00 00 00 00 00 00 00 00 00 00 00 00 00 00 00 00 00 D8 BA
14:53:13.056 设备发送:01 03 05 B1 00 03 55 20
14:53:14.570 设备发送:01 03 05 B1 00 03 55 20
14:53:16.099 设备接收:01 03 06 00 00 00 00 00 00 21 75
14:53:16.115 设备发送:01 03 04 2B 00 01 F5 32
14:53:17.618 设备接收:01 03 02 02 E1 79 6C
14:53:17.635 设备发送:01 03 04 20 00 01 84 F0
14:53:19.136 设备接收:01 03 02 00 2F F9 98
14:53:19.151 设备发送:01 03 04 05 00 01 95 3B
14:53:20.664 设备接收:01 03 02 00 00 B8 44
14:53:20.680 设备发送:02 03 04 84 00 04 05 23
14:53:22.193 设备接收:02 03 08 13 88 14 E6 FF D4 14 E6 27 E6
14:53:22.225 设备发送:02 03 04 8D 00 21 14 FA
14:53:23.724 设备接收:02 03 42 08 F5 1E 36 00 00 00 00 00 00 00 00 00 00 00 00 00 00 00 00 00 00 09 0E 1E 4A 00 00 00 00 00 00 00 00 00 00 00 00 00 00 00 00 00 00 09 02 1E 4E 00 00 00 00 00 00 00 00 00 00 00 00 00 00 00 00 00 00 35 31
14:53:23.756 设备发送:02 03 06 84 00 04 04 9B
14:53:25.254 设备接收:02 03 08 00 00 85 19 00 13 71 F5 8D 16
14:53:25.285 设备发送:02 03 04 04 00 01 C4 C8
14:53:26.784 设备发送:02 03 04 04 00 01 C4 C8
14:53:28.299 设备接收:02 03 02 00 02 7D 85
14:53:28.363 设备发送:02 03 05 84 00 0F 45 18
14:53:29.844 设备接收:02 03 1E 1F CD 02 2A 01 C3 1F 94 02 2F 01 C4 1F AE 02 36 01 CB 20 1A 04 5A 03 93 1F E3 02 29 01 C3 9B 06
14:53:29.860 设备发送:02 03 05 93 00 0F F5 1C
14:53:31.391 设备接收:02 03 1E 1F 75 02 2D 01 C0 1F FA 02 3A 01 D3 1F 8C 04 85 03 A7 20 07 02 3D 01 D6 1F 75 02 6D 01 F4 49 EF
14:53:31.407 设备发送:02 03 05 A2 00 0F A4 D3
14:53:32.909 设备接收:02 03 1E 00 00 00 04 00 00 00 00 00 00 00 00 00 00 00 00 00 00 00 00 00 00 00 00 00 00 00 00 00 00 92 31
14:53:32.924 设备发送:02 03 05 B1 00 03 55 13
14:53:34.438 设备接收:02 03 06 00 00 00 00 00 00 35 85
14:53:34.454 设备发送:02 03 04 2B 00 01 F5 01
14:53:35.967 设备接收:02 03 02 02 E2 7D 6D
14:53:35.983 设备发送:02 03 04 20 00 01 84 C3
14:53:37.490 设备接收:02 03 02 00 3E 7D 94
14:53:37.522 设备发送:02 03 04 05 00 01 95 08
14:53:39.020 设备接收:02 03 02 00 00 FC 44
14:53:39.035 设备发送:03 03 04 84 00 04 04 F2
14:53:40.550 设备接收:03 03 08 13 89 16 F5 00 26 16 F5 66 B1
14:53:40.603 设备发送:03 03 04 8D 00 21 15 2B
14:53:42.093 设备接收:03 03 42 08 F6 21 2C 00 00 00 00 00 00 00 00 00 00 00 00 00 00 00 00 00 00 09 12 21 10 00 00 00 00 00 00 00 00 00 00 00 00 00 00 00 00 00 00 09 06 21 26 00 00 00 00 00 00 00 00 00 00 00 00 00 00 00 00 00 00 36 0C
14:53:42.108 设备发送:03 03 06 84 00 04 05 4A
14:53:43.623 设备接收:03 03 08 00 00 8F C6 00 13 FB 35 7B A3
14:53:43.654 设备发送:03 03 04 04 00 01 C5 19
14:53:45.169 设备发送:03 03 04 04 00 01 C5 19
14:53:46.668 设备接收:03 03 02 00 02 40 45
14:53:46.684 设备发送:03 03 05 84 00 0F 44 C9
14:53:48.213 设备接收:03 03 1E 1F 00 04 F6 03 F0 1F 3A 04 F0 03 F2 1F 81 04 C4 03 D8 1F 05 04 D7 03 D8 17 0A 04 E0 02 E0 B7 4E
14:53:48.228 设备发送:03 03 05 93 00 0F F4 CD
14:53:49.725 设备接收:03 03 1E 05 24 00 00 00 00 13 6E 03 CB 01 E3 1B DC 02 79 01 C3 1B AC 02 7F 01 C5 05 27 00 00 00 00 B4 1D
14:53:49.756 设备发送:03 03 05 A2 00 0F A5 02
14:53:51.258 设备接收:03 03 1E 00 0F 00 00 00 00 00 00 00 00 00 00 00 00 00 00 00 00 00 00 00 00 00 00 00 00 00 00 00 00 41 71
14:53:51.274 设备发送:03 03 05 B1 00 03 54 C2
14:53:52.786 设备接收:03 03 06 00 00 00 00 00 00 38 15
14:53:52.801 设备发送:03 03 04 2B 00 01 F4 D0
14:53:54.315 设备接收:03 03 02 02 E2 40 AD
14:53:54.330 设备发送:03 03 04 20 00 01 85 12
14:53:55.838 设备接收:03 03 02 00 38 C0 56
14:53:55.859 设备发送:03 03 04 05 00 01 94 D9
14:53:57.353 设备接收:03 03 02 00 00 C1 84
14:53:57.401 设备发送:01 03 04 84 00 04 05 10
14:53:58.889 设备接收:01 03 08 13 88 15 BB 00 24 15 BB 34 F0
14:53:58.920 设备发送:01 03 04 8D 00 21 14 C9
14:54:00.428 设备接收:01 03 42 08 F4 1F 68 00 00 00 00 00 00 00 00 00 00 00 00 00 00 00 00 00 00 09 0E 1F 76 00 00 00 00 00 00 00 00 00 00 00 00 00 00 00 00 00 00 09 07 1F 83 00 00 00 00 00 00 00 00 00 00 00 00 00 00 00 00 00 00 1D 23
14:54:00.444 设备发送:01 03 06 84 00 04 04 A8
14:54:01.948 设备接收:01 03 08 00 00 8B 14 00 13 29 83 14 9B
14:54:01.995 设备发送:01 03 04 04 00 01 C4 FB
14:54:03.502 设备接收:01 03 02 00 02 39 85
14:54:03.518 设备发送:01 03 05 84 00 0F 45 2B
14:54:05.021 设备接收:01 03 1E 1F AB 04 82 03 A8 1F CF 04 80 03 AA 1F 97 04 6D 03 94 1F E8 04 7C 03 AA 17 22 02 58 01 63 47 92
14:54:05.037 设备发送:01 03 05 93 00 0F F5 2F
14:54:06.549 设备接收:01 03 1E 00 00 00 01 00 00 1A 53 04 D7 03 43 1C 2F 02 5C 01 B4 1C 1D 02 5F 01 B5 00 00 00 03 00 00 0C A8
14:54:06.569 设备发送:01 03 05 A2 00 0F A4 E0
14:54:08.064 设备接收:01 03 1E 00 00 00 00 00 00 00 00 00 00 00 00 00 00 00 00 00 00 00 00 00 00 00 00 00 00 00 00 00 00 D8 BA
14:54:08.112 设备发送:01 03 05 B1 00 03 55 20
14:54:09.607 设备接收:01 03 06 00 00 00 00 00 00 21 75
14:54:09.623 设备发送:01 03 04 2B 00 01 F5 32
14:54:11.163 设备发送:01 03 04 2B 00 01 F5 32
14:54:12.649 设备接收:01 03 02 02 E1 79 6C
14:54:12.665 设备发送:01 03 04 20 00 01 84 F0
14:54:14.180 设备接收:01 03 02 00 33 F8 51
14:54:14.196 设备发送:01 03 04 05 00 01 95 3B
14:54:15.698 设备接收:01 03 02 00 00 B8 44
14:54:15.729 设备发送:02 03 04 84 00 04 05 23
14:54:17.227 设备接收:02 03 08 13 88 14 AB FF 84 14 AD 4B CE
14:54:17.259 设备发送:02 03 04 8D 00 21 14 FA
14:54:18.781 设备接收:02 03 42 08 F6 1D D4 00 00 00 00 00 00 00 00 00 00 00 00 00 00 00 00 00 00 09 11 1D E6 00 00 00 00 00 00 00 00 00 00 00 00 00 00 00 00 00 00 09 05 1D EE 00 00 00 00 00 00 00 00 00 00 00 00 00 00 00 00 00 00 08 5A
14:54:18.797 设备发送:02 03 06 84 00 04 04 9B
14:54:20.296 设备接收:02 03 08 00 00 85 6B 00 13 71 FD B4 DB
14:54:20.343 设备发送:02 03 04 04 00 01 C4 C8
14:54:21.811 设备接收:02 03 02 00 02 7D 85
14:54:21.843 设备发送:02 03 05 84 00 0F 45 18
14:54:23.341 设备接收:02 03 1E 1F CC 02 27 01 C1 1F 94 02 2A 01 C0 1F AE 02 30 01 C6 1F F0 04 51 03 88 1F BB 02 27 01 C0 C4 B0
14:54:23.388 设备发送:02 03 05 93 00 0F F5 1C
14:54:24.890 设备接收:02 03 1E 1F 9E 02 24 01 BC 1F F9 02 34 01 CE 1F 8D 04 7B 03 9E 1F E0 02 3C 01 D2 1F 75 02 65 01 EE 2D 2D
14:54:24.907 设备发送:02 03 05 A2 00 0F A4 D3
14:54:26.418 设备接收:02 03 1E 00 00 00 04 00 00 00 00 00 00 00 00 00 00 00 00 00 00 00 00 00 00 00 00 00 00 00 00 00 00 92 31
14:54:26.449 设备发送:02 03 05 B1 00 03 55 13
14:54:27.930 设备接收:02 03 06 00 00 00 00 00 00 35 85
14:54:27.946 设备发送:02 03 04 2B 00 01 F5 01
14:54:29.460 设备接收:02 03 02 02 E2 7D 6D
14:54:29.492 设备发送:02 03 04 20 00 01 84 C3
14:54:31.026 设备发送:02 03 04 20 00 01 84 C3
14:54:32.523 设备接收:02 03 02 00 3D 3D 95
14:54:32.539 设备发送:02 03 04 05 00 01 95 08
14:54:34.051 设备接收:02 03 02 00 00 FC 44
14:54:34.066 设备发送:03 03 04 84 00 04 04 F2
14:54:35.580 设备接收:03 03 08 13 88 16 A7 FF 79 16 A9 CF 82
14:54:35.596 设备发送:03 03 04 8D 00 21 15 2B
14:54:37.116 设备接收:03 03 42 08 F3 20 BD 00 00 00 00 00 00 00 00 00 00 00 00 00 00 00 00 00 00 09 13 20 AF 00 00 00 00 00 00 00 00 00 00 00 00 00 00 00 00 00 00 09 08 20 C3 00 00 00 00 00 00 00 00 00 00 00 00 00 00 00 00 00 00 8E 06
14:54:37.134 设备发送:03 03 06 84 00 04 05 4A
14:54:38.630 设备接收:03 03 08 00 00 90 1D 00 13 FB 3E 5C 18
14:54:38.693 设备发送:03 03 04 04 00 01 C5 19
14:54:40.208 设备发送:03 03 04 04 00 01 C5 19
14:54:41.691 设备接收:03 03 02 00 02 40 45
14:54:41.712 设备发送:03 03 05 84 00 0F 44 C9
14:54:43.234 设备接收:03 03 1E 1F 26 04 E2 03 E5 1F 11 04 E6 03 E5 1F 58 04 BC 03 CC 1F 52 04 BB 03 CB 17 2E 04 C9 02 D7 29 37
14:54:43.252 设备发送:03 03 05 93 00 0F F4 CD
14:54:44.766 设备接收:03 03 1E 05 25 00 00 00 00 13 68 03 C8 01 E1 1B B4 02 75 01 BE 1B AB 02 75 01 BD 05 27 00 00 00 00 06 6A
14:54:44.784 设备发送:03 03 05 A2 00 0F A5 02
14:54:46.282 设备接收:03 03 1E 00 0F 00 00 00 00 00 00 00 00 00 00 00 00 00 00 00 00 00 00 00 00 00 00 00 00 00 00 00 00 41 71
14:54:46.298 设备发送:03 03 05 B1 00 03 54 C2
14:54:47.811 设备接收:03 03 06 00 00 00 00 00 00 38 15
14:54:47.842 设备发送:03 03 04 2B 00 01 F4 D0
14:54:49.329 设备接收:03 03 02 02 E2 40 AD
14:54:49.375 设备发送:03 03 04 20 00 01 85 12
14:54:50.859 设备接收:03 03 02 00 34 C0 53
14:54:50.891 设备发送:03 03 04 05 00 01 94 D9
14:54:52.411 设备接收:03 03 02 00 00 C1 84
14:54:52.489 设备发送:01 03 04 84 00 04 05 10
14:54:53.954 设备接收:01 03 08 13 85 15 72 FF D1 15 73 15 90
14:54:53.973 设备发送:01 03 04 8D 00 21 14 C9
14:54:55.469 设备接收:01 03 42 08 F9 1E E9 00 00 00 00 00 00 00 00 00 00 00 00 00 00 00 00 00 00 09 11 1E F2 00 00 00 00 00 00 00 00 00 00 00 00 00 00 00 00 00 00 09 09 1E FC 00 00 00 00 00 00 00 00 00 00 00 00 00 00 00 00 00 00 73 61
14:54:55.504 设备发送:01 03 06 84 00 04 04 A8
14:54:56.980 设备接收:01 03 08 00 00 8B 6A 00 13 29 8C 7C 95
14:54:57.011 设备发送:01 03 04 04 00 01 C4 FB
14:54:58.530 设备接收:01 03 02 00 02 39 85
14:54:58.546 设备发送:01 03 05 84 00 0F 45 2B
14:55:00.060 设备发送:01 03 05 84 00 0F 45 2B
14:55:01.559 设备接收:01 03 1E 1F CA 04 6E 03 9B 1F EC 04 6E 03 9F 1F 9B 04 60 03 8A 1F C3 04 73 03 9E 17 4A 02 4F 01 60 24 9B
14:55:01.576 设备发送:01 03 05 93 00 0F F5 2F
14:55:03.089 设备接收:01 03 1E 00 00 00 00 00 00 1A 53 04 CA 03 3A 1C 2F 02 55 01 AF 1C 1E 02 59 01 B1 00 00 00 04 00 00 84 08
14:55:03.121 设备发送:01 03 05 A2 00 0F A4 E0
14:55:04.651 设备接收:01 03 1E 00 00 00 00 00 00 00 00 00 00 00 00 00 00 00 00 00 00 00 00 00 00 00 00 00 00 00 00 00 00 D8 BA
14:55:04.667 设备发送:01 03 05 B1 00 03 55 20
14:55:06.135 设备接收:01 03 06 00 00 00 00 00 00 21 75
14:55:06.182 设备发送:01 03 04 2B 00 01 F5 32
14:55:07.699 设备发送:01 03 04 2B 00 01 F5 32
14:55:09.214 设备发送:01 03 04 2B 00 01 F5 32
14:55:10.716 设备接收:01 03 02 02 E1 79 6C
14:55:10.764 设备发送:01 03 04 20 00 01 84 F0
14:55:12.261 设备接收:01 03 02 00 37 F9 92
14:55:12.307 设备发送:01 03 04 05 00 01 95 3B
14:55:13.805 设备接收:01 03 02 00 00 B8 44
14:55:13.821 设备发送:02 03 04 84 00 04 05 23
14:55:15.333 设备接收:02 03 08 13 85 14 77 00 23 14 77 46 B1
14:55:15.366 设备发送:02 03 04 8D 00 21 14 FA
14:55:16.878 设备接收:02 03 42 08 F6 1D 99 00 00 00 00 00 00 00 00 00 00 00 00 00 00 00 00 00 00 09 0F 1D A3 00 00 00 00 00 00 00 00 00 00 00 00 00 00 00 00 00 00 09 03 1D B4 00 00 00 00 00 00 00 00 00 00 00 00 00 00 00 00 00 00 28 E4
14:55:16.894 设备发送:02 03 06 84 00 04 04 9B
14:55:18.388 设备接收:02 03 08 00 00 85 C0 00 13 72 06 D0 70
14:55:18.419 设备发送:02 03 04 04 00 01 C4 C8
14:55:19.937 设备接收:02 03 02 00 02 7D 85
14:55:19.953 设备发送:02 03 05 84 00 0F 45 18
14:55:21.434 设备接收:02 03 1E 1F A5 02 28 01 BF 1F E3 02 20 01 BC 1F AF 02 2D 01 C4 1F F1 04 4B 03 83 1F 92 02 27 01 BE 44 7A
14:55:21.465 设备发送:02 03 05 93 00 0F F5 1C
14:55:22.965 设备接收:02 03 1E 1F 9E 02 22 01 BA 20 21 02 2D 01 CA 1F 8C 04 77 03 9B 1F B6 02 39 01 CE 1F 4D 02 66 01 EC 07 01
14:55:22.980 设备发送:02 03 05 A2 00 0F A4 D3
14:55:24.507 设备接收:02 03 1E 00 00 00 03 00 00 00 00 00 00 00 00 00 00 00 00 00 00 00 00 00 00 00 00 00 00 00 00 00 00 6D 7D
14:55:24.522 设备发送:02 03 05 B1 00 03 55 13
14:55:26.052 设备接收:02 03 06 00 00 00 00 00 00 35 85
14:55:26.068 设备发送:02 03 04 2B 00 01 F5 01
14:55:27.582 设备发送:02 03 04 2B 00 01 F5 01
14:55:29.109 设备接收:02 03 02 02 E2 7D 6D
14:55:29.125 设备发送:02 03 04 20 00 01 84 C3
14:55:30.633 设备接收:02 03 02 00 3C FC 55
14:55:30.648 设备发送:02 03 04 05 00 01 95 08
14:55:32.128 设备接收:02 03 02 00 00 FC 44
14:55:32.174 设备发送:03 03 04 84 00 04 04 F2
14:55:33.689 设备接收:03 03 08 13 8A 16 A3 FF 78 16 A5 4C 47
14:55:33.704 设备发送:03 03 04 8D 00 21 15 2B
14:55:35.206 设备接收:03 03 42 08 F6 20 AC 00 00 00 00 00 00 00 00 00 00 00 00 00 00 00 00 00 00 09 15 20 A0 00 00 00 00 00 00 00 00 00 00 00 00 00 00 00 00 00 00 09 0B 20 B5 00 00 00 00 00 00 00 00 00 00 00 00 00 00 00 00 00 00 66 FD
14:55:35.246 设备发送:03 03 06 84 00 04 05 4A
14:55:36.751 设备接收:03 03 08 00 00 90 7B 00 13 FB 47 95 F2
14:55:36.766 设备发送:03 03 04 04 00 01 C5 19
14:55:38.279 设备接收:03 03 02 00 02 40 45
14:55:38.295 设备发送:03 03 05 84 00 0F 44 C9
14:55:39.791 设备接收:03 03 1E 1F 4E 04 D8 03 E2 1F 39 04 E0 03 E5 1F 5A 04 BB 03 CC 1F 06 04 C7 03 CB 17 09 04 CF 02 D6 CE 33
14:55:39.811 设备发送:03 03 05 93 00 0F F4 CD
14:55:41.305 设备接收:03 03 1E 05 26 00 00 00 00 13 6B 03 C5 01 E0 1B B4 02 74 01 BD 1B D3 02 73 01 BF 05 2A 00 00 00 00 92 AF
14:55:41.353 设备发送:03 03 05 A2 00 0F A5 02
14:55:42.867 设备接收:03 03 1E 00 0E 00 00 00 00 00 00 00 00 00 00 00 00 00 00 00 00 00 00 00 00 00 00 00 00 00 00 00 00 81 70
14:55:42.881 设备发送:03 03 05 B1 00 03 54 C2
14:55:44.379 设备接收:03 03 06 00 00 00 00 00 00 38 15
14:55:44.410 设备发送:03 03 04 2B 00 01 F4 D0
14:55:45.926 设备接收:03 03 02 02 E2 40 AD
14:55:45.941 设备发送:03 03 04 20 00 01 85 12
14:55:47.467 设备发送:03 03 04 20 00 01 85 12
14:55:48.951 设备接收:03 03 02 00 2D 01 99
14:55:48.998 设备发送:03 03 04 05 00 01 94 D9
14:55:50.500 设备接收:03 03 02 00 00 C1 84
14:55:50.516 设备发送:01 03 04 84 00 04 05 10
14:55:52.021 设备接收:01 03 08 13 8A 15 68 FF 7E 15 6A 42 B9
14:55:52.084 设备发送:01 03 04 8D 00 21 14 C9
14:55:53.542 设备接收:01 03 42 08 FA 1E ED 00 00 00 00 00 00 00 00 00 00 00 00 00 00 00 00 00 00 09 0F 1E E9 00 00 00 00 00 00 00 00 00 00 00 00 00 00 00 00 00 00 09 08 1E F5 00 00 00 00 00 00 00 00 00 00 00 00 00 00 00 00 00 00 0A F5
14:55:53.589 设备发送:01 03 06 84 00 04 04 A8
14:55:55.121 设备接收:01 03 08 00 00 8B C2 00 13 29 94 1D 47
14:55:55.136 设备发送:01 03 04 04 00 01 C4 FB
14:55:56.617 设备接收:01 03 02 00 02 39 85
14:55:56.648 设备发送:01 03 05 84 00 0F 45 2B
14:55:58.145 设备接收:01 03 1E 1F D3 04 70 03 9E 1F A6 04 7B 03 A1 1F 94 04 64 03 8C 20 0D 04 6C 03 A1 17 98 02 43 01 5D 13 DD
14:55:58.161 设备发送:01 03 05 93 00 0F F5 2F
14:55:59.675 设备接收:01 03 1E 00 00 00 01 00 00 1A 2A 04 D2 03 3A 1C 54 02 53 01 B0 1C 6C 02 53 01 B1 00 00 00 06 00 00 A8 22
14:55:59.706 设备发送:01 03 05 A2 00 0F A4 E0
14:56:01.190 设备接收:01 03 1E 00 00 00 00 00 00 00 00 00 00 00 00 00 00 00 00 00 00 00 00 00 00 00 00 00 00 00 00 00 00 D8 BA
14:56:01.237 设备发送:01 03 05 B1 00 03 55 20
14:56:02.733 设备发送:01 03 04 2B 00 01 F5 32
14:56:02.759 设备接收:01 03 06 00 00 00 00 00 00 21 75
14:56:04.277 设备发送:01 03 04 2B 00 01 F5 32
14:56:05.792 设备接收:01 03 02 02 E1 79 6C
14:56:05.808 设备发送:01 03 04 20 00 01 84 F0
14:56:07.304 设备发送:01 03 04 20 00 01 84 F0
14:56:08.818 设备接收:01 03 02 00 33 F8 51
14:56:08.833 设备发送:01 03 04 05 00 01 95 3B
14:56:10.346 设备接收:01 03 02 00 00 B8 44
14:56:10.362 设备发送:02 03 04 84 00 04 05 23
14:56:11.875 设备接收:02 03 08 13 85 14 73 FF D2 14 73 D7 55
14:56:11.891 设备发送:02 03 04 8D 00 21 14 FA
14:56:13.406 设备接收:02 03 42 08 F5 1D 83 00 00 00 00 00 00 00 00 00 00 00 00 00 00 00 00 00 00 09 11 1D A0 00 00 00 00 00 00 00 00 00 00 00 00 00 00 00 00 00 00 09 05 1D AE 00 00 00 00 00 00 00 00 00 00 00 00 00 00 00 00 00 00 66 3F
14:56:13.439 设备发送:02 03 06 84 00 04 04 9B
14:56:14.954 设备接收:02 03 08 00 00 86 12 00 13 72 0E 69 97
14:56:14.970 设备发送:02 03 04 04 00 01 C4 C8
14:56:16.449 设备接收:02 03 02 00 02 7D 85
14:56:16.495 设备发送:02 03 05 84 00 0F 45 18
14:56:17.981 设备接收:02 03 1E 1F CD 02 20 01 BB 1F BC 02 1F 01 B9 1F D9 02 27 01 C1 1F F1 04 45 03 7E 1F BC 02 21 01 BB F8 D2
14:56:18.028 设备发送:02 03 05 93 00 0F F5 1C
14:56:19.527 设备接收:02 03 1E 1F C6 02 1D 01 B8 1F FA 02 2F 01 C9 1F 8D 04 70 03 96 1F E0 02 37 01 CE 1F 4F 02 63 01 EA F2 0D
14:56:19.559 设备发送:02 03 05 A2 00 0F A4 D3
14:56:21.040 设备接收:02 03 1E 00 00 00 04 00 00 00 00 00 00 00 00 00 00 00 00 00 00 00 00 00 00 00 00 00 00 00 00 00 00 92 31
14:56:21.057 设备发送:02 03 05 B1 00 03 55 13
14:56:22.589 设备接收:02 03 06 00 00 00 00 00 00 35 85
14:56:22.619 设备发送:02 03 04 2B 00 01 F5 01
14:56:24.121 设备接收:02 03 02 02 E2 7D 6D
14:56:24.136 设备发送:02 03 04 20 00 01 84 C3
14:56:25.655 设备接收:02 03 02 00 3B BD 97
14:56:25.671 设备发送:02 03 04 05 00 01 95 08
14:56:27.186 设备接收:02 03 02 00 00 FC 44
14:56:27.213 设备发送:03 03 04 84 00 04 04 F2
14:56:28.688 设备接收:03 03 08 13 85 16 8B FF D0 16 8C 93 7F
14:56:28.704 设备发送:03 03 04 8D 00 21 15 2B
14:56:30.252 设备接收:03 03 42 08 F7 20 82 00 00 00 00 00 00 00 00 00 00 00 00 00 00 00 00 00 00 09 16 20 6F 00 00 00 00 00 00 00 00 00 00 00 00 00 00 00 00 00 00 09 0B 20 83 00 00 00 00 00 00 00 00 00 00 00 00 00 00 00 00 00 00 A1 31
14:56:30.269 设备发送:03 03 06 84 00 04 05 4A
14:56:31.784 设备接收:03 03 08 00 00 90 D4 00 13 FB 50 01 E4
14:56:31.803 设备发送:03 03 04 04 00 01 C5 19
14:56:33.286 设备接收:03 03 02 00 02 40 45
14:56:33.302 设备发送:03 03 05 84 00 0F 44 C9
14:56:34.817 设备接收:03 03 1E 1E FE 04 DD 03 DC 1F 12 04 DF 03 E0 1F 5A 04 B5 03 C7 1F 05 04 BF 03 C5 17 30 04 C0 02 D2 10 DA
14:56:34.848 设备发送:03 03 05 93 00 0F F4 CD
14:56:36.342 设备接收:03 03 1E 05 25 00 00 00 00 13 71 03 B6 01 D9 1C 04 02 6B 01 BC 1B AA 02 74 01 BD 05 2B 00 00 00 00 1C 95
14:56:36.374 设备发送:03 03 05 A2 00 0F A5 02
14:56:37.888 设备接收:03 03 1E 00 10 00 00 00 00 00 00 00 00 00 00 00 00 00 00 00 00 00 00 00 00 00 00 00 00 00 00 00 00 01 66
14:56:37.919 设备发送:03 03 05 B1 00 03 54 C2
14:56:39.434 设备接收:03 03 06 00 00 00 00 00 00 38 15
14:56:39.450 设备发送:03 03 04 2B 00 01 F4 D0
14:56:40.947 设备发送:03 03 04 2B 00 01 F4 D0
14:56:42.489 设备发送:03 03 04 2B 00 01 F4 D0
14:56:43.972 设备接收:03 03 02 02 E2 40 AD
14:56:44.003 设备发送:03 03 04 20 00 01 85 12
14:56:45.516 设备接收:03 03 02 00 28 C1 9A
14:56:45.533 设备发送:03 03 04 05 00 01 94 D9
14:56:47.048 设备发送:03 03 04 05 00 01 94 D9
14:56:48.563 设备接收:03 03 02 00 00 C1 84
14:56:48.579 设备发送:01 03 04 84 00 04 05 10
14:56:50.094 设备接收:01 03 08 13 85 15 3D FF D2 15 3D 30 6A
14:56:50.125 设备发送:01 03 04 8D 00 21 14 C9
14:56:51.637 设备接收:01 03 42 08 F9 1E A6 00 00 00 00 00 00 00 00 00 00 00 00 00 00 00 00 00 00 09 13 1E AF 00 00 00 00 00 00 00 00 00 00 00 00 00 00 00 00 00 00 09 0B 1E B5 00 00 00 00 00 00 00 00 00 00 00 00 00 00 00 00 00 00 78 F1
14:56:51.668 设备发送:01 03 06 84 00 04 04 A8
14:56:53.166 设备接收:01 03 08 00 00 8C 1A 00 13 29 9D FC E5
14:56:53.200 设备发送:01 03 04 04 00 01 C4 FB
14:56:54.712 设备发送:01 03 04 04 00 01 C4 FB
14:56:56.227 设备接收:01 03 02 00 02 39 85
14:56:56.243 设备发送:01 03 05 84 00 0F 45 2B
14:56:57.742 设备接收:01 03 1E 1F D3 04 66 03 95 1F F3 04 63 03 96 1F 94 04 59 03 84 1F BD 04 6B 03 97 17 71 02 44 01 5C 63 6E
14:56:57.757 设备发送:01 03 05 93 00 0F F5 2F
14:56:59.260 设备接收:01 03 1E 00 00 00 00 00 00 1A 53 04 C3 03 35 1C 56 02 50 01 AD 1C 6E 02 4F 01 AE 00 00 00 05 00 00 88 EC
14:56:59.306 设备发送:01 03 05 A2 00 0F A4 E0
14:57:00.820 设备接收:01 03 1E 00 00 00 00 00 00 00 00 00 00 00 00 00 00 00 00 00 00 00 00 00 00 00 00 00 00 00 00 00 00 D8 BA
14:57:00.837 设备发送:01 03 05 B1 00 03 55 20
14:57:02.345 设备接收:01 03 06 00 00 00 00 00 00 21 75
14:57:02.361 设备发送:01 03 04 2B 00 01 F5 32
14:57:03.858 设备接收:01 03 02 02 E1 79 6C
14:57:03.874 设备发送:01 03 04 20 00 01 84 F0
14:57:05.386 设备接收:01 03 02 00 2C B9 99
14:57:05.433 设备发送:01 03 04 05 00 01 95 3B
14:57:06.945 设备接收:01 03 02 00 00 B8 44
14:57:06.961 设备发送:02 03 04 84 00 04 05 23
14:57:08.460 设备接收:02 03 08 13 86 14 60 00 1F 14 60 81 B0
14:57:08.475 设备发送:02 03 04 8D 00 21 14 FA
14:57:09.972 设备接收:02 03 42 08 F9 1D 5F 00 00 00 00 00 00 00 00 00 00 00 00 00 00 00 00 00 00 09 12 1D 6B 00 00 00 00 00 00 00 00 00 00 00 00 00 00 00 00 00 00 09 06 1D 76 00 00 00 00 00 00 00 00 00 00 00 00 00 00 00 00 00 00 52 E6
14:57:10.019 设备发送:02 03 06 84 00 04 04 9B
14:57:11.515 设备接收:02 03 08 00 00 86 64 00 13 72 16 A0 56
14:57:11.530 设备发送:02 03 04 04 00 01 C4 C8
14:57:13.042 设备接收:02 03 02 00 02 7D 85
14:57:13.058 设备发送:02 03 05 84 00 0F 45 18
14:57:14.585 设备接收:02 03 1E 1F CC 02 1F 01 BA 1F E2 02 19 01 B6 1F D5 02 24 01 BF 20 18 04 3F 03 7D 1F E2 02 1A 01 B7 9B 31
14:57:14.601 设备发送:02 03 05 93 00 0F F5 1C
14:57:16.098 设备接收:02 03 1E 1F E9 02 17 01 B5 1F F5 02 2C 01 C7 1F AF 04 65 03 91 1F DC 02 32 01 CB 1F 2B 02 63 01 E7 3D 3F
14:57:16.129 设备发送:02 03 05 A2 00 0F A4 D3
14:57:17.607 设备接收:02 03 1E 00 00 00 04 00 00 00 00 00 00 00 00 00 00 00 00 00 00 00 00 00 00 00 00 00 00 00 00 00 00 92 31
14:57:17.654 设备发送:02 03 05 B1 00 03 55 13
14:57:19.144 设备接收:02 03 06 00 00 00 00 00 00 35 85
14:57:19.175 设备发送:02 03 04 2B 00 01 F5 01
14:57:20.710 设备发送:02 03 04 2B 00 01 F5 01
14:57:22.208 设备接收:02 03 02 02 E2 7D 6D
14:57:22.226 设备发送:02 03 04 20 00 01 84 C3
14:57:23.739 设备接收:02 03 02 00 3B BD 97
14:57:23.754 设备发送:02 03 04 05 00 01 95 08
14:57:25.276 设备发送:02 03 04 05 00 01 95 08
14:57:26.781 设备接收:02 03 02 00 00 FC 44
14:57:26.797 设备发送:03 03 04 84 00 04 04 F2
14:57:28.314 设备接收:03 03 08 13 8A 16 6B 00 23 16 6B 6D C4
14:57:28.329 设备发送:03 03 04 8D 00 21 15 2B
14:57:29.855 设备接收:03 03 42 08 F2 20 68 00 00 00 00 00 00 00 00 00 00 00 00 00 00 00 00 00 00 09 14 20 5E 00 00 00 00 00 00 00 00 00 00 00 00 00 00 00 00 00 00 09 07 20 71 00 00 00 00 00 00 00 00 00 00 00 00 00 00 00 00 00 00 C2 34
14:57:29.871 设备发送:03 03 06 84 00 04 05 4A
14:57:31.371 设备接收:03 03 08 00 00 91 35 00 13 FB 5A 3C 24
14:57:31.418 设备发送:03 03 04 04 00 01 C5 19
14:57:32.900 设备接收:03 03 02 00 02 40 45
14:57:32.916 设备发送:03 03 05 84 00 0F 44 C9
14:57:34.430 设备接收:03 03 1E 1F 4B 04 CD 03 D9 1F 13 04 DB 03 DD 1F 7E 04 A7 03 C0 1F 2B 04 B3 03 C0 17 2F 04 BA 02 CE 2F 31
14:57:34.445 设备发送:03 03 05 93 00 0F F4 CD
14:57:35.959 设备接收:03 03 1E 05 27 00 00 00 00 13 7F 03 A1 01 D0 1B DA 02 6A 01 B9 1B D2 02 6A 01 B8 05 2A 00 00 00 00 C7 2A
14:57:35.990 设备发送:03 03 05 A2 00 0F A5 02
14:57:37.502 设备接收:03 03 1E 00 0F 00 00 00 00 00 00 00 00 00 00 00 00 00 00 00 00 00 00 00 00 00 00 00 00 00 00 00 00 41 71
14:57:37.517 设备发送:03 03 05 B1 00 03 54 C2
14:57:39.030 设备接收:03 03 06 00 00 00 00 00 00 38 15
14:57:39.045 设备发送:03 03 04 2B 00 01 F4 D0
14:57:40.567 设备发送:03 03 04 2B 00 01 F4 D0
14:57:42.088 设备接收:03 03 02 02 E2 40 AD
14:57:42.103 设备发送:03 03 04 20 00 01 85 12
14:57:43.599 设备接收:03 03 02 00 2A 40 5B
14:57:43.615 设备发送:03 03 04 05 00 01 94 D9
14:57:45.113 设备接收:03 03 02 00 00 C1 84
14:57:45.128 设备发送:01 03 04 84 00 04 05 10
14:57:46.655 设备接收:01 03 08 13 88 15 21 FF D3 15 21 6D 61
14:57:46.670 设备发送:01 03 04 8D 00 21 14 C9
14:57:48.155 设备接收:01 03 42 08 F6 1E 88 00 00 00 00 00 00 00 00 00 00 00 00 00 00 00 00 00 00 09 11 1E 97 00 00 00 00 00 00 00 00 00 00 00 00 00 00 00 00 00 00 09 0A 1E A0 00 00 00 00 00 00 00 00 00 00 00 00 00 00 00 00 00 00 D5 4E
14:57:48.201 设备发送:01 03 06 84 00 04 04 A8
14:57:49.730 设备接收:01 03 08 00 00 8C 6E 00 13 29 A6 0D 3D
14:57:49.755 设备发送:01 03 04 04 00 01 C4 FB
14:57:51.233 设备接收:01 03 02 00 02 39 85
14:57:51.248 设备发送:01 03 05 84 00 0F 45 2B
14:57:52.740 设备接收:01 03 1E 1F D2 04 5F 03 90 1F A5 04 66 03 90 1F 97 04 50 03 7C 1F E7 04 5A 03 8D 17 71 02 44 01 5C 89 78
14:57:52.756 设备发送:01 03 05 93 00 0F F5 2F
14:57:54.253 设备接收:01 03 1E 00 00 00 00 00 00 1A 53 04 B8 03 2E 1C 57 02 4C 01 AA 1C 1B 02 50 01 AA 00 00 00 05 00 00 1F 65
14:57:54.285 设备发送:01 03 05 A2 00 0F A4 E0
14:57:55.786 设备接收:01 03 1E 00 00 00 00 00 00 00 00 00 00 00 00 00 00 00 00 00 00 00 00 00 00 00 00 00 00 00 00 00 00 D8 BA
14:57:55.832 设备发送:01 03 05 B1 00 03 55 20
14:57:57.328 设备接收:01 03 06 00 00 00 00 00 00 21 75
14:57:57.344 设备发送:01 03 04 2B 00 01 F5 32
14:57:58.877 设备发送:01 03 04 2B 00 01 F5 32
14:58:00.360 设备接收:01 03 02 02 E1 79 6C
14:58:00.383 设备发送:01 03 04 20 00 01 84 F0
14:58:01.906 设备接收:01 03 02 00 27 F8 5E
14:58:01.937 设备发送:01 03 04 05 00 01 95 3B
14:58:03.436 设备接收:01 03 02 00 00 B8 44
14:58:03.452 设备发送:02 03 04 84 00 04 05 23
14:58:04.965 设备接收:02 03 08 13 85 14 09 FF D5 14 0A 7E BC
14:58:04.985 设备发送:02 03 04 8D 00 21 14 FA
14:58:06.505 设备接收:02 03 42 08 F4 1C F6 00 00 00 00 00 00 00 00 00 00 00 00 00 00 00 00 00 00 09 11 1D 13 00 00 00 00 00 00 00 00 00 00 00 00 00 00 00 00 00 00 09 05 1D 1D 00 00 00 00 00 00 00 00 00 00 00 00 00 00 00 00 00 00 63 A8
14:58:06.521 设备发送:02 03 06 84 00 04 04 9B
14:58:08.038 设备接收:02 03 08 00 00 86 B5 00 13 72 1E 5D 82
14:58:08.053 设备发送:02 03 04 04 00 01 C4 C8
14:58:09.582 设备发送:02 03 04 04 00 01 C4 C8
14:58:11.111 设备发送:02 03 04 04 00 01 C4 C8
14:58:12.611 设备接收:02 03 02 00 02 7D 85
14:58:12.624 设备发送:02 03 05 84 00 0F 45 18
14:58:14.125 设备接收:02 03 1E 1F A5 02 1B 01 B4 1F 94 02 19 01 B2 1F D5 02 1C 01 B8 20 40 04 29 03 6F 1F BA 02 17 01 B3 B5 24
14:58:14.172 设备发送:02 03 05 93 00 0F F5 1C
14:58:15.669 设备接收:02 03 1E 1F A0 02 17 01 B1 1F FA 02 25 01 C2 1F 8E 04 5C 03 86 1F E0 02 2C 01 C5 1F 4E 02 59 01 E2 7A 29
14:58:15.701 设备发送:02 03 05 A2 00 0F A4 D3
14:58:17.199 设备接收:02 03 1E 00 00 00 04 00 00 00 00 00 00 00 00 00 00 00 00 00 00 00 00 00 00 00 00 00 00 00 00 00 00 92 31
14:58:17.245 设备发送:02 03 05 B1 00 03 55 13
14:58:18.726 设备接收:02 03 06 00 00 00 00 00 00 35 85
14:58:18.774 设备发送:02 03 04 2B 00 01 F5 01
14:58:20.246 设备接收:02 03 02 02 E2 7D 6D
14:58:20.293 设备发送:02 03 04 20 00 01 84 C3
14:58:21.796 设备接收:02 03 02 00 3D 3D 95
14:58:21.811 设备发送:02 03 04 05 00 01 95 08
14:58:23.323 设备接收:02 03 02 00 00 FC 44
14:58:23.339 设备发送:03 03 04 84 00 04 04 F2
14:58:24.841 设备接收:03 03 08 13 87 16 1C FF 7C 16 1E 84 EE
14:58:24.888 设备发送:03 03 04 8D 00 21 15 2B
14:58:26.369 设备接收:03 03 42 08 F2 1F F9 00 00 00 00 00 00 00 00 00 00 00 00 00 00 00 00 00 00 09 14 1F F9 00 00 00 00 00 00 00 00 00 00 00 00 00 00 00 00 00 00 09 0A 20 12 00 00 00 00 00 00 00 00 00 00 00 00 00 00 00 00 00 00 A2 FA
14:58:26.416 设备发送:03 03 06 84 00 04 05 4A
14:58:27.926 设备接收:03 03 08 00 00 91 8C 00 13 FB 63 61 ED
14:58:27.941 设备发送:03 03 04 04 00 01 C5 19
14:58:29.445 设备接收:03 03 02 00 02 40 45
14:58:29.476 设备发送:03 03 05 84 00 0F 44 C9
14:58:30.974 设备接收:03 03 1E 1F 26 04 C4 03 CD 1F 13 04 C9 03 CF 1F 81 04 9A 03 B6 1F 05 04 AC 03 B5 17 30 04 A9 02 C4 8A E4
14:58:31.006 设备发送:03 03 05 93 00 0F F4 CD
14:58:32.522 设备接收:03 03 1E 05 29 00 00 00 00 13 6A 03 BA 01 DA 1B B4 02 67 01 B4 1B 81 02 6B 01 B4 05 2F 00 00 00 00 D7 90
14:58:32.537 设备发送:03 03 05 A2 00 0F A5 02
14:58:34.050 设备接收:03 03 1E 00 0F 00 00 00 00 00 00 00 00 00 00 00 00 00 00 00 00 00 00 00 00 00 00 00 00 00 00 00 00 41 71
14:58:34.081 设备发送:03 03 05 B1 00 03 54 C2
14:58:35.564 设备接收:03 03 06 00 00 00 00 00 00 38 15
14:58:35.580 设备发送:03 03 04 2B 00 01 F4 D0
14:58:37.109 设备接收:03 03 02 02 E2 40 AD
14:58:37.124 设备发送:03 03 04 20 00 01 85 12
14:58:38.621 设备接收:03 03 02 00 2E 41 98
14:58:38.638 设备发送:03 03 04 05 00 01 94 D9
14:58:40.166 设备接收:03 03 02 00 00 C1 84
14:58:40.182 设备发送:01 03 04 84 00 04 05 10
14:58:41.670 设备接收:01 03 08 13 88 14 E0 FF D4 14 E0 20 A0
14:58:41.701 设备发送:01 03 04 8D 00 21 14 C9
14:58:43.228 设备接收:01 03 42 08 F7 1E 25 00 00 00 00 00 00 00 00 00 00 00 00 00 00 00 00 00 00 09 0E 1E 30 00 00 00 00 00 00 00 00 00 00 00 00 00 00 00 00 00 00 09 09 1E 3D 00 00 00 00 00 00 00 00 00 00 00 00 00 00 00 00 00 00 1E B1
14:58:43.243 设备发送:01 03 06 84 00 04 04 A8
14:58:44.750 设备接收:01 03 08 00 00 8C C0 00 13 29 AE E5 23
14:58:44.779 设备发送:01 03 04 04 00 01 C4 FB
14:58:46.320 设备发送:01 03 04 04 00 01 C4 FB
14:58:47.849 设备发送:01 03 04 04 00 01 C4 FB
14:58:49.322 设备接收:01 03 02 00 02 39 85
14:58:49.337 设备发送:01 03 05 84 00 0F 45 2B
14:58:50.842 设备接收:01 03 1E 1F D3 04 56 03 88 1F F5 04 53 03 8A 1F E5 04 39 03 73 1F E6 04 45 03 7D 17 71 02 3B 01 56 80 76
14:58:50.857 设备发送:01 03 05 93 00 0F F5 2F
14:58:52.386 设备接收:01 03 1E 00 00 00 00 00 00 1A 7B 04 AA 03 29 1C 56 02 45 01 A6 1C 6D 02 46 01 A7 00 00 00 06 00 00 91 6E
14:58:52.402 设备发送:01 03 05 A2 00 0F A4 E0
14:58:53.902 设备接收:01 03 1E 00 00 00 00 00 00 00 00 00 00 00 00 00 00 00 00 00 00 00 00 00 00 00 00 00 00 00 00 00 00 D8 BA
14:58:53.915 设备发送:01 03 05 B1 00 03 55 20
14:58:55.446 设备接收:01 03 06 00 00 00 00 00 00 21 75
14:58:55.477 设备发送:01 03 04 2B 00 01 F5 32
14:58:56.973 设备接收:01 03 02 02 E1 79 6C
14:58:56.989 设备发送:01 03 04 20 00 01 84 F0
14:58:58.506 设备接收:01 03 02 00 29 79 9A
14:58:58.537 设备发送:01 03 04 05 00 01 95 3B
14:59:00.040 设备接收:01 03 02 00 00 B8 44
14:59:00.055 设备发送:02 03 04 84 00 04 05 23
14:59:01.552 设备接收:02 03 08 13 8B 13 F6 FF 89 13 F7 87 7C
14:59:01.569 设备发送:02 03 04 8D 00 21 14 FA
14:59:03.114 设备接收:02 03 42 08 F5 1C DA 00 00 00 00 00 00 00 00 00 00 00 00 00 00 00 00 00 00 09 0F 1C EB 00 00 00 00 00 00 00 00 00 00 00 00 00 00 00 00 00 00 09 05 1C F4 00 00 00 00 00 00 00 00 00 00 00 00 00 00 00 00 00 00 17 A7
14:59:03.129 设备发送:02 03 06 84 00 04 04 9B
14:59:04.629 设备接收:02 03 08 00 00 87 05 00 13 72 26 1C 5B
14:59:04.644 设备发送:02 03 04 04 00 01 C4 C8
14:59:06.158 设备发送:02 03 04 04 00 01 C4 C8
14:59:07.643 设备接收:02 03 02 00 02 7D 85
14:59:07.704 设备发送:02 03 05 84 00 0F 45 18
14:59:09.204 设备接收:02 03 1E 1F CD 02 14 01 B1 1F 94 02 13 01 AE 1F AF 02 1C 01 B6 20 19 04 26 03 68 1F E4 02 11 01 B0 CD 0A
14:59:09.220 设备发送:02 03 05 93 00 0F F5 1C
14:59:10.718 设备接收:02 03 1E 1F 9F 02 14 01 AE 20 4B 02 1B 01 BD 1F B5 04 4F 03 80 1F E1 02 29 01 C3 1F 76 02 53 01 DF 4B EE
14:59:10.734 设备发送:02 03 05 A2 00 0F A4 D3
14:59:12.247 设备接收:02 03 1E 00 00 00 04 00 00 00 00 00 00 00 00 00 00 00 00 00 00 00 00 00 00 00 00 00 00 00 00 00 00 92 31
14:59:12.278 设备发送:02 03 05 B1 00 03 55 13
14:59:13.782 设备接收:02 03 06 00 00 00 00 00 00 35 85
14:59:13.797 设备发送:02 03 04 2B 00 01 F5 01
14:59:15.312 设备接收:02 03 02 02 E2 7D 6D
14:59:15.326 设备发送:02 03 04 20 00 01 84 C3
14:59:16.830 设备接收:02 03 02 00 3F BC 54
14:59:16.844 设备发送:02 03 04 05 00 01 95 08
14:59:18.364 设备接收:02 03 02 00 00 FC 44
14:59:18.380 设备发送:03 03 04 84 00 04 04 F2
14:59:19.878 设备接收:03 03 08 13 89 15 FE FF D0 15 FF 93 92
14:59:19.896 设备发送:03 03 04 8D 00 21 15 2B
14:59:21.397 设备接收:03 03 42 08 F3 1F CB 00 00 00 00 00 00 00 00 00 00 00 00 00 00 00 00 00 00 09 11 1F C4 00 00 00 00 00 00 00 00 00 00 00 00 00 00 00 00 00 00 09 08 1F D6 00 00 00 00 00 00 00 00 00 00 00 00 00 00 00 00 00 00 81 B8
14:59:21.444 设备发送:03 03 06 84 00 04 05 4A
14:59:22.925 设备接收:03 03 08 00 00 91 E3 00 13 FB 6B B4 22
14:59:22.971 设备发送:03 03 04 04 00 01 C5 19
14:59:24.473 设备接收:03 03 02 00 02 40 45
14:59:24.486 设备发送:03 03 05 84 00 0F 44 C9
14:59:25.989 设备接收:03 03 1E 1F 27 04 BF 03 C9 1F 60 04 BA 03 CC 1F A8 04 89 03 AD 1F 2C 04 9E 03 AF 17 31 04 A4 02 C1 82 2E
14:59:26.004 设备发送:03 03 05 93 00 0F F4 CD
14:59:27.522 设备接收:03 03 1E 05 2A 00 00 00 00 13 75 03 A4 01 D0 1B B4 02 64 01 B2 1B AB 02 65 01 B2 05 2C 00 00 00 00 93 F7
14:59:27.552 设备发送:03 03 05 A2 00 0F A5 02
14:59:29.068 设备接收:03 03 1E 00 0F 00 00 00 00 00 00 00 00 00 00 00 00 00 00 00 00 00 00 00 00 00 00 00 00 00 00 00 00 41 71
14:59:29.084 设备发送:03 03 05 B1 00 03 54 C2
14:59:30.598 设备接收:03 03 06 00 00 00 00 00 00 38 15
14:59:30.614 设备发送:03 03 04 2B 00 01 F4 D0
14:59:32.112 设备接收:03 03 02 02 E2 40 AD
14:59:32.127 设备发送:03 03 04 20 00 01 85 12
14:59:33.657 设备发送:03 03 04 20 00 01 85 12
14:59:35.154 设备接收:03 03 02 00 32 40 51
14:59:35.176 设备发送:03 03 04 05 00 01 94 D9
14:59:36.686 设备接收:03 03 02 00 00 C1 84
14:59:36.701 设备发送:01 03 04 84 00 04 05 10
14:59:38.215 设备接收:01 03 08 13 85 14 A2 FF D5 14 A2 55 9E
14:59:38.230 设备发送:01 03 04 8D 00 21 14 C9
14:59:39.746 设备接收:01 03 42 08 F7 1D D4 00 00 00 00 00 00 00 00 00 00 00 00 00 00 00 00 00 00 09 0E 1D D9 00 00 00 00 00 00 00 00 00 00 00 00 00 00 00 00 00 00 09 08 1D E3 00 00 00 00 00 00 00 00 00 00 00 00 00 00 00 00 00 00 34 F5
14:59:39.786 设备发送:01 03 06 84 00 04 04 A8
14:59:41.273 设备接收:01 03 08 00 00 8D 14 00 13 29 B6 D4 EA
14:59:41.304 设备发送:01 03 04 04 00 01 C4 FB
14:59:42.818 设备接收:01 03 02 00 02 39 85
14:59:42.834 设备发送:01 03 05 84 00 0F 45 2B
14:59:44.348 设备接收:01 03 1E 1F D1 04 4B 03 7F 20 1B 04 3D 03 7C 1F E4 04 2A 03 67 20 34 04 22 03 68 17 71 02 3B 01 56 F0 34
14:59:44.364 设备发送:01 03 05 93 00 0F F5 2F
14:59:45.867 设备接收:01 03 1E 00 00 00 00 00 00 1A 7B 04 9D 03 21 1C 56 02 40 01 A1 1C 44 02 44 01 A4 00 00 00 04 00 00 F0 F3
14:59:45.898 设备发送:01 03 05 A2 00 0F A4 E0
14:59:47.395 设备接收:01 03 1E 00 00 00 00 00 00 00 00 00 00 00 00 00 00 00 00 00 00 00 00 00 00 00 00 00 00 00 00 00 00 D8 BA
14:59:47.427 设备发送:01 03 05 B1 00 03 55 20
14:59:48.925 设备接收:01 03 06 00 00 00 00 00 00 21 75
14:59:48.940 设备发送:01 03 04 2B 00 01 F5 32
14:59:50.449 设备接收:01 03 02 02 E1 79 6C
14:59:50.473 设备发送:01 03 04 20 00 01 84 F0
14:59:51.981 设备接收:01 03 02 00 2C B9 99
14:59:51.996 设备发送:01 03 04 05 00 01 95 3B
14:59:53.480 设备接收:01 03 02 00 00 B8 44
14:59:53.542 设备发送:02 03 04 84 00 04 05 23
14:59:55.025 设备接收:02 03 08 13 88 13 D4 FF D6 13 D4 3D B0
14:59:55.071 设备发送:02 03 04 8D 00 21 14 FA
14:59:56.572 设备接收:02 03 42 08 F8 1C 98 00 00 00 00 00 00 00 00 00 00 00 00 00 00 00 00 00 00 09 0F 1C A8 00 00 00 00 00 00 00 00 00 00 00 00 00 00 00 00 00 00 09 07 1C BA 00 00 00 00 00 00 00 00 00 00 00 00 00 00 00 00 00 00 5D A4
14:59:56.605 设备发送:02 03 06 84 00 04 04 9B
14:59:58.102 设备接收:02 03 08 00 00 87 50 00 13 72 2E 11 91
14:59:58.134 设备发送:02 03 04 04 00 01 C4 C8
14:59:59.644 设备发送:02 03 04 04 00 01 C4 C8
15:00:01.157 设备接收:02 03 02 00 02 7D 85
15:00:01.173 设备发送:02 03 05 84 00 0F 45 18
15:00:02.672 设备接收:02 03 1E 20 1B 02 0A 01 AD 1F BB 02 11 01 AE 1F D4 02 17 01 B4 20 65 04 16 03 63 1F E0 02 12 01 B1 D5 09
15:00:02.719 设备发送:02 03 05 93 00 0F F5 1C
15:00:04.202 设备接收:02 03 1E 1F C6 02 11 01 AE 20 22 02 1E 01 BD 1F B5 04 4D 03 7D 20 09 02 23 01 C1 1F 9F 02 4F 01 DF E3 FA
15:00:04.238 设备发送:02 03 05 A2 00 0F A4 D3
15:00:05.754 设备接收:02 03 1E 00 00 00 04 00 00 00 00 00 00 00 00 00 00 00 00 00 00 00 00 00 00 00 00 00 00 00 00 00 00 92 31
15:00:05.770 设备发送:02 03 05 B1 00 03 55 13
15:00:07.288 设备接收:02 03 06 00 00 00 00 00 00 35 85
15:00:07.304 设备发送:02 03 04 2B 00 01 F5 01
15:00:08.802 设备接收:02 03 02 02 E2 7D 6D
15:00:08.817 设备发送:02 03 04 20 00 01 84 C3
15:00:10.319 设备接收:02 03 02 00 41 3C 74
15:00:10.350 设备发送:02 03 04 05 00 01 95 08
15:00:11.856 设备接收:02 03 02 00 00 FC 44
15:00:11.901 设备发送:03 03 04 84 00 04 04 F2
15:00:13.399 设备接收:03 03 08 13 8B 15 E9 FF D1 15 E9 14 5F
15:00:13.415 设备发送:03 03 04 8D 00 21 15 2B
15:00:14.947 设备接收:03 03 42 08 F7 1F B4 00 00 00 00 00 00 00 00 00 00 00 00 00 00 00 00 00 00 09 12 1F 9D 00 00 00 00 00 00 00 00 00 00 00 00 00 00 00 00 00 00 09 09 1F B5 00 00 00 00 00 00 00 00 00 00 00 00 00 00 00 00 00 00 83 FC
15:00:14.962 设备发送:03 03 06 84 00 04 05 4A
15:00:16.471 设备接收:03 03 08 00 00 92 34 00 13 FB 73 C0 09
15:00:16.486 设备发送:03 03 04 04 00 01 C5 19
15:00:18.002 设备接收:03 03 02 00 02 40 45
15:00:18.018 设备发送:03 03 05 84 00 0F 44 C9
15:00:19.506 设备接收:03 03 1E 1F 74 04 AE 03 C5 1F 3A 04 B9 03 C7 1F 82 04 8E 03 AC 1F 2E 04 98 03 AA 17 57 04 94 02 BC 68 21
15:00:19.554 设备发送:03 03 05 93 00 0F F4 CD
15:00:21.039 设备接收:03 03 1E 05 2B 00 00 00 00 13 68 03 B4 01 D7 1B B4 02 60 01 AF 1B D3 02 5F 01 B0 05 2E 00 00 00 00 78 08
15:00:21.055 设备发送:03 03 05 A2 00 0F A5 02
15:00:22.590 设备接收:03 03 1E 00 0F 00 00 00 00 00 00 00 00 00 00 00 00 00 00 00 00 00 00 00 00 00 00 00 00 00 00 00 00 41 71
15:00:22.606 设备发送:03 03 05 B1 00 03 54 C2
15:00:24.122 设备接收:03 03 06 00 00 00 00 00 00 38 15
15:00:24.138 设备发送:03 03 04 2B 00 01 F4 D0
15:00:25.657 设备发送:03 03 04 2B 00 01 F4 D0
15:00:27.173 设备发送:03 03 04 2B 00 01 F4 D0
15:00:28.692 设备发送:03 03 04 20 00 01 85 12
15:00:30.208 设备接收:03 03 02 00 36 41 92
15:00:30.224 设备发送:03 03 04 05 00 01 94 D9
15:00:31.764 设备接收:03 03 02 00 00 C1 84
15:00:31.773 设备发送:01 03 04 84 00 04 05 10
15:00:33.275 设备接收:01 03 08 13 8B 14 65 FF 85 14 66 0E 0D
15:00:33.290 设备发送:01 03 04 8D 00 21 14 C9
15:00:34.796 设备接收:01 03 42 08 F6 1D 6E 00 00 00 00 00 00 00 00 00 00 00 00 00 00 00 00 00 00 09 10 1D 7C 00 00 00 00 00 00 00 00 00 00 00 00 00 00 00 00 00 00 09 0A 1D 84 00 00 00 00 00 00 00 00 00 00 00 00 00 00 00 00 00 00 1F 69
15:00:34.836 设备发送:01 03 06 84 00 04 04 A8
15:00:36.336 设备接收:01 03 08 00 00 8D 64 00 13 29 BE 94 E7
15:00:36.384 设备发送:01 03 04 04 00 01 C4 FB
15:00:37.874 设备接收:01 03 02 00 02 39 85
15:00:37.890 设备发送:01 03 05 84 00 0F 45 2B
15:00:39.400 设备接收:01 03 1E 1F FC 04 3D 03 78 1F CE 04 39 03 70 20 0E 04 10 03 56 1F E6 04 13 03 54 17 71 02 35 01 53 20 A5
15:00:39.415 设备发送:01 03 05 93 00 0F F5 2F
15:00:40.945 设备接收:01 03 1E 00 00 00 00 00 00 1A 7A 04 95 03 1B 1C A7 02 36 01 9F 1C 6C 02 3E 01 A2 00 00 00 04 00 00 28 C3
15:00:40.961 设备发送:01 03 05 A2 00 0F A4 E0
15:00:42.454 设备接收:01 03 1E 00 00 00 00 00 00 00 00 00 00 00 00 00 00 00 00 00 00 00 00 00 00 00 00 00 00 00 00 00 00 D8 BA
15:00:42.469 设备发送:01 03 05 B1 00 03 55 20
15:00:43.986 设备接收:01 03 06 00 00 00 00 00 00 21 75
15:00:44.017 设备发送:01 03 04 2B 00 01 F5 32
15:00:45.500 设备接收:01 03 02 02 E1 79 6C
15:00:45.532 设备发送:01 03 04 20 00 01 84 F0
15:00:47.063 设备发送:01 03 04 20 00 01 84 F0
15:00:48.565 设备接收:01 03 02 00 30 B8 50
15:00:48.612 设备发送:01 03 04 05 00 01 95 3B
15:00:50.110 设备接收:01 03 02 00 00 B8 44
15:00:50.129 设备发送:02 03 04 84 00 04 05 23
15:00:51.627 设备接收:02 03 08 13 8B 13 88 FF D6 13 88 DE 84
15:00:51.689 设备发送:02 03 04 8D 00 21 14 FA
15:00:53.171 设备接收:02 03 42 08 F6 1C 3B 00 00 00 00 00 00 00 00 00 00 00 00 00 00 00 00 00 00 09 10 1C 4E 00 00 00 00 00 00 00 00 00 00 00 00 00 00 00 00 00 00 09 05 1C 54 00 00 00 00 00 00 00 00 00 00 00 00 00 00 00 00 00 00 AF 4B
15:00:53.186 设备发送:02 03 06 84 00 04 04 9B
15:00:54.699 设备接收:02 03 08 00 00 87 9F 00 13 72 35 05 8A
15:00:54.730 设备发送:02 03 04 04 00 01 C4 C8
15:00:56.244 设备发送:02 03 04 04 00 01 C4 C8
15:00:57.785 设备发送:02 03 04 04 00 01 C4 C8
15:00:59.262 设备接收:02 03 02 00 02 7D 85
15:00:59.325 设备发送:02 03 05 84 00 0F 45 18
15:01:00.806 设备接收:02 03 1E 1F CD 02 08 01 A7 20 09 01 FF 01 A3 1F D7 02 0E 01 AC 20 1A 04 0D 03 55 20 0D 02 03 01 A6 81 17
15:01:00.822 设备发送:02 03 05 93 00 0F F5 1C
15:01:02.332 设备接收:02 03 1E 1F C6 02 06 01 A5 20 23 02 14 01 B6 1F B6 04 37 03 6C 20 0A 02 1A 01 B9 1F A0 02 45 01 D6 7D DA
15:01:02.363 设备发送:02 03 05 A2 00 0F A4 D3
15:01:03.894 设备接收:02 03 1E 00 00 00 04 00 00 00 00 00 00 00 00 00 00 00 00 00 00 00 00 00 00 00 00 00 00 00 00 00 00 92 31
15:01:03.909 设备发送:02 03 05 B1 00 03 55 13
15:01:05.387 设备接收:02 03 06 00 00 00 00 00 00 35 85
15:01:05.419 设备发送:02 03 04 2B 00 01 F5 01
15:01:06.917 设备接收:02 03 02 02 E2 7D 6D
15:01:06.932 设备发送:02 03 04 20 00 01 84 C3
15:01:08.448 设备接收:02 03 02 00 43 BD B5
15:01:08.464 设备发送:02 03 04 05 00 01 95 08
15:01:10.008 设备发送:02 03 04 05 00 01 95 08
15:01:11.539 设备发送:02 03 04 05 00 01 95 08
15:01:13.031 设备接收:02 03 02 00 00 FC 44
15:01:13.046 设备发送:03 03 04 84 00 04 04 F2
15:01:14.565 设备接收:03 03 08 13 89 15 89 00 23 15 89 26 58
15:01:14.580 设备发送:03 03 04 8D 00 21 15 2B
15:01:16.109 设备接收:03 03 42 08 F4 1F 30 00 00 00 00 00 00 00 00 00 00 00 00 00 00 00 00 00 00 09 13 1F 26 00 00 00 00 00 00 00 00 00 00 00 00 00 00 00 00 00 00 09 08 1F 36 00 00 00 00 00 00 00 00 00 00 00 00 00 00 00 00 00 00 3F 7B
15:01:16.124 设备发送:03 03 06 84 00 04 05 4A
15:01:17.627 设备接收:03 03 08 00 00 92 94 00 13 FB 7D C1 D4
15:01:17.643 设备发送:03 03 04 04 00 01 C5 19
15:01:19.156 设备接收:03 03 02 00 02 40 45
15:01:19.172 设备发送:03 03 05 84 00 0F 44 C9
15:01:20.689 设备接收:03 03 1E 1F 4E 04 A7 03 BA 1F 61 04 A6 03 BC 1F A8 04 7A 03 A1 1F 2C 04 8B 03 A0 17 7F 04 7F 02 B4 2A 31
15:01:20.704 设备发送:03 03 05 93 00 0F F4 CD
15:01:22.203 设备接收:03 03 1E 05 2B 00 00 00 00 13 71 03 A1 01 CE 1C 03 02 53 01 AB 1B FA 02 53 01 AA 05 30 00 00 00 00 8B 09
15:01:22.234 设备发送:03 03 05 A2 00 0F A5 02
15:01:23.769 设备接收:03 03 1E 00 12 00 00 00 00 00 00 00 00 00 00 00 00 00 00 00 00 00 00 00 00 00 00 00 00 00 00 00 00 81 65
15:01:23.784 设备发送:03 03 05 B1 00 03 54 C2
15:01:25.274 设备接收:03 03 06 00 00 00 00 00 00 38 15
15:01:25.302 设备发送:03 03 04 2B 00 01 F4 D0
15:01:26.787 设备接收:03 03 02 02 E2 40 AD
15:01:26.803 设备发送:03 03 04 20 00 01 85 12
15:01:28.323 设备接收:03 03 02 00 37 80 52
15:01:28.346 设备发送:03 03 04 05 00 01 94 D9
15:01:29.854 设备接收:03 03 02 00 00 C1 84
15:01:29.869 设备发送:01 03 04 84 00 04 05 10
15:01:31.376 设备接收:01 03 08 13 86 14 14 FF 89 14 15 2F 20
15:01:31.392 设备发送:01 03 04 8D 00 21 14 C9
15:01:32.907 设备接收:01 03 42 08 F6 1C FF 00 00 00 00 00 00 00 00 00 00 00 00 00 00 00 00 00 00 09 0D 1D 06 00 00 00 00 00 00 00 00 00 00 00 00 00 00 00 00 00 00 09 09 1D 12 00 00 00 00 00 00 00 00 00 00 00 00 00 00 00 00 00 00 85 EC
15:01:32.938 设备发送:01 03 06 84 00 04 04 A8
15:01:34.466 设备接收:01 03 08 00 00 8D B7 00 13 29 C6 11 17
15:01:34.482 设备发送:01 03 04 04 00 01 C4 FB
15:01:35.950 设备接收:01 03 02 00 02 39 85
15:01:35.970 设备发送:01 03 05 84 00 0F 45 2B
15:01:37.501 设备接收:01 03 1E 1F FC 04 2C 03 6A 20 1F 04 1B 03 60 20 10 03 F9 03 42 1F E8 03 FA 03 3F 17 72 02 31 01 51 2C B9
15:01:37.517 设备发送:01 03 05 93 00 0F F5 2F
15:01:39.019 设备接收:01 03 1E 00 00 00 00 00 00 1A 78 04 8E 03 16 1C 7D 02 37 01 9E 1C BC 02 31 01 9D 00 00 00 08 00 01 A8 D4
15:01:39.034 设备发送:01 03 05 A2 00 0F A4 E0
15:01:40.534 设备接收:01 03 1E 00 00 00 00 00 00 00 00 00 00 00 00 00 00 00 00 00 00 00 00 00 00 00 00 00 00 00 00 00 00 D8 BA
15:01:40.565 设备发送:01 03 05 B1 00 03 55 20
15:01:42.095 设备接收:01 03 06 00 00 00 00 00 00 21 75
15:01:42.110 设备发送:01 03 04 2B 00 01 F5 32
15:01:43.595 设备接收:01 03 02 02 E1 79 6C
15:01:43.610 设备发送:01 03 04 20 00 01 84 F0
15:01:45.114 设备接收:01 03 02 00 33 F8 51
15:01:45.129 设备发送:01 03 04 05 00 01 95 3B
15:01:46.630 设备接收:01 03 02 00 00 B8 44
15:01:46.650 设备发送:02 03 04 84 00 04 05 23
15:01:48.154 设备接收:02 03 08 13 85 13 6A FF 8C 13 6B A8 C8
15:01:48.200 设备发送:02 03 04 8D 00 21 14 FA
15:01:49.714 设备接收:02 03 42 08 F9 1B FA 00 00 00 00 00 00 00 00 00 00 00 00 00 00 00 00 00 00 09 0F 1C 03 00 00 00 00 00 00 00 00 00 00 00 00 00 00 00 00 00 00 09 05 1C 18 00 00 00 00 00 00 00 00 00 00 00 00 00 00 00 00 00 00 8A 31
15:01:49.730 设备发送:02 03 06 84 00 04 04 9B
15:01:51.241 设备接收:02 03 08 00 00 87 ED 00 13 72 3D 3C 47
15:01:51.272 设备发送:02 03 04 04 00 01 C4 C8
15:01:52.757 设备接收:02 03 02 00 02 7D 85
15:01:52.773 设备发送:02 03 05 84 00 0F 45 18
15:01:54.273 设备接收:02 03 1E 1F CC 02 06 01 A6 1F BB 02 03 01 A2 1F D4 02 0D 01 AC 20 67 04 01 03 53 1F E1 02 03 01 A4 0A 1D
15:01:54.289 设备发送:02 03 05 93 00 0F F5 1C
15:01:55.834 设备接收:02 03 1E 1F C5 02 03 01 A3 20 71 02 0C 01 B3 1F B4 04 32 03 68 20 2F 02 14 01 B6 1F 75 02 47 01 D5 7B 8D
15:01:55.850 设备发送:02 03 05 A2 00 0F A4 D3
15:01:57.353 设备接收:02 03 1E 00 00 00 03 00 00 00 00 00 00 00 00 00 00 00 00 00 00 00 00 00 00 00 00 00 00 00 00 00 00 6D 7D
15:01:57.369 设备发送:02 03 05 B1 00 03 55 13
15:01:58.869 设备接收:02 03 06 00 00 00 00 00 00 35 85
15:01:58.884 设备发送:02 03 04 2B 00 01 F5 01
15:02:00.402 设备接收:02 03 02 02 E2 7D 6D
15:02:00.417 设备发送:02 03 04 20 00 01 84 C3
15:02:01.928 设备接收:02 03 02 00 44 FC 77
15:02:01.974 设备发送:02 03 04 05 00 01 95 08
15:02:03.442 设备接收:02 03 02 00 00 FC 44
15:02:03.489 设备发送:03 03 04 84 00 04 04 F2
15:02:05.004 设备接收:03 03 08 13 87 15 84 FF 80 15 86 64 6B
15:02:05.020 设备发送:03 03 04 8D 00 21 15 2B
15:02:06.521 设备接收:03 03 42 08 F9 1F 1F 00 00 00 00 00 00 00 00 00 00 00 00 00 00 00 00 00 00 09 16 1F 13 00 00 00 00 00 00 00 00 00 00 00 00 00 00 00 00 00 00 09 0C 1F 24 00 00 00 00 00 00 00 00 00 00 00 00 00 00 00 00 00 00 37 E1
15:02:06.557 设备发送:03 03 06 84 00 04 05 4A
15:02:08.071 设备接收:03 03 08 00 00 92 E1 00 13 FB 85 4D 9D
15:02:08.080 设备发送:03 03 04 04 00 01 C5 19
15:02:09.597 设备发送:03 03 04 04 00 01 C5 19
15:02:11.127 设备发送:03 03 04 04 00 01 C5 19
15:02:12.640 设备接收:03 03 02 00 02 40 45
15:02:12.656 设备发送:03 03 05 84 00 0F 44 C9
15:02:14.173 设备接收:03 03 1E 1F 50 04 A6 03 BA 1F 64 04 A9 03 BE 1F 83 04 7C 03 9E 1F 58 04 84 03 9F 17 5A 04 8A 02 B6 7D BE
15:02:14.188 设备发送:03 03 05 93 00 0F F4 CD
15:02:15.678 设备接收:03 03 1E 05 2C 00 00 00 00 13 74 03 A0 01 CE 1B B3 02 5B 01 AC 1B AB 02 59 01 AA 05 2F 00 00 00 00 0D FE
15:02:15.725 设备发送:03 03 05 A2 00 0F A5 02
15:02:17.241 设备接收:03 03 1E 00 0F 00 00 00 00 00 00 00 00 00 00 00 00 00 00 00 00 00 00 00 00 00 00 00 00 00 00 00 00 41 71
15:02:17.257 设备发送:03 03 05 B1 00 03 54 C2
15:02:18.742 设备接收:03 03 06 00 00 00 00 00 00 38 15
15:02:18.758 设备发送:03 03 04 2B 00 01 F4 D0
15:02:20.256 设备接收:03 03 02 02 E2 40 AD
15:02:20.303 设备发送:03 03 04 20 00 01 85 12
15:02:21.802 设备发送:03 03 04 20 00 01 85 12
15:02:23.306 设备接收:03 03 02 00 30 C1 90
15:02:23.327 设备发送:03 03 04 05 00 01 94 D9
15:02:24.869 设备发送:03 03 04 05 00 01 94 D9
15:02:26.363 设备发送:03 03 04 05 00 01 94 D9
15:02:27.892 设备发送:01 03 04 84 00 04 05 10
15:02:29.407 设备接收:01 03 08 13 88 13 DC FF D7 13 DC 83 33
15:02:29.441 设备发送:01 03 04 8D 00 21 14 C9
15:02:30.952 设备接收:01 03 42 08 F8 1C B0 00 00 00 00 00 00 00 00 00 00 00 00 00 00 00 00 00 00 09 0F 1C BB 00 00 00 00 00 00 00 00 00 00 00 00 00 00 00 00 00 00 09 09 1C C4 00 00 00 00 00 00 00 00 00 00 00 00 00 00 00 00 00 00 DA 86
15:02:30.997 设备发送:01 03 06 84 00 04 04 A8
15:02:32.499 设备接收:01 03 08 00 00 8E 09 00 13 29 CF F9 39
15:02:32.514 设备发送:01 03 04 04 00 01 C4 FB
15:02:34.002 设备接收:01 03 02 00 02 39 85
15:02:34.050 设备发送:01 03 05 84 00 0F 45 2B
15:02:35.539 设备接收:01 03 1E 1F FA 04 24 03 63 20 44 04 08 03 54 20 35 03 E4 03 35 1F E5 03 E4 03 2D 17 71 02 30 01 50 C7 5B
15:02:35.560 设备发送:01 03 05 93 00 0F F5 2F
15:02:37.094 设备接收:01 03 1E 00 00 00 00 00 00 1A 7C 04 92 03 19 1C 80 02 35 01 9C 1C 6F 02 3C 01 A0 00 00 00 04 00 00 54 9B
15:02:37.097 设备发送:01 03 05 A2 00 0F A4 E0
15:02:38.598 设备接收:01 03 1E 00 00 00 00 00 00 00 00 00 00 00 00 00 00 00 00 00 00 00 00 00 00 00 00 00 00 00 00 00 00 D8 BA
15:02:38.629 设备发送:01 03 05 B1 00 03 55 20
15:02:40.124 设备接收:01 03 06 00 00 00 00 00 00 21 75
15:02:40.155 设备发送:01 03 04 2B 00 01 F5 32
15:02:41.700 设备发送:01 03 04 2B 00 01 F5 32
15:02:43.178 设备接收:01 03 02 02 E1 79 6C
15:02:43.193 设备发送:01 03 04 20 00 01 84 F0
15:02:44.711 设备接收:01 03 02 00 37 F9 92
15:02:44.727 设备发送:01 03 04 05 00 01 95 3B
15:02:46.272 设备发送:01 03 04 05 00 01 95 3B
15:02:47.769 设备接收:01 03 02 00 00 B8 44
15:02:47.800 设备发送:02 03 04 84 00 04 05 23
15:02:49.304 设备接收:02 03 08 13 85 13 68 FF D7 13 68 E0 DA
15:02:49.319 设备发送:02 03 04 8D 00 21 14 FA
15:02:50.816 设备接收:02 03 42 08 F7 1B FF 00 00 00 00 00 00 00 00 00 00 00 00 00 00 00 00 00 00 09 0D 1C 1C 00 00 00 00 00 00 00 00 00 00 00 00 00 00 00 00 00 00 09 03 1C 24 00 00 00 00 00 00 00 00 00 00 00 00 00 00 00 00 00 00 1A 6A
15:02:50.879 设备发送:02 03 06 84 00 04 04 9B
15:02:52.375 设备接收:02 03 08 00 00 88 42 00 13 72 46 A8 83
15:02:52.409 设备发送:02 03 04 04 00 01 C4 C8
15:02:53.893 设备接收:02 03 02 00 02 7D 85
15:02:53.909 设备发送:02 03 05 84 00 0F 45 18
15:02:55.441 设备接收:02 03 1E 1F F5 02 04 01 A6 1F E3 02 00 01 A2 1F AE 02 0D 01 AA 20 41 04 06 03 52 20 0A 02 01 01 A5 50 C6
15:02:55.462 设备发送:02 03 05 93 00 0F F5 1C
15:02:56.971 设备接收:02 03 1E 1F F0 02 00 01 A2 20 22 02 11 01 B3 1F B5 04 32 03 67 20 09 02 18 01 B7 1F 76 02 45 01 D4 1C D0
15:02:57.002 设备发送:02 03 05 A2 00 0F A4 D3
15:02:58.485 设备接收:02 03 1E 00 00 00 04 00 00 00 00 00 00 00 00 00 00 00 00 00 00 00 00 00 00 00 00 00 00 00 00 00 00 92 31
15:02:58.500 设备发送:02 03 05 B1 00 03 55 13
15:03:00.030 设备发送:02 03 05 B1 00 03 55 13
15:03:01.510 设备接收:02 03 06 00 00 00 00 00 00 35 85
15:03:01.544 设备发送:02 03 04 2B 00 01 F5 01
15:03:03.073 设备接收:02 03 02 02 E2 7D 6D
15:03:03.090 设备发送:02 03 04 20 00 01 84 C3
15:03:04.592 设备接收:02 03 02 00 42 7C 75
15:03:04.607 设备发送:02 03 04 05 00 01 95 08
15:03:06.124 设备发送:02 03 04 05 00 01 95 08
15:03:07.654 设备接收:02 03 02 00 00 FC 44
15:03:07.670 设备发送:03 03 04 84 00 04 04 F2
15:03:09.169 设备接收:03 03 08 13 85 15 7C 00 23 15 7C A6 0A
15:03:09.185 设备发送:03 03 04 8D 00 21 15 2B
15:03:10.700 设备接收:03 03 42 08 F6 1F 04 00 00 00 00 00 00 00 00 00 00 00 00 00 00 00 00 00 00 09 16 1F 03 00 00 00 00 00 00 00 00 00 00 00 00 00 00 00 00 00 00 09 0C 1F 1C 00 00 00 00 00 00 00 00 00 00 00 00 00 00 00 00 00 00 3F E3
15:03:10.719 设备发送:03 03 06 84 00 04 05 4A
15:03:12.210 设备接收:03 03 08 00 00 93 43 00 13 FB 8E F4 52
15:03:12.259 设备发送:03 03 04 04 00 01 C5 19
15:03:13.777 设备发送:03 03 04 04 00 01 C5 19
15:03:15.290 设备接收:03 03 02 00 02 40 45
15:03:15.309 设备发送:03 03 05 84 00 0F 44 C9
15:03:16.804 设备接收:03 03 1E 1F 4D 04 A0 03 B5 1F 3B 04 A6 03 B7 1F A8 04 73 03 9B 1F 2B 04 82 03 99 17 5A 04 81 02 B1 91 71
15:03:16.819 设备发送:03 03 05 93 00 0F F4 CD
15:03:18.352 设备接收:03 03 1E 05 2F 00 00 00 00 13 80 03 90 01 C7 1B B1 02 58 01 AA 1B D0 02 53 01 A8 05 31 00 00 00 00 0F 01
15:03:18.368 设备发送:03 03 05 A2 00 0F A5 02
15:03:19.867 设备接收:03 03 1E 00 0E 00 00 00 00 00 00 00 00 00 00 00 00 00 00 00 00 00 00 00 00 00 00 00 00 00 00 00 00 81 70
15:03:19.897 设备发送:03 03 05 B1 00 03 54 C2
15:03:21.407 设备接收:03 03 06 00 00 00 00 00 00 38 15
15:03:21.439 设备发送:03 03 04 2B 00 01 F4 D0
15:03:22.907 设备接收:03 03 02 02 E2 40 AD
15:03:22.939 设备发送:03 03 04 20 00 01 85 12
15:03:24.467 设备发送:03 03 04 20 00 01 85 12
15:03:25.999 设备发送:03 03 04 20 00 01 85 12
15:03:27.493 设备接收:03 03 02 00 29 00 5A
15:03:27.509 设备发送:03 03 04 05 00 01 94 D9
15:03:29.025 设备接收:03 03 02 00 00 C1 84
15:03:29.041 设备发送:01 03 04 84 00 04 05 10
15:03:30.571 设备接收:01 03 08 13 87 13 61 FF 8C 13 62 E1 8B
15:03:30.587 设备发送:01 03 04 8D 00 21 14 C9
15:03:32.100 设备接收:01 03 42 08 FA 1B EC 00 00 00 00 00 00 00 00 00 00 00 00 00 00 00 00 00 00 09 10 1B FA 00 00 00 00 00 00 00 00 00 00 00 00 00 00 00 00 00 00 09 0D 1C 03 00 00 00 00 00 00 00 00 00 00 00 00 00 00 00 00 00 00 41 A5
15:03:32.116 设备发送:01 03 06 84 00 04 04 A8
15:03:33.611 设备接收:01 03 08 00 00 8E 5E 00 13 29 D7 8C FF
15:03:33.659 设备发送:01 03 04 04 00 01 C4 FB
15:03:35.159 设备接收:01 03 02 00 02 39 85
15:03:35.175 设备发送:01 03 05 84 00 0F 45 2B
15:03:36.679 设备接收:01 03 1E 20 23 04 04 03 4E 20 1D 03 ED 03 3A 20 0E 03 C9 03 1B 20 0F 03 C1 03 15 17 4A 02 2F 01 4D 2A 2B
15:03:36.695 设备发送:01 03 05 93 00 0F F5 2F
15:03:38.222 设备接收:01 03 1E 00 00 00 00 00 00 1A 50 04 8A 03 0E 1C 7D 02 32 01 9A 1C 6B 02 35 01 9B 00 00 00 05 00 00 4B BE
15:03:38.238 设备发送:01 03 05 A2 00 0F A4 E0
15:03:39.736 设备接收:01 03 1E 00 00 00 00 00 00 00 00 00 00 00 00 00 00 00 00 00 00 00 00 00 00 00 00 00 00 00 00 00 00 D8 BA
15:03:39.751 设备发送:01 03 05 B1 00 03 55 20
15:03:41.275 设备接收:01 03 06 00 00 00 00 00 00 21 75
15:03:41.291 设备发送:01 03 04 2B 00 01 F5 32
15:03:42.789 设备接收:01 03 02 02 E1 79 6C
15:03:42.820 设备发送:01 03 04 20 00 01 84 F0
15:03:44.322 设备发送:01 03 04 20 00 01 84 F0
15:03:45.817 设备接收:01 03 02 00 31 79 90
15:03:45.836 设备发送:01 03 04 05 00 01 95 3B
15:03:47.365 设备接收:01 03 02 00 00 B8 44
15:03:47.382 设备发送:02 03 04 84 00 04 05 23
15:03:48.887 设备接收:02 03 08 13 8B 13 46 FF 8C 13 48 97 17
15:03:48.914 设备发送:02 03 04 8D 00 21 14 FA
15:03:50.393 设备接收:02 03 42 08 FB 1B BE 00 00 00 00 00 00 00 00 00 00 00 00 00 00 00 00 00 00 09 12 1B D6 00 00 00 00 00 00 00 00 00 00 00 00 00 00 00 00 00 00 09 09 1B E3 00 00 00 00 00 00 00 00 00 00 00 00 00 00 00 00 00 00 8A 48
15:03:50.456 设备发送:02 03 06 84 00 04 04 9B
15:03:51.955 设备接收:02 03 08 00 00 88 93 00 13 72 4E 55 57
15:03:51.985 设备发送:02 03 04 04 00 01 C4 C8
15:03:53.501 设备发送:02 03 04 04 00 01 C4 C8
15:03:55.048 设备发送:02 03 04 04 00 01 C4 C8
15:03:56.520 设备接收:02 03 02 00 02 7D 85
15:03:56.568 设备发送:02 03 05 84 00 0F 45 18
15:03:58.097 设备接收:02 03 1E 1F F4 02 00 01 A3 1F E2 01 FD 01 9F 20 25 02 00 01 A5 20 3F 04 00 03 4D 1F E1 02 00 01 A2 11 C8
15:03:58.129 设备发送:02 03 05 93 00 0F F5 1C
15:03:59.625 设备接收:02 03 1E 1F EA 01 FB 01 9E 20 1C 02 0D 01 AF 1F B0 04 2C 03 62 20 03 02 12 01 B2 1F 9B 02 3C 01 CF 43 E6
15:03:59.641 设备发送:02 03 05 A2 00 0F A4 D3
15:04:01.132 设备接收:02 03 1E 00 00 00 05 00 00 00 00 00 00 00 00 00 00 00 00 00 00 00 00 00 00 00 00 00 00 00 00 00 00 6C B3
15:04:01.147 设备发送:02 03 05 B1 00 03 55 13
15:04:02.648 设备接收:02 03 06 00 00 00 00 00 00 35 85
15:04:02.695 设备发送:02 03 04 2B 00 01 F5 01
15:04:04.178 设备接收:02 03 02 02 E2 7D 6D
15:04:04.242 设备发送:02 03 04 20 00 01 84 C3
15:04:05.724 设备接收:02 03 02 00 40 FD B4
15:04:05.739 设备发送:02 03 04 05 00 01 95 08
15:04:07.256 设备接收:02 03 02 00 00 FC 44
15:04:07.272 设备发送:03 03 04 84 00 04 04 F2
15:04:08.759 设备接收:03 03 08 13 8A 15 45 00 23 15 45 05 1D
15:04:08.806 设备发送:03 03 04 8D 00 21 15 2B
15:04:10.325 设备接收:03 03 42 08 F6 1E BA 00 00 00 00 00 00 00 00 00 00 00 00 00 00 00 00 00 00 09 17 1E B6 00 00 00 00 00 00 00 00 00 00 00 00 00 00 00 00 00 00 09 0C 1E C9 00 00 00 00 00 00 00 00 00 00 00 00 00 00 00 00 00 00 03 8A
15:04:10.340 设备发送:03 03 06 84 00 04 05 4A
15:04:11.868 设备接收:03 03 08 00 00 93 9D 00 13 FB 97 9D 8B
15:04:11.895 设备发送:03 03 04 04 00 01 C5 19
15:04:13.393 设备接收:03 03 02 00 02 40 45
15:04:13.415 设备发送:03 03 05 84 00 0F 44 C9
15:04:14.922 设备接收:03 03 1E 1F 9D 04 85 03 A8 1F 3B 04 9B 03 AE 1F A9 04 67 03 91 1F 56 04 72 03 91 17 58 04 74 02 A9 4B 9C
15:04:14.938 设备发送:03 03 05 93 00 0F F4 CD
15:04:16.456 设备接收:03 03 1E 05 2E 00 00 00 00 13 89 03 7C 01 BE 1B DD 02 4E 01 A5 1B AC 02 53 01 A6 05 31 00 00 00 00 CF 83
15:04:16.472 设备发送:03 03 05 A2 00 0F A5 02
15:04:17.971 设备接收:03 03 1E 00 0F 00 00 00 00 00 00 00 00 00 00 00 00 00 00 00 00 00 00 00 00 00 00 00 00 00 00 00 00 41 71
15:04:17.986 设备发送:03 03 05 B1 00 03 54 C2
15:04:19.509 设备接收:03 03 06 00 00 00 00 00 00 38 15
15:04:19.525 设备发送:03 03 04 2B 00 01 F4 D0
15:04:21.029 设备接收:03 03 02 02 E2 40 AD
15:04:21.076 设备发送:03 03 04 20 00 01 85 12
15:04:22.560 设备接收:03 03 02 00 29 00 5A
15:04:22.575 设备发送:03 03 04 05 00 01 94 D9
15:04:24.105 设备接收:03 03 02 00 00 C1 84
15:04:24.121 设备发送:01 03 04 84 00 04 05 10
15:04:25.636 设备接收:01 03 08 13 86 12 ED FF D5 12 ED 71 62
15:04:25.657 设备发送:01 03 04 8D 00 21 14 C9
15:04:27.146 设备接收:01 03 42 08 F8 1B 58 00 00 00 00 00 00 00 00 00 00 00 00 00 00 00 00 00 00 09 0D 1B 66 00 00 00 00 00 00 00 00 00 00 00 00 00 00 00 00 00 00 09 08 1B 74 00 00 00 00 00 00 00 00 00 00 00 00 00 00 00 00 00 00 79 AE
15:04:27.201 设备发送:01 03 06 84 00 04 04 A8
15:04:28.703 设备接收:01 03 08 00 00 8E A8 00 13 29 DF 45 2C
15:04:28.719 设备发送:01 03 04 04 00 01 C4 FB
15:04:30.250 设备发送:01 03 04 04 00 01 C4 FB
15:04:31.747 设备接收:01 03 02 00 02 39 85
15:04:31.763 设备发送:01 03 05 84 00 0F 45 2B
15:04:33.276 设备接收:01 03 1E 1F FA 03 EF 03 38 20 1C 03 CA 03 1D 20 35 03 A4 03 00 20 0D 03 A4 02 FC 17 99 02 21 01 49 14 A1
15:04:33.295 设备发送:01 03 05 93 00 0F F5 2F
15:04:34.790 设备接收:01 03 1E 00 00 00 00 00 00 1A 7A 04 7A 03 08 1C 7E 02 2A 01 94 1C 6D 02 2D 01 95 00 00 00 04 00 00 B7 F3
15:04:34.837 设备发送:01 03 05 A2 00 0F A4 E0
15:04:36.324 设备接收:01 03 1E 00 00 00 00 00 00 00 00 00 00 00 00 00 00 00 00 00 00 00 00 00 00 00 00 00 00 00 00 00 00 D8 BA
15:04:36.356 设备发送:01 03 05 B1 00 03 55 20
15:04:37.851 设备接收:01 03 06 00 00 00 00 00 00 21 75
15:04:37.867 设备发送:01 03 04 2B 00 01 F5 32
15:04:39.376 设备发送:01 03 04 2B 00 01 F5 32
15:04:40.876 设备接收:01 03 02 02 E1 79 6C
15:04:40.932 设备发送:01 03 04 20 00 01 84 F0
15:04:42.442 设备接收:01 03 02 00 2A 39 9B
15:04:42.467 设备发送:01 03 04 05 00 01 95 3B
15:04:43.962 设备接收:01 03 02 00 00 B8 44
15:04:43.978 设备发送:02 03 04 84 00 04 05 23
15:04:45.475 设备接收:02 03 08 13 84 13 0F 00 1C 13 0F C5 D2
15:04:45.492 设备发送:02 03 04 8D 00 21 14 FA
15:04:47.009 设备接收:02 03 42 08 F9 1B 86 00 00 00 00 00 00 00 00 00 00 00 00 00 00 00 00 00 00 09 0F 1B A0 00 00 00 00 00 00 00 00 00 00 00 00 00 00 00 00 00 00 09 06 1B B3 00 00 00 00 00 00 00 00 00 00 00 00 00 00 00 00 00 00 0F BE
15:04:47.079 设备发送:02 03 06 84 00 04 04 9B
15:04:48.590 设备接收:02 03 08 00 00 88 E0 00 13 72 56 50 96
15:04:48.613 设备发送:02 03 04 04 00 01 C4 C8
15:04:50.088 设备接收:02 03 02 00 02 7D 85
15:04:50.103 设备发送:02 03 05 84 00 0F 45 18
15:04:51.611 设备接收:02 03 1E 1F CD 01 FE 01 9F 20 0B 01 F5 01 9B 1F D7 02 02 01 A3 20 41 03 F7 03 46 20 0B 01 F8 01 9D 23 1C
15:04:51.628 设备发送:02 03 05 93 00 0F F5 1C
15:04:53.127 设备接收:02 03 1E 1F EF 01 F6 01 9A 20 4A 02 07 01 AD 1F B5 04 23 03 5C 20 07 02 0E 01 AF 1F 9E 02 39 01 CC 7F E6
15:04:53.175 设备发送:02 03 05 A2 00 0F A4 D3
15:04:54.673 设备接收:02 03 1E 00 00 00 04 00 00 00 00 00 00 00 00 00 00 00 00 00 00 00 00 00 00 00 00 00 00 00 00 00 00 92 31
15:04:54.688 设备发送:02 03 05 B1 00 03 55 13
15:04:56.188 设备接收:02 03 06 00 00 00 00 00 00 35 85
15:04:56.211 设备发送:02 03 04 2B 00 01 F5 01
15:04:57.718 设备接收:02 03 02 02 E2 7D 6D
15:04:57.750 设备发送:02 03 04 20 00 01 84 C3
15:04:59.249 设备接收:02 03 02 00 3F BC 54
15:04:59.265 设备发送:02 03 04 05 00 01 95 08
15:05:00.796 设备发送:02 03 04 05 00 01 95 08
15:05:02.328 设备发送:02 03 04 05 00 01 95 08
15:05:03.858 设备发送:03 03 04 84 00 04 04 F2
15:05:05.369 设备接收:03 03 08 13 86 15 37 FF 82 15 38 50 C1
15:05:05.385 设备发送:03 03 04 8D 00 21 15 2B
15:05:06.897 设备接收:03 03 42 08 F8 1E A4 00 00 00 00 00 00 00 00 00 00 00 00 00 00 00 00 00 00 09 12 1E 96 00 00 00 00 00 00 00 00 00 00 00 00 00 00 00 00 00 00 09 0A 1E A4 00 00 00 00 00 00 00 00 00 00 00 00 00 00 00 00 00 00 73 49
15:05:06.912 设备发送:03 03 06 84 00 04 05 4A
15:05:08.439 设备接收:03 03 08 00 00 93 F3 00 13 FB A0 35 94
15:05:08.455 设备发送:03 03 04 04 00 01 C5 19
15:05:09.986 设备发送:03 03 04 04 00 01 C5 19
15:05:11.501 设备发送:03 03 04 04 00 01 C5 19
15:05:13.008 设备接收:03 03 02 00 02 40 45
15:05:13.021 设备发送:03 03 05 84 00 0F 44 C9
15:05:14.538 设备接收:03 03 1E 1F 4D 04 8C 03 A4 1F 13 04 98 03 A8 1F D1 04 56 03 88 1F 55 04 69 03 89 17 30 04 70 02 A2 CB 80
15:05:14.553 设备发送:03 03 05 93 00 0F F4 CD
15:05:16.091 设备接收:03 03 1E 05 2D 00 00 00 00 13 81 03 78 01 BB 1B DB 02 49 01 A1 1B D2 02 4A 01 A1 05 31 00 00 00 00 84 31
15:05:16.110 设备发送:03 03 05 A2 00 0F A5 02
15:05:17.625 设备接收:03 03 1E 00 0F 00 00 00 00 00 00 00 00 00 00 00 00 00 00 00 00 00 00 00 00 00 00 00 00 00 00 00 00 41 71
15:05:17.641 设备发送:03 03 05 B1 00 03 54 C2
15:05:19.143 设备接收:03 03 06 00 00 00 00 00 00 38 15
15:05:19.174 设备发送:03 03 04 2B 00 01 F4 D0
15:05:20.670 设备接收:03 03 02 02 E2 40 AD
15:05:20.686 设备发送:03 03 04 20 00 01 85 12
15:05:22.172 设备接收:03 03 02 00 2C C0 59
15:05:22.204 设备发送:03 03 04 05 00 01 94 D9
15:05:23.732 设备发送:03 03 04 05 00 01 94 D9
15:05:25.229 设备接收:03 03 02 00 00 C1 84
15:05:25.260 设备发送:01 03 04 84 00 04 05 10
15:05:26.780 设备接收:01 03 08 13 87 12 90 FF D8 12 90 5C 4A
15:05:26.796 设备发送:01 03 04 8D 00 21 14 C9
15:05:28.312 设备接收:01 03 42 08 FC 1A B6 00 00 00 00 00 00 00 00 00 00 00 00 00 00 00 00 00 00 09 10 1A CB 00 00 00 00 00 00 00 00 00 00 00 00 00 00 00 00 00 00 09 0C 1A CD 00 00 00 00 00 00 00 00 00 00 00 00 00 00 00 00 00 00 72 23
15:05:28.331 设备发送:01 03 06 84 00 04 04 A8
15:05:29.829 设备接收:01 03 08 00 00 8E FA 00 13 29 E7 FD 32
15:05:29.876 设备发送:01 03 04 04 00 01 C4 FB
15:05:31.375 设备发送:01 03 04 04 00 01 C4 FB
15:05:32.897 设备接收:01 03 02 00 02 39 85
15:05:32.913 设备发送:01 03 05 84 00 0F 45 2B
15:05:34.403 设备接收:01 03 1E 1F FA 03 D3 03 21 1F CD 03 B4 03 03 1F E4 03 8F 02 E8 1F E6 03 92 02 EB 17 71 02 1E 01 45 A9 A8
15:05:34.451 设备发送:01 03 05 93 00 0F F5 2F
15:05:35.934 设备接收:01 03 1E 00 00 00 00 00 00 1A 52 04 73 03 00 1C 7F 02 25 01 90 1C 45 02 2A 01 91 00 00 00 05 00 00 92 34
15:05:35.965 设备发送:01 03 05 A2 00 0F A4 E0
15:05:37.469 设备接收:01 03 1E 00 00 00 00 00 00 00 00 00 00 00 00 00 00 00 00 00 00 00 00 00 00 00 00 00 00 00 00 00 00 D8 BA
15:05:37.485 设备发送:01 03 05 B1 00 03 55 20
15:05:39.000 设备接收:01 03 06 00 00 00 00 00 00 21 75
15:05:39.032 设备发送:01 03 04 2B 00 01 F5 32
15:05:40.542 设备发送:01 03 04 2B 00 01 F5 32
15:05:42.056 设备接收:01 03 02 02 E1 79 6C
15:05:42.071 设备发送:01 03 04 20 00 01 84 F0
15:05:43.587 设备接收:01 03 02 00 26 39 9E
15:05:43.609 设备发送:01 03 04 05 00 01 95 3B
15:05:45.148 设备发送:01 03 04 05 00 01 95 3B
15:05:46.649 设备接收:01 03 02 00 00 B8 44
15:05:46.665 设备发送:02 03 04 84 00 04 05 23
15:05:48.166 设备接收:02 03 08 13 88 12 DB 00 20 12 DB F9 D2
15:05:48.181 设备发送:02 03 04 8D 00 21 14 FA
15:05:49.673 设备接收:02 03 42 08 FB 1B 36 00 00 00 00 00 00 00 00 00 00 00 00 00 00 00 00 00 00 09 11 1B 54 00 00 00 00 00 00 00 00 00 00 00 00 00 00 00 00 00 00 09 08 1B 64 00 00 00 00 00 00 00 00 00 00 00 00 00 00 00 00 00 00 92 2A
15:05:49.751 设备发送:02 03 06 84 00 04 04 9B
15:05:51.235 设备接收:02 03 08 00 00 89 34 00 13 72 5E 60 93
15:05:51.283 设备发送:02 03 04 04 00 01 C4 C8
15:05:52.784 设备发送:02 03 04 04 00 01 C4 C8
15:05:54.310 设备接收:02 03 02 00 02 7D 85
15:05:54.327 设备发送:02 03 05 84 00 0F 45 18
15:05:55.807 设备接收:02 03 1E 1F F4 01 F6 01 9A 1F 92 01 F6 01 96 1F D5 01 FC 01 9E 20 40 03 EF 03 3F 20 0A 01 F5 01 9B 8D 1A
15:05:55.854 设备发送:02 03 05 93 00 0F F5 1C
15:05:57.345 设备接收:02 03 1E 1F C5 01 F5 01 97 20 21 02 06 01 AA 1F B3 04 19 03 53 20 31 02 09 01 AD 1F 9E 02 37 01 CA 25 4A
15:05:57.391 设备发送:02 03 05 A2 00 0F A4 D3
15:05:58.888 设备接收:02 03 1E 00 00 00 04 00 00 00 00 00 00 00 00 00 00 00 00 00 00 00 00 00 00 00 00 00 00 00 00 00 00 92 31
15:05:58.903 设备发送:02 03 05 B1 00 03 55 13
15:06:00.404 设备接收:02 03 06 00 00 00 00 00 00 35 85
15:06:00.436 设备发送:02 03 04 2B 00 01 F5 01
15:06:01.977 设备发送:02 03 04 2B 00 01 F5 01
15:06:03.468 设备接收:02 03 02 02 E2 7D 6D
15:06:03.484 设备发送:02 03 04 20 00 01 84 C3
15:06:05.002 设备接收:02 03 02 00 3D 3D 95
15:06:05.033 设备发送:02 03 04 05 00 01 95 08
15:06:06.553 设备发送:02 03 04 05 00 01 95 08
15:06:08.066 设备发送:02 03 04 05 00 01 95 08
15:06:09.566 设备接收:02 03 02 00 00 FC 44
15:06:09.582 设备发送:03 03 04 84 00 04 04 F2
15:06:11.111 设备接收:03 03 08 13 86 15 1A FF 84 15 1B 5D 1F
15:06:11.126 设备发送:03 03 04 8D 00 21 15 2B
15:06:12.640 设备接收:03 03 42 08 F5 1E 7C 00 00 00 00 00 00 00 00 00 00 00 00 00 00 00 00 00 00 09 14 1E 6C 00 00 00 00 00 00 00 00 00 00 00 00 00 00 00 00 00 00 09 0A 1E 81 00 00 00 00 00 00 00 00 00 00 00 00 00 00 00 00 00 00 6D 01
15:06:12.656 设备发送:03 03 06 84 00 04 05 4A
15:06:14.183 设备接收:03 03 08 00 00 94 55 00 13 FB AA BC 3D
15:06:14.199 设备发送:03 03 04 04 00 01 C5 19
15:06:15.680 设备接收:03 03 02 00 02 40 45
15:06:15.696 设备发送:03 03 05 84 00 0F 44 C9
15:06:17.216 设备接收:03 03 1E 1F 4F 04 8A 03 A3 1F 38 04 8F 03 A4 1F AB 04 5A 03 87 1F 7F 04 61 03 87 17 58 04 69 02 A3 56 AB
15:06:17.231 设备发送:03 03 05 93 00 0F F4 CD
15:06:18.765 设备接收:03 03 1E 05 2F 00 00 00 00 13 78 03 83 01 C0 1B DD 02 48 01 A1 1B FD 02 46 01 A1 05 33 00 00 00 00 92 97
15:06:18.780 设备发送:03 03 05 A2 00 0F A5 02
15:06:20.263 设备接收:03 03 1E 00 0E 00 00 00 00 00 00 00 00 00 00 00 00 00 00 00 00 00 00 00 00 00 00 00 00 00 00 00 00 81 70
15:06:20.278 设备发送:03 03 05 B1 00 03 54 C2
15:06:21.808 设备接收:03 03 06 00 00 00 00 00 00 38 15
15:06:21.823 设备发送:03 03 04 2B 00 01 F4 D0
15:06:23.341 设备接收:03 03 02 02 E2 40 AD
15:06:23.373 设备发送:03 03 04 20 00 01 85 12
15:06:24.858 设备发送:03 03 04 20 00 01 85 12
15:06:26.403 设备发送:03 03 04 20 00 01 85 12
15:06:27.905 设备接收:03 03 02 00 31 00 50
15:06:27.937 设备发送:03 03 04 05 00 01 94 D9
15:06:29.435 设备接收:03 03 02 00 00 C1 84
15:06:29.450 设备发送:01 03 04 84 00 04 05 10
15:06:30.951 设备接收:01 03 08 13 88 12 45 FF 94 12 46 EE D1
15:06:30.998 设备发送:01 03 04 8D 00 21 14 C9
15:06:32.497 设备接收:01 03 42 08 F7 1A 66 00 00 00 00 00 00 00 00 00 00 00 00 00 00 00 00 00 00 09 0A 1A 70 00 00 00 00 00 00 00 00 00 00 00 00 00 00 00 00 00 00 09 08 1A 82 00 00 00 00 00 00 00 00 00 00 00 00 00 00 00 00 00 00 19 B5
15:06:32.513 设备发送:01 03 06 84 00 04 04 A8
15:06:34.008 设备接收:01 03 08 00 00 8F 4F 00 13 29 EF 70 FF
15:06:34.056 设备发送:01 03 04 04 00 01 C4 FB
15:06:35.545 设备接收:01 03 02 00 02 39 85
15:06:35.577 设备发送:01 03 05 84 00 0F 45 2B
15:06:37.062 设备接收:01 03 1E 1F FB 03 BA 03 0D 1F CD 03 9D 02 F1 1F BE 03 7E 02 D7 1F E6 03 82 02 DE 17 4A 02 23 01 46 56 1D
15:06:37.094 设备发送:01 03 05 93 00 0F F5 2F
15:06:38.594 设备接收:01 03 1E 00 00 00 00 00 00 1A 7A 04 6E 03 00 1C 7F 02 26 01 91 1C 44 02 29 01 90 00 00 00 04 00 00 B1 8B
15:06:38.610 设备发送:01 03 05 A2 00 0F A4 E0
15:06:40.136 设备接收:01 03 1E 00 00 00 00 00 00 00 00 00 00 00 00 00 00 00 00 00 00 00 00 00 00 00 00 00 00 00 00 00 00 D8 BA
15:06:40.153 设备发送:01 03 05 B1 00 03 55 20
15:06:41.651 设备接收:01 03 06 00 00 00 00 00 00 21 75
15:06:41.668 设备发送:01 03 04 2B 00 01 F5 32
15:06:43.194 设备发送:01 03 04 2B 00 01 F5 32
15:06:44.677 设备接收:01 03 02 02 E1 79 6C
15:06:44.693 设备发送:01 03 04 20 00 01 84 F0
15:06:46.210 设备接收:01 03 02 00 29 79 9A
15:06:46.241 设备发送:01 03 04 05 00 01 95 3B
15:06:47.751 设备接收:01 03 02 00 00 B8 44
15:06:47.768 设备发送:02 03 04 84 00 04 05 23
15:06:49.297 设备接收:02 03 08 13 8B 12 CA FF D7 12 CA 77 3B
15:06:49.313 设备发送:02 03 04 8D 00 21 14 FA
15:06:50.799 设备接收:02 03 42 08 F4 1B 22 00 00 00 00 00 00 00 00 00 00 00 00 00 00 00 00 00 00 09 0B 1B 3C 00 00 00 00 00 00 00 00 00 00 00 00 00 00 00 00 00 00 09 03 1B 4C 00 00 00 00 00 00 00 00 00 00 00 00 00 00 00 00 00 00 B6 1B
15:06:50.846 设备发送:02 03 06 84 00 04 04 9B
15:06:52.372 设备接收:02 03 08 00 00 89 87 00 13 72 66 64 9B
15:06:52.393 设备发送:02 03 04 04 00 01 C4 C8
15:06:53.874 设备接收:02 03 02 00 02 7D 85
15:06:53.936 设备发送:02 03 05 84 00 0F 45 18
15:06:55.420 设备接收:02 03 1E 1F F4 01 F4 01 99 1F BC 01 F3 01 95 1F D7 01 FB 01 9D 20 40 03 E6 03 38 1F BA 01 F5 01 97 71 D1
15:06:55.435 设备发送:02 03 05 93 00 0F F5 1C
15:06:56.968 设备接收:02 03 1E 1F 9E 01 F4 01 94 20 49 01 FE 01 A5 1F DD 04 0E 03 4E 20 09 02 07 01 AA 1F 9E 02 31 01 C6 DD B2
15:06:56.984 设备发送:02 03 05 A2 00 0F A4 D3
15:06:58.468 设备接收:02 03 1E 00 00 00 04 00 00 00 00 00 00 00 00 00 00 00 00 00 00 00 00 00 00 00 00 00 00 00 00 00 00 92 31
15:06:58.500 设备发送:02 03 05 B1 00 03 55 13
15:06:59.992 设备接收:02 03 06 00 00 00 00 00 00 35 85
15:07:00.024 设备发送:02 03 04 2B 00 01 F5 01
15:07:01.519 设备接收:02 03 02 02 E2 7D 6D
15:07:01.535 设备发送:02 03 04 20 00 01 84 C3
15:07:03.063 设备发送:02 03 04 20 00 01 84 C3
15:07:04.593 设备接收:02 03 02 00 3B BD 97
15:07:04.610 设备发送:02 03 04 05 00 01 95 08
15:07:06.093 设备接收:02 03 02 00 00 FC 44
15:07:06.141 设备发送:03 03 04 84 00 04 04 F2
15:07:07.640 设备接收:03 03 08 13 8A 14 D4 FF 83 14 D5 C8 DB
15:07:07.655 设备发送:03 03 04 8D 00 21 15 2B
15:07:09.160 设备接收:03 03 42 08 F6 1E 10 00 00 00 00 00 00 00 00 00 00 00 00 00 00 00 00 00 00 09 13 1E 07 00 00 00 00 00 00 00 00 00 00 00 00 00 00 00 00 00 00 09 0B 1E 1F 00 00 00 00 00 00 00 00 00 00 00 00 00 00 00 00 00 00 CA 84
15:07:09.207 设备发送:03 03 06 84 00 04 05 4A
15:07:10.703 设备接收:03 03 08 00 00 94 AA 00 13 FB B2 A8 23
15:07:10.719 设备发送:03 03 04 04 00 01 C5 19
15:07:12.232 设备接收:03 03 02 00 02 40 45
15:07:12.263 设备发送:03 03 05 84 00 0F 44 C9
15:07:13.758 设备接收:03 03 1E 1F 77 04 72 03 94 1F 3C 04 7F 03 98 1F 83 04 53 03 7D 1F 2F 04 5C 03 7B 17 5B 04 5B 02 9A 6E 59
15:07:13.795 设备发送:03 03 05 93 00 0F F4 CD
15:07:15.318 设备接收:03 03 1E 05 2D 00 00 00 00 13 6D 03 85 01 C0 1B DC 02 41 01 9B 1B D3 02 42 01 9C 05 32 00 00 00 00 FB 16
15:07:15.333 设备发送:03 03 05 A2 00 0F A5 02
15:07:16.835 设备接收:03 03 1E 00 0E 00 00 00 00 00 00 00 00 00 00 00 00 00 00 00 00 00 00 00 00 00 00 00 00 00 00 00 00 81 70
15:07:16.851 设备发送:03 03 05 B1 00 03 54 C2
15:07:18.367 设备接收:03 03 06 00 00 00 00 00 00 38 15
15:07:18.383 设备发送:03 03 04 2B 00 01 F4 D0
15:07:19.857 设备接收:03 03 02 02 E2 40 AD
15:07:19.905 设备发送:03 03 04 20 00 01 85 12
15:07:21.410 设备接收:03 03 02 00 35 01 93
15:07:21.426 设备发送:03 03 04 05 00 01 94 D9
15:07:22.910 设备接收:03 03 02 00 00 C1 84
15:07:22.973 设备发送:01 03 04 84 00 04 05 10
15:07:24.468 设备接收:01 03 08 13 87 11 E2 FF D8 11 E2 E4 A7
15:07:24.500 设备发送:01 03 04 8D 00 21 14 C9
15:07:26.000 设备接收:01 03 42 08 F6 19 CF 00 00 00 00 00 00 00 00 00 00 00 00 00 00 00 00 00 00 09 0A 19 E0 00 00 00 00 00 00 00 00 00 00 00 00 00 00 00 00 00 00 09 07 19 EE 00 00 00 00 00 00 00 00 00 00 00 00 00 00 00 00 00 00 8C 9F
15:07:26.046 设备发送:01 03 06 84 00 04 04 A8
15:07:27.529 设备接收:01 03 08 00 00 8F 92 00 13 29 F6 5D 26
15:07:27.575 设备发送:01 03 04 04 00 01 C4 FB
15:07:29.074 设备发送:01 03 04 04 00 01 C4 FB
15:07:30.607 设备接收:01 03 02 00 02 39 85
15:07:30.639 设备发送:01 03 05 84 00 0F 45 2B
15:07:32.122 设备接收:01 03 1E 20 49 03 91 02 F2 1F F6 03 81 02 DE 20 0F 03 61 02 C6 20 0F 03 70 02 D2 17 71 02 18 01 42 73 B5
15:07:32.138 设备发送:01 03 05 93 00 0F F5 2F
15:07:33.664 设备接收:01 03 1E 00 00 00 00 00 00 1A CB 04 53 02 F7 1C 57 02 20 01 8B 1C 6D 02 1F 01 8B 00 00 00 04 00 00 3E 56
15:07:33.695 设备发送:01 03 05 A2 00 0F A4 E0
15:07:35.180 设备接收:01 03 1E 00 00 00 00 00 00 00 00 00 00 00 00 00 00 00 00 00 00 00 00 00 00 00 00 00 00 00 00 00 00 D8 BA
15:07:35.211 设备发送:01 03 05 B1 00 03 55 20
15:07:36.702 设备接收:01 03 06 00 00 00 00 00 00 21 75
15:07:36.749 设备发送:01 03 04 2B 00 01 F5 32
15:07:38.269 设备发送:01 03 04 2B 00 01 F5 32
15:07:39.751 设备接收:01 03 02 02 E1 79 6C
15:07:39.812 设备发送:01 03 04 20 00 01 84 F0
15:07:41.329 设备发送:01 03 04 20 00 01 84 F0
15:07:42.872 设备发送:01 03 04 20 00 01 84 F0
15:07:44.367 设备发送:01 03 04 05 00 01 95 3B
15:07:45.870 设备接收:01 03 02 00 00 B8 44
15:07:45.901 设备发送:02 03 04 84 00 04 05 23
15:07:47.403 设备接收:02 03 08 13 88 12 9F 00 1F 12 9F 39 E2
15:07:47.435 设备发送:02 03 04 8D 00 21 14 FA
15:07:48.951 设备接收:02 03 42 08 F8 1A EB 00 00 00 00 00 00 00 00 00 00 00 00 00 00 00 00 00 00 09 0E 1A F9 00 00 00 00 00 00 00 00 00 00 00 00 00 00 00 00 00 00 09 05 1B 05 00 00 00 00 00 00 00 00 00 00 00 00 00 00 00 00 00 00 C2 E3
15:07:48.982 设备发送:02 03 06 84 00 04 04 9B
15:07:50.488 设备接收:02 03 08 00 00 89 D4 00 13 72 6E E1 51
15:07:50.503 设备发送:02 03 04 04 00 01 C4 C8
15:07:52.018 设备接收:02 03 02 00 02 7D 85
15:07:52.033 设备发送:02 03 05 84 00 0F 45 18
15:07:53.533 设备接收:02 03 1E 1F F4 01 F0 01 96 1F E2 01 EE 01 93 1F FC 01 F3 01 98 20 3F 03 E0 03 33 20 32 01 E9 01 93 B8 32
15:07:53.565 设备发送:02 03 05 93 00 0F F5 1C
15:07:55.062 设备接收:02 03 1E 1F C5 01 EE 01 92 20 71 01 F7 01 A2 1F DB 04 06 03 48 20 57 01 FD 01 A5 1F 9D 02 2F 01 C4 86 42
15:07:55.110 设备发送:02 03 05 A2 00 0F A4 D3
15:07:56.620 设备接收:02 03 1E 00 00 00 04 00 00 00 00 00 00 00 00 00 00 00 00 00 00 00 00 00 00 00 00 00 00 00 00 00 00 92 31
15:07:56.638 设备发送:02 03 05 B1 00 03 55 13
15:07:58.120 设备接收:02 03 06 00 00 00 00 00 00 35 85
15:07:58.167 设备发送:02 03 04 2B 00 01 F5 01
15:07:59.666 设备接收:02 03 02 02 E2 7D 6D
15:07:59.682 设备发送:02 03 04 20 00 01 84 C3
15:08:01.197 设备接收:02 03 02 00 3A 7C 57
15:08:01.229 设备发送:02 03 04 05 00 01 95 08
15:08:02.728 设备发送:02 03 04 05 00 01 95 08
15:08:04.225 设备接收:02 03 02 00 00 FC 44
15:08:04.273 设备发送:03 03 04 84 00 04 04 F2
15:08:05.787 设备接收:03 03 08 13 89 14 9C 00 22 14 9C BB D5
15:08:05.803 设备发送:03 03 04 8D 00 21 15 2B
15:08:07.291 设备接收:03 03 42 08 F1 1D CB 00 00 00 00 00 00 00 00 00 00 00 00 00 00 00 00 00 00 09 0F 1D C2 00 00 00 00 00 00 00 00 00 00 00 00 00 00 00 00 00 00 09 05 1D D9 00 00 00 00 00 00 00 00 00 00 00 00 00 00 00 00 00 00 C9 0E
15:08:07.338 设备发送:03 03 06 84 00 04 05 4A
15:08:08.849 设备接收:03 03 08 00 00 95 01 00 13 FB BB 4C 2C
15:08:08.867 设备发送:03 03 04 04 00 01 C5 19
15:08:10.363 设备接收:03 03 02 00 02 40 45
15:08:10.378 设备发送:03 03 05 84 00 0F 44 C9
15:08:11.891 设备接收:03 03 1E 1F 26 04 76 03 8F 1F 61 04 72 03 92 1F A9 04 45 03 76 1F 55 04 4E 03 74 17 58 04 50 02 93 91 89
15:08:11.922 设备发送:03 03 05 93 00 0F F4 CD
15:08:13.434 设备接收:03 03 1E 05 30 00 00 00 00 13 7F 03 6B 01 B5 1B DD 02 3A 01 97 1B FC 02 3B 01 99 05 36 00 00 00 00 AB C9
15:08:13.450 设备发送:03 03 05 A2 00 0F A5 02
15:08:14.951 设备接收:03 03 1E 00 0E 00 00 00 00 00 00 00 00 00 00 00 00 00 00 00 00 00 00 00 00 00 00 00 00 00 00 00 00 81 70
15:08:14.998 设备发送:03 03 05 B1 00 03 54 C2
15:08:16.486 设备接收:03 03 06 00 00 00 00 00 00 38 15
15:08:16.501 设备发送:03 03 04 2B 00 01 F4 D0
15:08:17.984 设备接收:03 03 02 02 E2 40 AD
15:08:18.031 设备发送:03 03 04 20 00 01 85 12
15:08:19.505 设备接收:03 03 02 00 38 C0 56
15:08:19.570 设备发送:03 03 04 05 00 01 94 D9
15:08:21.046 设备接收:03 03 02 00 00 C1 84
15:08:21.093 设备发送:01 03 04 84 00 04 05 10
15:08:22.579 设备接收:01 03 08 13 8A 11 99 FF 98 11 9A DD 9B
15:08:22.597 设备发送:01 03 04 8D 00 21 14 C9
15:08:24.105 设备接收:01 03 42 08 F3 19 61 00 00 00 00 00 00 00 00 00 00 00 00 00 00 00 00 00 00 09 09 19 74 00 00 00 00 00 00 00 00 00 00 00 00 00 00 00 00 00 00 09 05 19 80 00 00 00 00 00 00 00 00 00 00 00 00 00 00 00 00 00 00 E7 C2
15:08:24.152 设备发送:01 03 06 84 00 04 04 A8
15:08:25.648 设备接收:01 03 08 00 00 8F DE 00 13 29 FE 4D 2E
15:08:25.680 设备发送:01 03 04 04 00 01 C4 FB
15:08:27.176 设备接收:01 03 02 00 02 39 85
15:08:27.191 设备发送:01 03 05 84 00 0F 45 2B
15:08:28.708 设备接收:01 03 1E 1F FB 03 86 02 E2 1F F6 03 6F 02 CF 20 35 03 4C 02 B8 20 0E 03 61 02 C5 17 71 02 13 01 3F 0C CB
15:08:28.723 设备发送:01 03 05 93 00 0F F5 2F
15:08:30.235 设备接收:01 03 1E 00 00 00 00 00 00 1A 7A 04 57 02 F1 1C 7F 02 1B 01 89 1C 94 02 17 01 87 00 00 00 04 00 00 65 B3
15:08:30.251 设备发送:01 03 05 A2 00 0F A4 E0
15:08:31.750 设备接收:01 03 1E 00 00 00 00 00 00 00 00 00 00 00 00 00 00 00 00 00 00 00 00 00 00 00 00 00 00 00 00 00 00 D8 BA
15:08:31.798 设备发送:01 03 05 B1 00 03 55 20
15:08:33.297 设备接收:01 03 06 00 00 00 00 00 00 21 75
15:08:33.313 设备发送:01 03 04 2B 00 01 F5 32
15:08:34.838 设备发送:01 03 04 2B 00 01 F5 32
15:08:36.356 设备接收:01 03 02 02 E1 79 6C
15:08:36.372 设备发送:01 03 04 20 00 01 84 F0
15:08:37.877 设备接收:01 03 02 00 2F F9 98
15:08:37.893 设备发送:01 03 04 05 00 01 95 3B
15:08:39.427 设备接收:01 03 02 00 00 B8 44
15:08:39.443 设备发送:02 03 04 84 00 04 05 23
15:08:40.920 设备接收:02 03 08 13 8A 12 5D 00 1F 12 5D E2 62
15:08:40.981 设备发送:02 03 04 8D 00 21 14 FA
15:08:42.466 设备接收:02 03 42 08 F3 1A AA 00 00 00 00 00 00 00 00 00 00 00 00 00 00 00 00 00 00 09 0A 1A AA 00 00 00 00 00 00 00 00 00 00 00 00 00 00 00 00 00 00 09 00 1A BC 00 00 00 00 00 00 00 00 00 00 00 00 00 00 00 00 00 00 05 90
15:08:42.512 设备发送:02 03 06 84 00 04 04 9B
15:08:44.015 设备接收:02 03 08 00 00 8A 1B 00 13 72 75 F5 79
15:08:44.031 设备发送:02 03 04 04 00 01 C4 C8
15:08:45.534 设备接收:02 03 02 00 02 7D 85
15:08:45.550 设备发送:02 03 05 84 00 0F 45 18
15:08:47.077 设备接收:02 03 1E 20 1C 01 E7 01 91 1F E3 01 E9 01 8F 1F FD 01 F0 01 96 20 8D 03 C9 03 27 1F E0 01 EB 01 90 F3 79
15:08:47.095 设备发送:02 03 05 93 00 0F F5 1C
15:08:48.582 设备接收:02 03 1E 1F C9 01 E9 01 8E 20 4C 01 F9 01 A1 1F B8 04 00 03 40 20 33 01 FD 01 A3 1F A2 02 2B 01 C1 EF 19
15:08:48.614 设备发送:02 03 05 A2 00 0F A4 D3
15:08:50.132 设备接收:02 03 1E 00 00 00 04 00 00 00 00 00 00 00 00 00 00 00 00 00 00 00 00 00 00 00 00 00 00 00 00 00 00 92 31
15:08:50.148 设备发送:02 03 05 B1 00 03 55 13
15:08:51.661 设备接收:02 03 06 00 00 00 00 00 00 35 85
15:08:51.677 设备发送:02 03 04 2B 00 01 F5 01
15:08:53.209 设备发送:02 03 04 2B 00 01 F5 01
15:08:54.714 设备接收:02 03 02 02 E2 7D 6D
15:08:54.747 设备发送:02 03 04 20 00 01 84 C3
15:08:56.252 设备发送:02 03 04 20 00 01 84 C3
15:08:57.801 设备发送:02 03 04 20 00 01 84 C3
15:08:59.336 设备发送:02 03 04 05 00 01 95 08
15:09:00.837 设备接收:02 03 02 00 00 FC 44
15:09:00.853 设备发送:03 03 04 84 00 04 04 F2
15:09:02.349 设备接收:03 03 08 13 85 14 85 00 24 14 85 4B DC
15:09:02.395 设备发送:03 03 04 8D 00 21 15 2B
15:09:03.894 设备接收:03 03 42 08 F4 1D B9 00 00 00 00 00 00 00 00 00 00 00 00 00 00 00 00 00 00 09 11 1D A9 00 00 00 00 00 00 00 00 00 00 00 00 00 00 00 00 00 00 09 08 1D C4 00 00 00 00 00 00 00 00 00 00 00 00 00 00 00 00 00 00 09 E9
15:09:03.910 设备发送:03 03 06 84 00 04 05 4A
15:09:05.401 设备接收:03 03 08 00 00 95 51 00 13 FB C3 8C 02
15:09:05.448 设备发送:03 03 04 04 00 01 C5 19
15:09:06.984 设备发送:03 03 04 04 00 01 C5 19
15:09:08.485 设备发送:03 03 04 04 00 01 C5 19
15:09:09.983 设备接收:03 03 02 00 02 40 45
15:09:10.031 设备发送:03 03 05 84 00 0F 44 C9
15:09:11.512 设备接收:03 03 1E 1F 76 04 66 03 8B 1F 3A 04 72 03 8E 1F 82 04 44 03 71 1F 56 04 47 03 6E 17 59 04 49 02 90 F1 ED
15:09:11.543 设备发送:03 03 05 93 00 0F F4 CD
15:09:13.063 设备接收:03 03 1E 05 2E 00 00 00 00 13 64 03 86 01 C0 1C 04 02 35 01 95 1B D4 02 3B 01 97 05 30 00 00 00 00 FD 1C
15:09:13.078 设备发送:03 03 05 A2 00 0F A5 02
15:09:14.562 设备接收:03 03 1E 00 0F 00 00 00 00 00 00 00 00 00 00 00 00 00 00 00 00 00 00 00 00 00 00 00 00 00 00 00 00 41 71
15:09:14.594 设备发送:03 03 05 B1 00 03 54 C2
15:09:16.106 设备接收:03 03 06 00 00 00 00 00 00 38 15
15:09:16.154 设备发送:03 03 04 2B 00 01 F4 D0
15:09:17.671 设备发送:03 03 04 2B 00 01 F4 D0
15:09:19.172 设备接收:03 03 02 02 E2 40 AD
15:09:19.188 设备发送:03 03 04 20 00 01 85 12
15:09:20.710 设备发送:03 03 04 20 00 01 85 12
15:09:22.209 设备接收:03 03 02 00 32 40 51
15:09:22.241 设备发送:03 03 04 05 00 01 94 D9
15:09:23.731 设备接收:03 03 02 00 00 C1 84
15:09:23.779 设备发送:01 03 04 84 00 04 05 10
15:09:25.262 设备接收:01 03 08 13 85 11 4F FF 99 11 50 BA DE
15:09:25.335 设备发送:01 03 04 8D 00 21 14 C9
15:09:26.815 设备接收:01 03 42 08 F1 19 0F 00 00 00 00 00 00 00 00 00 00 00 00 00 00 00 00 00 00 09 08 19 23 00 00 00 00 00 00 00 00 00 00 00 00 00 00 00 00 00 00 09 07 19 34 00 00 00 00 00 00 00 00 00 00 00 00 00 00 00 00 00 00 CE 92
15:09:26.860 设备发送:01 03 06 84 00 04 04 A8
15:09:28.345 设备接收:01 03 08 00 00 90 2A 00 13 2A 05 BF E7
15:09:28.392 设备发送:01 03 04 04 00 01 C4 FB
15:09:29.894 设备接收:01 03 02 00 02 39 85
15:09:29.909 设备发送:01 03 05 84 00 0F 45 2B
15:09:31.431 设备接收:01 03 1E 20 21 03 67 02 CC 1F F6 03 5C 02 C0 20 0E 03 3F 02 AA 1F E5 03 57 02 BA 17 72 02 0D 01 3B 94 DF
15:09:31.453 设备发送:01 03 05 93 00 0F F5 2F
15:09:32.960 设备接收:01 03 1E 00 00 00 00 00 00 1A 7A 04 47 02 E6 1C 55 02 16 01 83 1C 94 02 13 01 84 00 00 00 06 00 00 4C F2
15:09:32.976 设备发送:01 03 05 A2 00 0F A4 E0
15:09:34.472 设备接收:01 03 1E 00 00 00 00 00 00 00 00 00 00 00 00 00 00 00 00 00 00 00 00 00 00 00 00 00 00 00 00 00 00 D8 BA
15:09:34.488 设备发送:01 03 05 B1 00 03 55 20
15:09:35.993 设备接收:01 03 06 00 00 00 00 00 00 21 75
15:09:36.056 设备发送:01 03 04 2B 00 01 F5 32
15:09:37.515 设备接收:01 03 02 02 E1 79 6C
15:09:37.562 设备发送:01 03 04 20 00 01 84 F0
15:09:39.060 设备接收:01 03 02 00 32 39 91
15:09:39.078 设备发送:01 03 04 05 00 01 95 3B
15:09:40.595 设备发送:01 03 04 05 00 01 95 3B
15:09:42.115 设备接收:01 03 02 00 00 B8 44
15:09:42.130 设备发送:02 03 04 84 00 04 05 23
15:09:43.626 设备接收:02 03 08 13 85 12 1D FF DA 12 1D 3D 74
15:09:43.642 设备发送:02 03 04 8D 00 21 14 FA
15:09:45.156 设备接收:02 03 42 08 F4 1A 22 00 00 00 00 00 00 00 00 00 00 00 00 00 00 00 00 00 00 09 09 1A 2F 00 00 00 00 00 00 00 00 00 00 00 00 00 00 00 00 00 00 09 03 1A 4A 00 00 00 00 00 00 00 00 00 00 00 00 00 00 00 00 00 00 DB E4
15:09:45.177 设备发送:02 03 06 84 00 04 04 9B
15:09:46.687 设备接收:02 03 08 00 00 8A 6C 00 13 72 7D 00 B4
15:09:46.733 设备发送:02 03 04 04 00 01 C4 C8
15:09:48.209 设备接收:02 03 02 00 02 7D 85
15:09:48.260 设备发送:02 03 05 84 00 0F 45 18
15:09:49.759 设备接收:02 03 1E 1F F4 01 DD 01 86 1F E3 01 DF 01 87 1F D4 01 EC 01 91 20 16 03 C9 03 1C 1F E0 01 E2 01 89 08 79
15:09:49.793 设备发送:02 03 05 93 00 0F F5 1C
15:09:51.317 设备接收:02 03 1E 1F 9E 01 E6 01 89 20 4B 01 F0 01 9A 20 05 03 E4 03 31 20 32 01 F6 01 9D 1F 77 02 24 01 BA 00 F2
15:09:51.333 设备发送:02 03 05 A2 00 0F A4 D3
15:09:52.832 设备接收:02 03 1E 00 00 00 04 00 00 00 00 00 00 00 00 00 00 00 00 00 00 00 00 00 00 00 00 00 00 00 00 00 00 92 31
15:09:52.847 设备发送:02 03 05 B1 00 03 55 13
15:09:54.359 设备接收:02 03 06 00 00 00 00 00 00 35 85
15:09:54.392 设备发送:02 03 04 2B 00 01 F5 01
15:09:55.892 设备接收:02 03 02 02 E2 7D 6D
15:09:55.908 设备发送:02 03 04 20 00 01 84 C3
15:09:57.426 设备发送:02 03 04 20 00 01 84 C3
15:09:58.942 设备接收:02 03 02 00 3C FC 55
15:09:58.958 设备发送:02 03 04 05 00 01 95 08
15:10:00.446 设备接收:02 03 02 00 00 FC 44
15:10:00.461 设备发送:03 03 04 84 00 04 04 F2
15:10:01.956 设备接收:03 03 08 13 86 14 54 FF D3 14 54 C5 74
15:10:02.018 设备发送:03 03 04 8D 00 21 15 2B
15:10:03.536 设备接收:03 03 42 08 F3 1D 73 00 00 00 00 00 00 00 00 00 00 00 00 00 00 00 00 00 00 09 0D 1D 68 00 00 00 00 00 00 00 00 00 00 00 00 00 00 00 00 00 00 09 07 1D 80 00 00 00 00 00 00 00 00 00 00 00 00 00 00 00 00 00 00 02 C1
15:10:03.552 设备发送:03 03 06 84 00 04 05 4A
15:10:05.055 设备接收:03 03 08 00 00 95 A9 00 13 FB CC 6D D2
15:10:05.086 设备发送:03 03 04 04 00 01 C5 19
15:10:06.565 设备接收:03 03 02 00 02 40 45
15:10:06.627 设备发送:03 03 05 84 00 0F 44 C9
15:10:08.118 设备接收:03 03 1E 1F 50 04 66 03 86 1F 14 04 6D 03 86 1F AC 04 32 03 67 1F 58 04 3F 03 68 17 81 04 39 02 8A CF 4D
15:10:08.149 设备发送:03 03 05 93 00 0F F4 CD
15:10:09.653 设备接收:03 03 1E 05 30 00 00 00 00 13 7A 03 63 01 B0 1B B2 02 39 01 93 1B D1 02 35 01 92 05 32 00 00 00 00 D6 46
15:10:09.684 设备发送:03 03 05 A2 00 0F A5 02
15:10:11.200 设备接收:03 03 1E 00 0E 00 00 00 00 00 00 00 00 00 00 00 00 00 00 00 00 00 00 00 00 00 00 00 00 00 00 00 00 81 70
15:10:11.216 设备发送:03 03 05 B1 00 03 54 C2
15:10:12.703 设备接收:03 03 06 00 00 00 00 00 00 38 15
15:10:12.750 设备发送:03 03 04 2B 00 01 F4 D0
15:10:14.265 设备发送:03 03 04 2B 00 01 F4 D0
15:10:15.765 设备发送:03 03 04 2B 00 01 F4 D0
15:10:17.296 设备发送:03 03 04 20 00 01 85 12
15:10:17.311 设备接收:03 03 02 02 E2 40 AD
15:10:18.824 设备发送:03 03 04 20 00 01 85 12
15:10:20.357 设备发送:03 03 04 20 00 01 85 12
15:10:21.875 设备接收:03 03 02 00 2B 81 9B
15:10:21.891 设备发送:03 03 04 05 00 01 94 D9
15:10:23.393 设备接收:03 03 02 00 00 C1 84
15:10:23.425 设备发送:01 03 04 84 00 04 05 10
15:10:24.941 设备接收:01 03 08 13 86 11 12 FF 99 11 13 25 E2
15:10:24.957 设备发送:01 03 04 8D 00 21 14 C9
15:10:26.455 设备接收:01 03 42 08 F3 18 C6 00 00 00 00 00 00 00 00 00 00 00 00 00 00 00 00 00 00 09 01 18 D0 00 00 00 00 00 00 00 00 00 00 00 00 00 00 00 00 00 00 09 02 18 E0 00 00 00 00 00 00 00 00 00 00 00 00 00 00 00 00 00 00 E7 2E
15:10:26.518 设备发送:01 03 06 84 00 04 04 A8
15:10:28.022 设备接收:01 03 08 00 00 90 72 00 13 2A 0C 5E 2C
15:10:28.038 设备发送:01 03 04 04 00 01 C4 FB
15:10:29.550 设备接收:01 03 02 00 02 39 85
15:10:29.567 设备发送:01 03 05 84 00 0F 45 2B
15:10:31.079 设备接收:01 03 1E 20 48 03 53 02 BF 20 1C 03 4F 02 B8 20 0A 03 38 02 A4 20 0B 03 4D 02 B5 17 99 02 06 01 39 C5 21
15:10:31.095 设备发送:01 03 05 93 00 0F F5 2F
15:10:32.582 设备接收:01 03 1E 00 00 00 00 00 00 1A 51 04 41 02 DD 1C 7D 02 0F 01 80 1C 95 02 10 01 82 00 00 00 05 00 00 AE 22
15:10:32.643 设备发送:01 03 05 A2 00 0F A4 E0
15:10:34.137 设备接收:01 03 1E 00 00 00 00 00 00 00 00 00 00 00 00 00 00 00 00 00 00 00 00 00 00 00 00 00 00 00 00 00 00 D8 BA
15:10:34.153 设备发送:01 03 05 B1 00 03 55 20
15:10:35.686 设备发送:01 03 05 B1 00 03 55 20
15:10:37.170 设备接收:01 03 06 00 00 00 00 00 00 21 75
15:10:37.185 设备发送:01 03 04 2B 00 01 F5 32
15:10:38.729 设备接收:01 03 02 02 E1 79 6C
15:10:38.745 设备发送:01 03 04 20 00 01 84 F0
15:10:40.224 设备接收:01 03 02 00 35 78 53
15:10:40.256 设备发送:01 03 04 05 00 01 95 3B
15:10:41.785 设备接收:01 03 02 00 00 B8 44
15:10:41.800 设备发送:02 03 04 84 00 04 05 23
15:10:43.299 设备接收:02 03 08 13 86 11 F7 00 1D 11 F7 17 06
15:10:43.314 设备发送:02 03 04 8D 00 21 14 FA
15:10:44.828 设备接收:02 03 42 08 F8 19 F6 00 00 00 00 00 00 00 00 00 00 00 00 00 00 00 00 00 00 09 08 1A 04 00 00 00 00 00 00 00 00 00 00 00 00 00 00 00 00 00 00 09 04 1A 10 00 00 00 00 00 00 00 00 00 00 00 00 00 00 00 00 00 00 1F AD
15:10:44.844 设备发送:02 03 06 84 00 04 04 9B
15:10:46.343 设备接收:02 03 08 00 00 8A B8 00 13 72 85 31 24
15:10:46.374 设备发送:02 03 04 04 00 01 C4 C8
15:10:47.903 设备接收:02 03 02 00 02 7D 85
15:10:47.918 设备发送:02 03 05 84 00 0F 45 18
15:10:49.400 设备接收:02 03 1E 20 6D 01 CB 01 7D 1F E4 01 DC 01 84 20 28 01 E0 01 8B 20 69 03 B7 03 15 1F E2 01 DE 01 86 1F B3
15:10:49.434 设备发送:02 03 05 93 00 0F F5 1C
15:10:50.934 设备接收:02 03 1E 1F C4 01 DE 01 84 20 1F 01 EC 01 94 1F DC 03 E3 03 2B 20 05 01 F1 01 97 1F 9C 02 1D 01 B6 E1 EA
15:10:50.950 设备发送:02 03 05 A2 00 0F A4 D3
15:10:52.450 设备接收:02 03 1E 00 00 00 04 00 00 00 00 00 00 00 00 00 00 00 00 00 00 00 00 00 00 00 00 00 00 00 00 00 00 92 31
15:10:52.497 设备发送:02 03 05 B1 00 03 55 13
15:10:53.997 设备接收:02 03 06 00 00 00 00 00 00 35 85
15:10:54.025 设备发送:02 03 04 2B 00 01 F5 01
15:10:55.542 设备发送:02 03 04 2B 00 01 F5 01
15:10:57.043 设备接收:02 03 02 02 E2 7D 6D
15:10:57.061 设备发送:02 03 04 20 00 01 84 C3
15:10:58.550 设备接收:02 03 02 00 3E 7D 94
15:10:58.601 设备发送:02 03 04 05 00 01 95 08
15:11:00.084 设备接收:02 03 02 00 00 FC 44
15:11:00.116 设备发送:03 03 04 84 00 04 04 F2
15:11:01.616 设备接收:03 03 08 13 86 14 0F 00 22 14 0F 80 A5
15:11:01.648 设备发送:03 03 04 8D 00 21 15 2B
15:11:03.149 设备接收:03 03 42 08 F4 1D 0C 00 00 00 00 00 00 00 00 00 00 00 00 00 00 00 00 00 00 09 0D 1C FC 00 00 00 00 00 00 00 00 00 00 00 00 00 00 00 00 00 00 09 06 1D 17 00 00 00 00 00 00 00 00 00 00 00 00 00 00 00 00 00 00 BC 73
15:11:03.196 设备发送:03 03 06 84 00 04 05 4A
15:11:04.711 设备接收:03 03 08 00 00 95 FF 00 13 FB D4 25 D4
15:11:04.726 设备发送:03 03 04 04 00 01 C5 19
15:11:06.238 设备接收:03 03 02 00 02 40 45
15:11:06.253 设备发送:03 03 05 84 00 0F 44 C9
15:11:07.737 设备接收:03 03 1E 1F 76 04 4C 03 76 1F 61 04 50 03 77 1F 83 04 25 03 58 1F 80 04 27 03 59 17 32 04 32 02 7D 9E C4
15:11:07.784 设备发送:03 03 05 93 00 0F F4 CD
