
14:43:48.879 设备发送:02 03 64 01 00 02 8A C8
14:43:49.475 设备发送:02 03 64 01 00 02 8A C8
14:43:50.056 设备发送:01 03 40 01 00 26 80 10
14:43:50.646 设备发送:01 03 40 01 00 26 80 10
14:43:51.225 设备发送:01 03 40 01 00 26 80 10
14:43:51.850 设备发送:01 01 00 01 00 01 AC 0A
14:43:52.432 设备发送:01 01 00 01 00 01 AC 0A
14:43:53.025 设备发送:01 01 00 01 00 01 AC 0A
14:43:53.618 设备发送:01 03 64 01 00 02 8A FB
14:43:54.167 设备发送:01 03 64 01 00 02 8A FB
14:43:54.788 设备发送:01 03 64 01 00 02 8A FB
14:43:55.366 设备发送:02 03 40 01 00 26 80 23
14:43:55.945 设备发送:02 03 40 01 00 26 80 23
14:43:56.523 设备发送:02 03 40 01 00 26 80 23
14:43:57.147 设备发送:02 01 00 01 00 01 AC 39
14:43:57.741 设备发送:02 01 00 01 00 01 AC 39
14:43:58.333 设备发送:02 01 00 01 00 01 AC 39
14:43:58.927 设备发送:02 03 64 01 00 02 8A C8
14:43:59.524 设备发送:02 03 64 01 00 02 8A C8
14:44:00.132 设备发送:02 03 64 01 00 02 8A C8
14:44:00.731 设备发送:01 03 40 01 00 26 80 10
14:44:01.332 设备发送:01 03 40 01 00 26 80 10
14:44:01.68500

