
11:15:59.923 设备接收:FF FF FF FF FF FF FF
11:15:59.931 设备发送:05 03 04 84 00 04 04 94
11:16:01.930 设备接收:FF FF FF FF FF FF BF
11:16:01.977 设备发送:05 03 04 8D 00 21 15 4D
11:16:03.951 设备接收:FF FF FF FF FF FF FF FF 05 03 42 09 02 0A 81 00 00 00 00 00 00 00 00 00 00 00 00 00 00 00 00 00 00 09 0A 0A 76 00 00 00 00 00 00 00 00 00 00 00 00 00 00 00 00 00 00 09 0F 0A 96 00 00 00 00 00 00 00 00 00 00 00 00 00 00 00 00 00 00 A6 E7
11:16:03.982 设备发送:05 03 06 84 00 04 05 2C
11:16:05.993 设备接收:FF FF FF FF FF FF 3F 3D
11:16:06.009 设备发送:05 03 04 04 00 01 C5 7F
11:16:07.985 设备接收:F5 FF FF 9F 9F F9 EF
11:16:08.032 设备发送:06 03 04 84 00 04 04 A7
11:16:10.036 设备接收:FF FF FF F7 F3 FF
11:16:10.051 设备发送:06 03 04 8D 00 21 15 7E
11:16:12.027 设备接收:FF FF FF FF FF FF FF 06 03 42 09 05 0A 29 00 00 00 00 00 00 00 00 00 00 00 00 00 00 00 00 00 00 09 03 0A 2A 00 00 00 00 00 00 00 00 00 00 00 00 00 00 00 00 00 00 09 0B 0A 53 00 00 00 00 00 00 00 00 00 00 00 00 00 00 00 00 00 00 02 55
11:16:12.105 设备发送:06 03 06 84 00 04 05 1F
11:16:14.072 设备接收:FF FF FF 06 03 08 00 00 1C A1 00 0E 2C A8 4C 9B
11:16:14.087 设备发送:06 03 04 04 00 01 C5 4C
11:16:16.093 设备发送:06 03 04 04 00 01 C5 4C
11:16:18.089 设备接收:77 B7 99 FF F4 FF FF
11:16:18.105 设备发送:07 03 04 84 00 04 05 76
11:16:20.135 设备接收:FF FF FF FF FF FF FF FF 07 03 08 13 85 03 B7 FF D8 03 BC 5B C9
11:16:20.150 设备发送:07 03 04 8D 00 21 14 AF
11:16:22.133 设备接收:FF FF FF FF FF FF FF 07 03 42 09 0A 05 62 00 00 00 00 00 00 00 00 00 00 00 00 00 00 00 00 00 00 09 03 05 67 00 00 00 00 00 00 00 00 00 00 00 00 00 00 00 00 00 00 09 0B 05 62 00 00 00 00 00 00 00 00 00 00 00 00 00 00 00 00 00 00 6F CE
11:16:22.149 设备发送:07 03 06 84 00 04 04 CE
11:16:24.138 设备接收:FF FF FF FF FF FF FF 07 03 08 00 00 0F 8F 00 07 07 D7 2D D0
11:16:24.200 设备发送:07 03 04 04 00 01 C4 9D
11:16:26.198 设备接收:FF FF FF FF FF FF FF 07 03 02 00 02 B1 85
11:16:26.213 设备发送:08 03 04 84 00 04 05 89
11:16:28.192 设备接收:FF FF FF FF FF FF 08 03 08 13 84 07 DF FF CF 07 E0 A9 AD
11:16:28.239 设备发送:08 03 04 8D 00 21 14 50
11:16:30.236 设备接收:FF FF FF FF FF FF FF 08 03 42 08 FB 0B 87 00 00 00 00 00 00 00 00 00 00 00 00 00 00 00 00 00 00 08 F0 0B 76 00 00 00 00 00 00 00 00 00 00 00 00 00 00 00 00 00 00 08 FE 0B AD 00 00 00 00 00 00 00 00 00 00 00 00 00 00 00 00 00 00 E6 66
11:16:30.251 设备发送:08 03 06 84 00 04 04 31
11:16:32.247 设备发送:08 03 06 84 00 04 04 31
11:16:34.261 设备接收:FF FF FF FF FF FF FF 08 03 08 00 00 20 17 00 0F 51 2E 45 A7
11:16:34.292 设备发送:08 03 04 04 00 01 C4 62
11:16:36.284 设备接收:FF FF FF FF FF FF FF 08 03 02 00 02 E5 84
11:16:36.299 设备发送:09 03 04 84 00 04 04 58
11:16:38.295 设备接收:FF FF FF FF FF FF FF FF 09 03 08 13 85 06 D1 FF F0 06 D1 25 C9
11:16:38.311 设备发送:09 03 04 8D 00 21 15 81
11:16:40.327 设备接收:FF FF FF FF FF FF FF 09 03 42 09 03 09 DE 00 00 00 00 00 00 00 00 00 00 00 00 00 00 00 00 00 00 08 F8 09 F1 00 00 00 00 00 00 00 00 00 00 00 00 00 00 00 00 00 00 09 05 0A 08 00 00 00 00 00 00 00 00 00 00 00 00 00 00 00 00 00 00 95 33
11:16:40.343 设备发送:09 03 06 84 00 04 05 E0
11:16:42.322 设备接收:FF FF FF FF FF FF FF 09 03 08 00 00 1C BB 00 0D F0 1F CD FB
11:16:42.369 设备发送:09 03 04 04 00 01 C5 B3
11:16:44.345 设备接收:FF FF FF FF FF FF FF 09 03 02 00 02 D8 44
11:16:44.361 设备发送:0A 03 04 84 00 04 04 6B
11:16:46.370 设备接收:FF FF FF
11:16:46.386 设备发送:0A 03 04 8D 00 21 15 B2
11:16:48.396 设备接收:FF FF FF FF FF FF 0A 03 42 09 05 02 71 00 00 00 00 00 00 00 00 00 00 00 00 00 00 00 00 00 00 09 02 02 75 00 00 00 00 00 00 00 00 00 00 00 00 00 00 00 00 00 00 09 0D 02 71 00 00 00 00 00 00 00 00 00 00 00 00 00 00 00 00 00 00 A6 C5
11:16:48.412 设备发送:0A 03 06 84 00 04 05 D3
11:16:50.407 设备接收:FF FF FF
11:16:50.423 设备发送:0A 03 04 04 00 01 C5 80
11:16:52.434 设备接收:FF FF FF FF FF FF FF
11:16:52.450 设备发送:01 03 04 84 00 04 05 10
11:16:54.463 设备接收:FF FF FF FF FF FF FF FF
11:16:54.478 设备发送:01 03 04 8D 00 21 14 C9
11:16:56.471 设备接收:FF FF FF FF FF FF FF 01 03 42 09 01 0D 9D 00 00 00 00 00 00 00 00 00 00 00 00 00 00 00 00 00 00 09 07 0D B1 00 00 00 00 00 00 00 00 00 00 00 00 00 00 00 00 00 00 09 0D 0D CF 00 00 00 00 00 00 00 00 00 00 00 00 00 00 00 00 00 00 CF 77
11:16:56.517 设备发送:01 03 06 84 00 04 04 A8
11:16:58.505 设备接收:FF FF FF FF FF FF FF
11:16:58.537 设备发送:01 03 04 04 00 01 C4 FB
11:17:00.506 设备接收:FF FF FF FF FF FF FF
11:17:00.553 设备发送:02 03 04 84 00 04 05 23
11:17:02.547 设备接收:FF FF FF FF FF FF FF
11:17:02.563 设备发送:02 03 04 8D 00 21 14 FA
11:17:04.561 设备接收:FF FF FF FF FF FF 02 03 42 09 04 0D 03 00 00 00 00 00 00 00 00 00 00 00 00 00 00 00 00 00 00 09 07 0D 10 00 00 00 00 00 00 00 00 00 00 00 00 00 00 00 00 00 00 09 0B 0D 2C 00 00 00 00 00 00 00 00 00 00 00 00 00 00 00 00 00 00 22 19
11:17:04.591 设备发送:02 03 06 84 00 04 04 9B
11:17:06.584 设备接收:FF FF FF FF FF FF
11:17:06.600 设备发送:02 03 04 04 00 01 C4 C8
11:17:08.597 设备接收:FF FF FF FF FF FF FF
11:17:08.613 设备发送:03 03 04 84 00 04 04 F2
11:17:10.624 设备接收:FF FF FF FF FF FF FF 03 03 08 13 84 09 C1 FF EA 09 C1 F0 16
11:17:10.640 设备发送:03 03 04 8D 00 21 15 2B
11:17:12.650 设备接收:FF FF FF FF FF FF FF FF 03 03 42 09 00 0E 1D 00 00 00 00 00 00 00 00 00 00 00 00 00 00 00 00 00 00 09 07 0E 1F 00 00 00 00 00 00 00 00 00 00 00 00 00 00 00 00 00 00 09 0B 0E 3F 00 00 00 00 00 00 00 00 00 00 00 00 00 00 00 00 00 00 D7 F6
11:17:12.729 设备发送:03 03 06 84 00 04 05 4A
11:17:14.659 设备接收:FF FF FF FF FF FF FF FF
11:17:14.691 设备发送:03 03 04 04 00 01 C5 19
11:17:16.674 设备接收:FF FF FF FF FF FF FF
11:17:16.690 设备发送:04 03 04 84 00 04 05 45
11:17:18.697 设备接收:FF FF FF FF FF FF FF
11:17:18.713 设备发送:04 03 04 8D 00 21 14 9C
11:17:20.705 设备接收:FF FF FF FF FF FF 04 03 42 09 07 0B F9 00 00 00 00 00 00 00 00 00 00 00 00 00 00 00 00 00 00 08 FA 0B F9 00 00 00 00 00 00 00 00 00 00 00 00 00 00 00 00 00 00 09 0C 0C 0D 00 00 00 00 00 00 00 00 00 00 00 00 00 00 00 00 00 00 ED DB
11:17:20.720 设备发送:04 03 06 84 00 04 04 FD
11:17:22.748 设备接收:FF FF FF FF FF FF
11:17:22.764 设备发送:04 03 04 04 00 01 C4 AE
11:17:24.759 设备接收:FF FF FF FF FF FF FF
11:17:24.775 设备发送:05 03 04 84 00 04 04 94
11:17:26.790 设备接收:FF FF FF FF FF FF FF
11:17:26.805 设备发送:05 03 04 8D 00 21 15 4D
11:17:28.801 设备接收:FF FF FF FF FF FF FF FF 05 03 42 09 03 0A 06 00 00 00 00 00 00 00 00 00 00 00 00 00 00 00 00 00 00 09 02 09 FA 00 00 00 00 00 00 00 00 00 00 00 00 00 00 00 00 00 00 09 09 0A 1F 00 00 00 00 00 00 00 00 00 00 00 00 00 00 00 00 00 00 28 A5
11:17:28.817 设备发送:05 03 06 84 00 04 05 2C
11:17:30.800 设备接收:FF FF FF FF FF FF FF FF
11:17:30.864 设备发送:05 03 04 04 00 01 C5 7F
11:17:32.866 设备发送:05 03 04 04 00 01 C5 7F
11:17:34.845 设备接收:FF FF FF FF FF FF FF
11:17:34.876 设备发送:06 03 04 84 00 04 04 A7
11:17:36.889 设备接收:FF FF FF FF FF FF
11:17:36.904 设备发送:06 03 04 8D 00 21 15 7E
11:17:38.901 设备接收:FF FF FF FF FF FF FF 06 03 42 09 06 09 AE 00 00 00 00 00 00 00 00 00 00 00 00 00 00 00 00 00 00 09 01 09 AF 00 00 00 00 00 00 00 00 00 00 00 00 00 00 00 00 00 00 09 0B 09 DB 00 00 00 00 00 00 00 00 00 00 00 00 00 00 00 00 00 00 13 D7
11:17:38.917 设备发送:06 03 06 84 00 04 05 1F
11:17:40.928 设备接收:FF FF FF FF FF FF FF
11:17:40.944 设备发送:06 03 04 04 00 01 C5 4C
11:17:42.941 设备接收:6F DE 3F FF FF FF FF
11:17:42.956 设备发送:07 03 04 84 00 04 05 76
11:17:44.957 设备接收:FF FF FF FF FF FF FF FF 07 03 08 13 85 03 8F FF D7 03 94 CA 11
11:17:44.972 设备发送:07 03 04 8D 00 21 14 AF
11:17:46.984 设备接收:FF FF FF FF FF FF FF 07 03 42 09 08 05 2B 00 00 00 00 00 00 00 00 00 00 00 00 00 00 00 00 00 00 08 FF 05 2E 00 00 00 00 00 00 00 00 00 00 00 00 00 00 00 00 00 00 09 09 05 28 00 00 00 00 00 00 00 00 00 00 00 00 00 00 00 00 00 00 5F F1
11:17:46.999 设备发送:07 03 06 84 00 04 04 CE
11:17:48.999 设备接收:FF FF FF FF FF FF FF 07 03 08 00 00 0F A4 00 07 07 D9 88 12
11:17:49.015 设备发送:07 03 04 04 00 01 C4 9D
11:17:51.005 设备接收:FF FF FF FF FF FF FF 07 03 02 00 02 B1 85
11:17:51.036 设备发送:08 03 04 84 00 04 05 89
11:17:53.049 设备接收:FF FF FF FF FF FF 08 03 08 13 85 07 8E 00 0C 07 8E 05 65
11:17:53.065 设备发送:08 03 04 8D 00 21 14 50
11:17:55.061 设备接收:FF FF FF FF FF FF FF 08 03 42 08 FE 0B 1C 00 00 00 00 00 00 00 00 00 00 00 00 00 00 00 00 00 00 08 F1 0B 05 00 00 00 00 00 00 00 00 00 00 00 00 00 00 00 00 00 00 08 FF 0B 45 00 00 00 00 00 00 00 00 00 00 00 00 00 00 00 00 00 00 D6 41
11:17:55.076 设备发送:08 03 06 84 00 04 04 31
11:17:57.089 设备接收:FF FF FF FF FF FF FF 08 03 08 00 00 20 43 00 0F 51 32 75 A2
11:17:57.104 设备发送:08 03 04 04 00 01 C4 62
11:17:59.087 设备接收:FF FF FF FF FF FF FF 08 03 02 00 02 E5 84
11:17:59.118 设备发送:09 03 04 84 00 04 04 58
11:18:01.125 设备接收:FF FF FF FF FF FF FF FF 09 03 08 13 85 06 9B 00 0A 06 9B 2D D5
11:18:01.142 设备发送:09 03 04 8D 00 21 15 81
11:18:03.152 设备接收:FF FF FF FF FF FF FF 09 03 42 09 05 09 90 00 00 00 00 00 00 00 00 00 00 00 00 00 00 00 00 00 00 08 F7 09 A2 00 00 00 00 00 00 00 00 00 00 00 00 00 00 00 00 00 00 09 06 09 B7 00 00 00 00 00 00 00 00 00 00 00 00 00 00 00 00 00 00 2E 92
11:18:03.167 设备发送:09 03 06 84 00 04 05 E0
11:18:05.171 设备接收:FF FF FF FF FF FF FF 09 03 08 00 00 1C E2 00 0D F0 23 D1 E7
11:18:05.187 设备发送:09 03 04 04 00 01 C5 B3
11:18:07.164 设备接收:FF FF FF FF FF FF FF 09 03 02 00 02 D8 44
11:18:07.210 设备发送:0A 03 04 84 00 04 04 6B
11:18:09.205 设备接收:FF FF FF FF FF FF FF
11:18:09.221 设备发送:0A 03 04 8D 00 21 15 B2
11:18:11.231 设备接收:FF FF FF FF FF FF 0A 03 42 09 06 02 6B 00 00 00 00 00 00 00 00 00 00 00 00 00 00 00 00 00 00 09 01 02 6F 00 00 00 00 00 00 00 00 00 00 00 00 00 00 00 00 00 00 09 0B 02 6E 00 00 00 00 00 00 00 00 00 00 00 00 00 00 00 00 00 00 8C C3
11:18:11.249 设备发送:0A 03 06 84 00 04 05 D3
11:18:13.230 设备接收:FF FF FF 0A 03 08 00 00 06 B6 00 03 24 EF D3 C3
11:18:13.261 设备发送:0A 03 04 04 00 01 C5 80
11:18:15.252 设备接收:FF FF FF FF FF FF FF
11:18:15.268 设备发送:01 03 04 84 00 04 05 10
11:18:17.295 设备接收:FF FF FF FF FF FF FF FF
11:18:17.313 设备发送:01 03 04 8D 00 21 14 C9
11:18:19.305 设备接收:FF FF FF FF FF FF FF 01 03 42 09 03 0D AF 00 00 00 00 00 00 00 00 00 00 00 00 00 00 00 00 00 00 09 06 0D C6 00 00 00 00 00 00 00 00 00 00 00 00 00 00 00 00 00 00 09 0D 0D D9 00 00 00 00 00 00 00 00 00 00 00 00 00 00 00 00 00 00 97 13
11:18:19.320 设备发送:01 03 06 84 00 04 04 A8
11:18:21.316 设备接收:FF FF FF FF FF FF FF
11:18:21.331 设备发送:01 03 04 04 00 01 C4 FB
11:18:23.326 设备接收:FF FF FF FF FF FF FF
11:18:23.373 设备发送:02 03 04 84 00 04 05 23
11:18:25.353 设备接收:FF FF FF FF FF FF FF
11:18:25.383 设备发送:02 03 04 8D 00 21 14 FA
11:18:27.365 设备接收:FF FF FF FF FF FF 02 03 42 09 04 0D 57 00 00 00 00 00 00 00 00 00 00 00 00 00 00 00 00 00 00 09 09 0D 5D 00 00 00 00 00 00 00 00 00 00 00 00 00 00 00 00 00 00 09 0D 0D 86 00 00 00 00 00 00 00 00 00 00 00 00 00 00 00 00 00 00 32 C0
11:18:27.381 设备发送:02 03 06 84 00 04 04 9B
11:18:29.404 设备接收:FF FF FF FF FF FF
11:18:29.420 设备发送:02 03 04 04 00 01 C4 C8
11:18:31.435 设备接收:FF FF FF FF FF FF FF
11:18:31.450 设备发送:03 03 04 84 00 04 04 F2
11:18:33.434 设备接收:FF FF FF FF FF FF FF
11:18:33.449 设备发送:03 03 04 8D 00 21 15 2B
11:18:35.461 设备接收:FF FF FF FF FF FF FF FF 03 03 42 09 00 0E B5 00 00 00 00 00 00 00 00 00 00 00 00 00 00 00 00 00 00 09 09 0E B3 00 00 00 00 00 00 00 00 00 00 00 00 00 00 00 00 00 00 09 0B 0E DB 00 00 00 00 00 00 00 00 00 00 00 00 00 00 00 00 00 00 0D 8F
11:18:35.491 设备发送:03 03 06 84 00 04 05 4A
11:18:37.483 设备接收:FF FF FF FF FF FF FF FF
11:18:37.514 设备发送:03 03 04 04 00 01 C5 19
11:18:39.477 设备接收:FF FF FF FF FF FF FF
11:18:39.509 设备发送:04 03 04 84 00 04 05 45
11:18:41.516 设备接收:FF FF FF FF FF FF FF
11:18:41.532 设备发送:04 03 04 8D 00 21 14 9C
11:18:43.531 设备接收:FF FF FF FF FF FF 04 03 42 09 07 0C 9D 00 00 00 00 00 00 00 00 00 00 00 00 00 00 00 00 00 00 08 FB 0C 98 00 00 00 00 00 00 00 00 00 00 00 00 00 00 00 00 00 00 09 0E 0C AB 00 00 00 00 00 00 00 00 00 00 00 00 00 00 00 00 00 00 88 B2
11:18:43.546 设备发送:04 03 06 84 00 04 04 FD
11:18:45.572 设备接收:FF FF FF FF FF FF
11:18:45.587 设备发送:04 03 04 04 00 01 C4 AE
11:18:47.585 设备接收:FF FF FF FF FF FF FF
11:18:47.600 设备发送:05 03 04 84 00 04 04 94
11:18:49.585 设备接收:FF FF FF FF FF FF FF
11:18:49.601 设备发送:05 03 04 8D 00 21 15 4D
11:18:51.630 设备接收:FF FF FF FF FF FF FF FF 05 03 42 09 01 0A B1 00 00 00 00 00 00 00 00 00 00 00 00 00 00 00 00 00 00 09 02 0A A0 00 00 00 00 00 00 00 00 00 00 00 00 00 00 00 00 00 00 09 08 0A C2 00 00 00 00 00 00 00 00 00 00 00 00 00 00 00 00 00 00 07 C2
11:18:51.645 设备发送:05 03 06 84 00 04 05 2C
11:18:53.643 设备接收:FF FF FF FF FF FF FF FF
11:18:53.658 设备发送:05 03 04 04 00 01 C5 7F
11:18:55.655 设备接收:FF FF FF FF FF FF FF
11:18:55.671 设备发送:06 03 04 84 00 04 04 A7
11:18:57.697 设备接收:FF FF FF FF FF FF
11:18:57.713 设备发送:06 03 04 8D 00 21 15 7E
11:18:59.704 设备接收:FF FF FF FF FF FF FF 06 03 42 09 08 0A 6B 00 00 00 00 00 00 00 00 00 00 00 00 00 00 00 00 00 00 09 09 0A 67 00 00 00 00 00 00 00 00 00 00 00 00 00 00 00 00 00 00 09 0F 0A 8E 00 00 00 00 00 00 00 00 00 00 00 00 00 00 00 00 00 00 36 C2
11:18:59.720 设备发送:06 03 06 84 00 04 05 1F
11:19:01.702 设备接收:FF FF FF
11:19:01.732 设备发送:06 03 04 04 00 01 C5 4C
11:19:03.734 设备接收:FF FF FF FF FF FF FF
11:19:03.764 设备发送:07 03 04 84 00 04 05 76
11:19:05.771 设备接收:FF FF FF FF FF FF FF FF 07 03 08 13 84 03 D5 FF D8 03 D9 72 EA
11:19:05.787 设备发送:07 03 04 8D 00 21 14 AF
11:19:07.769 设备接收:FF FF FF FF FF FF FF 07 03 42 09 09 05 93 00 00 00 00 00 00 00 00 00 00 00 00 00 00 00 00 00 00 09 02 05 97 00 00 00 00 00 00 00 00 00 00 00 00 00 00 00 00 00 00 09 05 05 91 00 00 00 00 00 00 00 00 00 00 00 00 00 00 00 00 00 00 D6 0E
11:19:07.784 设备发送:07 03 06 84 00 04 04 CE
11:19:09.806 设备接收:FF FF FF FF FF FF FF 07 03 08 00 00 0F BA 00 07 07 DB A1 D1
11:19:09.822 设备发送:07 03 04 04 00 01 C4 9D
11:19:11.817 设备接收:FF FF FF FF FF FF FF 07 03 02 00 02 B1 85
11:19:11.832 设备发送:08 03 04 84 00 04 05 89
11:19:13.825 设备接收:FF FF FF FF FF FF 08 03 08 13 84 08 35 00 0E 08 35 15 02
11:19:13.841 设备发送:08 03 04 8D 00 21 14 50
11:19:15.851 设备接收:FF FF FF FF FF FF FF 08 03 42 09 01 0C 03 00 00 00 00 00 00 00 00 00 00 00 00 00 00 00 00 00 00 08 FA 0B F6 00 00 00 00 00 00 00 00 00 00 00 00 00 00 00 00 00 00 09 05 0C 2D 00 00 00 00 00 00 00 00 00 00 00 00 00 00 00 00 00 00 07 9E
11:19:15.867 设备发送:08 03 06 84 00 04 04 31
11:19:17.877 设备接收:FF FF FF FF FF FF FF 08 03 08 00 00 20 71 00 0F 51 37 8C 65
11:19:17.893 设备发送:08 03 04 04 00 01 C4 62
11:19:19.889 设备接收:FF FF FF FF FF FF FF 08 03 02 00 02 E5 84
11:19:19.905 设备发送:09 03 04 84 00 04 04 58
11:19:21.917 设备接收:FF FF FF FF FF FF FF FF 09 03 08 13 85 07 33 FF EF 07 33 6C 11
11:19:21.933 设备发送:09 03 04 8D 00 21 15 81
11:19:23.929 设备接收:FF FF FF FF FF FF FF 09 03 42 09 01 0A 72 00 00 00 00 00 00 00 00 00 00 00 00 00 00 00 00 00 00 08 FA 0A 82 00 00 00 00 00 00 00 00 00 00 00 00 00 00 00 00 00 00 09 07 0A 94 00 00 00 00 00 00 00 00 00 00 00 00 00 00 00 00 00 00 58 B5
11:19:23.945 设备发送:09 03 06 84 00 04 05 E0
11:19:25.961 设备接收:FF FF FF FF FF FF FF 09 03 08 00 00 1D 0A 00 0D F0 27 B1 E2
11:19:25.976 设备发送:09 03 04 04 00 01 C5 B3
11:19:27.961 设备接收:FF FF FF FF FF FF FF 09 03 02 00 02 D8 44
11:19:28.035 设备发送:0A 03 04 84 00 04 04 6B
11:19:29.983 设备接收:FF FF FF FF FF FF FF
11:19:30.015 设备发送:0A 03 04 8D 00 21 15 B2
11:19:32.027 设备接收:FF FF FF FF FF FF 0A 03 42 09 0A 02 94 00 00 00 00 00 00 00 00 00 00 00 00 00 00 00 00 00 00 09 03 02 93 00 00 00 00 00 00 00 00 00 00 00 00 00 00 00 00 00 00 09 09 02 93 00 00 00 00 00 00 00 00 00 00 00 00 00 00 00 00 00 00 61 4A
11:19:32.042 设备发送:0A 03 06 84 00 04 05 D3
11:19:34.039 设备接收:FF FF FF
11:19:34.056 设备发送:0A 03 04 04 00 01 C5 80
11:19:36.049 设备接收:FF FF FF FF FF FF FF
11:19:36.066 设备发送:01 03 04 84 00 04 05 10
11:19:38.075 设备接收:FF FF FF FF FF FF FF FF
11:19:38.106 设备发送:01 03 04 8D 00 21 14 C9
11:19:40.097 设备接收:FF FF FF FF FF FF FF 01 03 42 09 04 0E B5 00 00 00 00 00 00 00 00 00 00 00 00 00 00 00 00 00 00 09 0D 0E C2 00 00 00 00 00 00 00 00 00 00 00 00 00 00 00 00 00 00 09 11 0E DC 00 00 00 00 00 00 00 00 00 00 00 00 00 00 00 00 00 00 C5 29
11:19:40.113 设备发送:01 03 06 84 00 04 04 A8
11:19:42.143 设备接收:FF FF FF FF FF FF FF
11:19:42.159 设备发送:01 03 04 04 00 01 C4 FB
11:19:44.140 设备接收:FF FF FF FF FF FF FF
11:19:44.156 设备发送:02 03 04 84 00 04 05 23
11:19:46.150 设备接收:FF FF FF FF FF FF FF
11:19:46.229 设备发送:02 03 04 8D 00 21 14 FA
11:19:48.164 设备接收:FF FF FF FF FF FF 02 03 42 09 03 0E 4F 00 00 00 00 00 00 00 00 00 00 00 00 00 00 00 00 00 00 09 0B 0E 55 00 00 00 00 00 00 00 00 00 00 00 00 00 00 00 00 00 00 09 0C 0E 72 00 00 00 00 00 00 00 00 00 00 00 00 00 00 00 00 00 00 99 0C
11:19:48.212 设备发送:02 03 06 84 00 04 04 9B
11:19:50.173 设备接收:FF FF FF FF FF FF
11:19:50.204 设备发送:02 03 04 04 00 01 C4 C8
11:19:52.205 设备接收:FF FF FF FF FF FF FF
11:19:52.235 设备发送:03 03 04 84 00 04 04 F2
11:19:54.229 设备接收:FF FF FF FF FF FF FF
11:19:54.245 设备发送:03 03 04 8D 00 21 15 2B
11:19:56.260 设备接收:FF FF FF FF FF FF FF FF 03 03 42 09 00 0F 9B 00 00 00 00 00 00 00 00 00 00 00 00 00 00 00 00 00 00 09 0D 0F 9B 00 00 00 00 00 00 00 00 00 00 00 00 00 00 00 00 00 00 09 0E 0F BB 00 00 00 00 00 00 00 00 00 00 00 00 00 00 00 00 00 00 82 F5
11:19:56.275 设备发送:03 03 06 84 00 04 05 4A
11:19:58.286 设备接收:FF FF FF FF FF FF FF FF
11:19:58.302 设备发送:03 03 04 04 00 01 C5 19
11:20:00.301 设备接收:FF FF FF FF FF FF FF
11:20:00.316 设备发送:04 03 04 84 00 04 05 45
11:20:02.315 设备接收:FF FF FF FF FF FF FF
11:20:02.330 设备发送:04 03 04 8D 00 21 14 9C
11:20:04.327 设备接收:FF FF FF FF FF FF 04 03 42 09 07 0D 42 00 00 00 00 00 00 00 00 00 00 00 00 00 00 00 00 00 00 08 FE 0D 42 00 00 00 00 00 00 00 00 00 00 00 00 00 00 00 00 00 00 09 11 0D 50 00 00 00 00 00 00 00 00 00 00 00 00 00 00 00 00 00 00 C8 BE
11:20:04.361 设备发送:04 03 06 84 00 04 04 FD
11:20:06.353 设备接收:FF FF FF FF FF FF
11:20:06.369 设备发送:04 03 04 04 00 01 C4 AE
11:20:08.363 设备接收:FF FF FF FF FF FF FF
11:20:08.394 设备发送:05 03 04 84 00 04 04 94
11:20:10.404 设备接收:FF FF FF FF FF FF FF
11:20:10.420 设备发送:05 03 04 8D 00 21 15 4D
11:20:12.408 设备接收:FF FF FF FF FF FF FF FF 05 03 42 09 02 0B 27 00 00 00 00 00 00 00 00 00 00 00 00 00 00 00 00 00 00 09 06 0B 18 00 00 00 00 00 00 00 00 00 00 00 00 00 00 00 00 00 00 09 0E 0B 3C 00 00 00 00 00 00 00 00 00 00 00 00 00 00 00 00 00 00 E8 F2
11:20:12.424 设备发送:05 03 06 84 00 04 05 2C
11:20:14.438 设备接收:FF FF FF FF FF FF AF DF
11:20:14.454 设备发送:05 03 04 04 00 01 C5 7F
11:20:15.72000

