10:35:26.96700
10:35:26.97000
10:35:26.97400
10:35:26.99200
10:35:27.906 设备接收:FF FF FF FF FF FF FF FF 05 03 42 09 14 17 C0 00 00 00 00 00 00 00 00 00 00 00 00 00 00 00 00 00 00 09 21 17 AF 00 00 00 00 00 00 00 00 00 00 00 00 00 00 00 00 00 00 09 23 17 B8 00 00 00 00 00 00 00 00 00 00 00 00 00 00 00 00 00 00 B0 60
10:35:27.922 设备发送:05 03 06 84 00 04 05 2C
10:35:29.885 设备接收:FF FF FF FF FF FF 0F ED
10:35:29.917 设备发送:05 03 04 04 00 01 C5 7F
10:35:31.913 设备发送:05 03 04 04 00 01 C5 7F
10:35:33.953 设备发送:05 03 04 04 00 01 C5 7F
10:35:35.949 设备接收:74 1B BC AA 9C 98 FE
10:35:35.964 设备发送:06 03 04 84 00 04 04 A7
10:35:37.987 设备接收:FF FF FF 06 03 08 13 87 10 55 FF 9E 10 56 EB 2A
10:35:38.002 设备发送:06 03 04 8D 00 21 15 7E
10:35:40.015 设备接收:FF FF FF FF FF FF FF 06 03 42 09 1A 17 77 00 00 00 00 00 00 00 00 00 00 00 00 00 00 00 00 00 00 09 1F 17 71 00 00 00 00 00 00 00 00 00 00 00 00 00 00 00 00 00 00 09 24 17 87 00 00 00 00 00 00 00 00 00 00 00 00 00 00 00 00 00 00 C1 23
10:35:40.030 设备发送:06 03 06 84 00 04 05 1F
10:35:42.027 设备接收:FF FF FF 06 03 08 00 00 13 FF 00 0E 2B CB A7 B0
10:35:42.043 设备发送:06 03 04 04 00 01 C5 4C
10:35:44.056 设备发送:06 03 04 04 00 01 C5 4C
10:35:46.067 设备接收:0F 7D F0 FF FF FE FE
10:35:46.083 设备发送:07 03 04 84 00 04 05 76
10:35:48.069 设备接收:FF FF FF FF FF FF FF FF 07 03 08 13 86 08 AE FF C4 08 B0 B2 83
10:35:48.084 设备发送:07 03 04 8D 00 21 14 AF
10:35:50.097 设备接收:FF FF FF FF FF FF FF 07 03 42 09 18 0C 74 00 00 00 00 00 00 00 00 00 00 00 00 00 00 00 00 00 00 09 10 0C 7E 00 00 00 00 00 00 00 00 00 00 00 00 00 00 00 00 00 00 09 17 0C 73 00 00 00 00 00 00 00 00 00 00 00 00 00 00 00 00 00 00 88 EA
10:35:50.113 设备发送:07 03 06 84 00 04 04 CE
10:35:52.108 设备接收:FF FF FF FF FF FF FF 07 03 08 00 00 0A F1 00 07 07 61 84 39
10:35:52.139 设备发送:07 03 04 04 00 01 C4 9D
10:35:54.134 设备接收:FF FF FF FF FF FF FF 07 03 02 00 02 B1 85
10:35:54.149 设备发送:08 03 04 84 00 04 05 89
10:35:56.171 设备接收:FF FF FF FF FF FF 08 03 08 13 85 12 6A 00 1D 12 6A 29 68
10:35:56.186 设备发送:08 03 04 8D 00 21 14 50
10:35:58.162 设备接收:FF FF FF FF FF FF FF 08 03 42 09 0B 1A 71 00 00 00 00 00 00 00 00 00 00 00 00 00 00 00 00 00 00 09 01 1A 77 00 00 00 00 00 00 00 00 00 00 00 00 00 00 00 00 00 00 09 13 1A 87 00 00 00 00 00 00 00 00 00 00 00 00 00 00 00 00 00 00 CD 74
10:35:58.178 设备发送:08 03 06 84 00 04 04 31
10:36:00.206 设备接收:FF FF FF FF FF FF FF 08 03 08 00 00 16 61 00 0F 50 35 C8 61
10:36:00.222 设备发送:08 03 04 04 00 01 C4 62
10:36:02.220 设备接收:FF FF FF FF FF FF FF 08 03 02 00 02 E5 84
10:36:02.235 设备发送:09 03 04 84 00 04 04 58
10:36:04.230 设备接收:FF FF FF FF FF FF FF FF 09 03 08 13 85 10 B9 FF DB 10 B9 39 70
10:36:04.261 设备发送:09 03 04 8D 00 21 15 81
10:36:06.252 设备接收:FF FF FF FF FF FF FF 09 03 42 09 12 18 11 00 00 00 00 00 00 00 00 00 00 00 00 00 00 00 00 00 00 09 03 18 1A 00 00 00 00 00 00 00 00 00 00 00 00 00 00 00 00 00 00 09 17 18 1F 00 00 00 00 00 00 00 00 00 00 00 00 00 00 00 00 00 00 83 52
10:36:06.268 设备发送:09 03 06 84 00 04 05 E0
10:36:08.264 设备接收:FF FF FF FF FF FF FF 09 03 08 00 00 14 0F 00 0D EF 41 F5 61
10:36:08.311 设备发送:09 03 04 04 00 01 C5 B3
10:36:10.289 设备接收:FF FF FF FF FF FF FF 09 03 02 00 02 D8 44
10:36:10.305 设备发送:0A 03 04 84 00 04 04 6B
10:36:12.298 设备接收:FF FF FF
10:36:12.344 设备发送:0A 03 04 8D 00 21 15 B2
10:36:14.340 设备接收:FF FF FF FF FF FF 0A 03 42 09 16 05 CA 00 00 00 00 00 00 00 00 00 00 00 00 00 00 00 00 00 00 09 0D 05 CC 00 00 00 00 00 00 00 00 00 00 00 00 00 00 00 00 00 00 09 19 05 C6 00 00 00 00 00 00 00 00 00 00 00 00 00 00 00 00 00 00 83 27
10:36:14.355 设备发送:0A 03 06 84 00 04 05 D3
10:36:16.338 设备接收:FF FF FF FF FF FF 0A 03 08 00 00 04 98 00 03 24 B9 BA 19
10:36:16.401 设备发送:0A 03 04 04 00 01 C5 80
10:36:18.350 设备接收:FF FF FF FF FF FF
10:36:18.397 设备发送:01 03 04 84 00 04 05 10
10:36:20.399 设备接收:FF FF FF FF FF FF FF FF
10:36:20.414 设备发送:01 03 04 8D 00 21 14 C9
10:36:22.416 设备接收:FF FF FF FF FF FF FF 01 03 42 09 15 1F 9D 00 00 00 00 00 00 00 00 00 00 00 00 00 00 00 00 00 00 09 2E 1F AD 00 00 00 00 00 00 00 00 00 00 00 00 00 00 00 00 00 00 09 2A 1F BA 00 00 00 00 00 00 00 00 00 00 00 00 00 00 00 00 00 00 1C 2B
10:36:22.431 设备发送:01 03 06 84 00 04 04 A8
10:36:24.442 设备接收:FF FF FF FF FF FF FF
10:36:24.458 设备发送:01 03 04 04 00 01 C4 FB
10:36:26.452 设备接收:FF FF FF FF FF FF FF
10:36:26.484 设备发送:02 03 04 84 00 04 05 23
10:36:28.477 设备接收:FF FF FF FF FF FF FF
10:36:28.492 设备发送:02 03 04 8D 00 21 14 FA
10:36:30.490 设备接收:FF FF FF FF FF FF 02 03 42 09 15 1E 5F 00 00 00 00 00 00 00 00 00 00 00 00 00 00 00 00 00 00 09 29 1E 63 00 00 00 00 00 00 00 00 00 00 00 00 00 00 00 00 00 00 09 22 1E 70 00 00 00 00 00 00 00 00 00 00 00 00 00 00 00 00 00 00 F3 AA
10:36:30.506 设备发送:02 03 06 84 00 04 04 9B
10:36:32.516 设备接收:FF FF FF FF FF FF
10:36:32.532 设备发送:02 03 04 04 00 01 C4 C8
10:36:34.555 设备接收:FF FF FF FF FF FF FF
10:36:34.571 设备发送:03 03 04 84 00 04 04 F2
10:36:36.563 设备接收:FF FF FF FF FF FF FF
10:36:36.578 设备发送:03 03 04 8D 00 21 15 2B
10:36:38.575 设备接收:FF FF FF FF FF FF FF FF 03 03 42 09 10 20 EC 00 00 00 00 00 00 00 00 00 00 00 00 00 00 00 00 00 00 09 2F 20 EC 00 00 00 00 00 00 00 00 00 00 00 00 00 00 00 00 00 00 09 28 20 FC 00 00 00 00 00 00 00 00 00 00 00 00 00 00 00 00 00 00 25 3C
10:36:38.590 设备发送:03 03 06 84 00 04 05 4A
10:36:40.598 设备接收:FF FF FF FF FF FF FF FF
10:36:40.613 设备发送:03 03 04 04 00 01 C5 19
10:36:42.619 设备接收:FF FF FF FF FF FF FF 03 03 02 00 02 40 45
10:36:42.634 设备发送:04 03 04 84 00 04 05 45
10:36:44.635 设备接收:FF FF FF FF FF FF FF
10:36:44.666 设备发送:04 03 04 8D 00 21 14 9C
10:36:46.666 设备接收:FF FF FF FF FF FF 04 03 42 09 1F 1B F7 00 00 00 00 00 00 00 00 00 00 00 00 00 00 00 00 00 00 09 0C 1B E9 00 00 00 00 00 00 00 00 00 00 00 00 00 00 00 00 00 00 09 2B 1B E7 00 00 00 00 00 00 00 00 00 00 00 00 00 00 00 00 00 00 A3 77
10:36:46.682 设备发送:04 03 06 84 00 04 04 FD
10:36:48.657 设备接收:FF FF FF FF FF FF
10:36:48.703 设备发送:04 03 04 04 00 01 C4 AE
10:36:50.683 设备接收:FF FF FF FF FF FF FF
10:36:50.698 设备发送:05 03 04 84 00 04 04 94
10:36:52.728 设备接收:FF FF FF FF FF FF FF
10:36:52.743 设备发送:05 03 04 8D 00 21 15 4D
10:36:54.734 设备接收:FF FF FF FF FF FF FF FF 05 03 42 09 19 17 AC 00 00 00 00 00 00 00 00 00 00 00 00 00 00 00 00 00 00 09 24 17 9E 00 00 00 00 00 00 00 00 00 00 00 00 00 00 00 00 00 00 09 26 17 A7 00 00 00 00 00 00 00 00 00 00 00 00 00 00 00 00 00 00 1E 22
10:36:54.750 设备发送:05 03 06 84 00 04 05 2C
10:36:56.762 设备接收:FF FF FF 7F FF FF FF 92
10:36:56.778 设备发送:05 03 04 04 00 01 C5 7F
10:36:58.777 设备发送:05 03 04 04 00 01 C5 7F
10:37:00.816 设备发送:05 03 04 04 00 01 C5 7F
10:37:02.833 设备发送:06 03 04 84 00 04 04 A7
10:37:04.846 设备接收:FF FF FF 06 03 08 13 89 10 15 FF A0 10 16 65 19
10:37:04.861 设备发送:06 03 04 8D 00 21 15 7E
10:37:06.841 设备接收:FF FF FF FF FF FF FF 06 03 42 09 1C 17 0C 00 00 00 00 00 00 00 00 00 00 00 00 00 00 00 00 00 00 09 23 17 08 00 00 00 00 00 00 00 00 00 00 00 00 00 00 00 00 00 00 09 27 17 1F 00 00 00 00 00 00 00 00 00 00 00 00 00 00 00 00 00 00 AE 9B
10:37:06.887 设备发送:06 03 06 84 00 04 05 1F
10:37:08.885 设备接收:FF FF FF 06 03 08 00 00 14 62 00 0E 2B D5 CB D3
10:37:08.900 设备发送:06 03 04 04 00 01 C5 4C
10:37:10.923 设备发送:06 03 04 04 00 01 C5 4C
10:37:12.920 设备发送:06 03 04 04 00 01 C5 4C
10:37:14.958 设备发送:07 03 04 84 00 04 05 76
10:37:16.948 设备接收:FF FF FF FF FF FF FF FF 07 03 08 13 89 08 9B FF E9 08 9B 11 91
10:37:16.980 设备发送:07 03 04 8D 00 21 14 AF
10:37:18.979 设备接收:FF FF FF FF FF FF FF 07 03 42 09 1D 0C 5B 00 00 00 00 00 00 00 00 00 00 00 00 00 00 00 00 00 00 09 15 0C 64 00 00 00 00 00 00 00 00 00 00 00 00 00 00 00 00 00 00 09 1B 0C 5A 00 00 00 00 00 00 00 00 00 00 00 00 00 00 00 00 00 00 96 A3
10:37:18.994 设备发送:07 03 06 84 00 04 04 CE
10:37:20.989 设备接收:FF FF FF FF FF FF FF 07 03 08 00 00 0B 28 00 07 07 66 D9 F9
10:37:21.036 设备发送:07 03 04 04 00 01 C4 9D
10:37:23.017 设备接收:FF FF FF FF FF FF FF 07 03 02 00 02 B1 85
10:37:23.033 设备发送:08 03 04 84 00 04 05 89
10:37:25.040 设备接收:FF FF FF FF FF FF 08 03 08 13 8A 12 64 00 1D 12 64 3E 6D
10:37:25.055 设备发送:08 03 04 8D 00 21 14 50
10:37:27.052 设备接收:FF FF FF FF FF FF FF 08 03 42 09 0F 1A 86 00 00 00 00 00 00 00 00 00 00 00 00 00 00 00 00 00 00 09 02 1A 83 00 00 00 00 00 00 00 00 00 00 00 00 00 00 00 00 00 00 09 14 1A 9B 00 00 00 00 00 00 00 00 00 00 00 00 00 00 00 00 00 00 87 28
10:37:27.068 设备发送:08 03 06 84 00 04 04 31
10:37:29.092 设备接收:FF FF FF FF FF FF FF 08 03 08 00 00 16 D5 00 0F 50 41 78 5C
10:37:29.108 设备发送:08 03 04 04 00 01 C4 62
10:37:31.084 设备接收:FF FF FF FF FF FF FF 08 03 02 00 02 E5 84
10:37:31.100 设备发送:09 03 04 84 00 04 04 58
10:37:33.104 设备接收:FF FF FF FF FF FF FF FF 09 03 08 13 8A 10 AB FF DB 10 AC BF BC
10:37:33.120 设备发送:09 03 04 8D 00 21 15 81
10:37:35.131 设备接收:FF FF FF FF FF FF FF 09 03 42 09 13 17 F3 00 00 00 00 00 00 00 00 00 00 00 00 00 00 00 00 00 00 09 07 18 02 00 00 00 00 00 00 00 00 00 00 00 00 00 00 00 00 00 00 09 1B 17 FD 00 00 00 00 00 00 00 00 00 00 00 00 00 00 00 00 00 00 91 CD
10:37:35.147 设备发送:09 03 06 84 00 04 05 E0
10:37:37.147 设备接收:FF FF FF FF FF FF FF 09 03 08 00 00 14 77 00 0D EF 4B D5 6C
10:37:37.193 设备发送:09 03 04 04 00 01 C5 B3
10:37:39.186 设备接收:FF FF FF FF FF FF FF 09 03 02 00 02 D8 44
10:37:39.203 设备发送:0A 03 04 84 00 04 04 6B
10:37:41.15900

