10:19:44.559 设备接收:FF FF FF FF FF FF FF
10:19:44.568 设备发送:05 03 04 8D 00 21 15 4D
10:19:46.581 设备接收:FF FF FF FF FF FF FF FF 05 03 42 09 11 16 F6 00 00 00 00 00 00 00 00 00 00 00 00 00 00 00 00 00 00 09 1F 16 E8 00 00 00 00 00 00 00 00 00 00 00 00 00 00 00 00 00 00 09 21 16 F2 00 00 00 00 00 00 00 00 00 00 00 00 00 00 00 00 00 00 0A B6
10:19:46.596 设备发送:05 03 06 84 00 04 05 2C
10:19:48.573 设备接收:FF FF FF FF FF FF 5F F1
10:19:48.621 设备发送:05 03 04 04 00 01 C5 7F
10:19:50.603 设备接收:FF FF FF 09 5F 47 CF
10:19:50.650 设备发送:06 03 04 84 00 04 04 A7
10:19:52.644 设备接收:FF FF FF
10:19:52.659 设备发送:06 03 04 8D 00 21 15 7E
10:19:54.647 设备接收:FF FF FF FF FF FF FF 06 03 42 09 15 16 6D 00 00 00 00 00 00 00 00 00 00 00 00 00 00 00 00 00 00 09 1E 16 64 00 00 00 00 00 00 00 00 00 00 00 00 00 00 00 00 00 00 09 23 16 86 00 00 00 00 00 00 00 00 00 00 00 00 00 00 00 00 00 00 B0 A4
10:19:54.656 设备发送:06 03 06 84 00 04 05 1F
10:19:56.668 设备接收:FF FF FF
10:19:56.684 设备发送:06 03 04 04 00 01 C5 4C
10:19:58.697 设备发送:06 03 04 04 00 01 C5 4C
10:20:00.741 设备发送:06 03 04 04 00 01 C5 4C
10:20:02.762 设备发送:07 03 04 84 00 04 05 76
10:20:04.756 设备接收:FF FF FF FF FF FF FF FF 07 03 08 13 89 08 39 FF D7 08 3B 89 FC
10:20:04.771 设备发送:07 03 04 8D 00 21 14 AF
10:20:06.779 设备接收:FF FF FF FF FF FF FF 07 03 42 09 16 0B CE 00 00 00 00 00 00 00 00 00 00 00 00 00 00 00 00 00 00 09 10 0B D4 00 00 00 00 00 00 00 00 00 00 00 00 00 00 00 00 00 00 09 13 0B CC 00 00 00 00 00 00 00 00 00 00 00 00 00 00 00 00 00 00 5E 76
10:20:06.795 设备发送:07 03 06 84 00 04 04 CE
10:20:08.786 设备接收:FF FF FF FF FF FF FF 07 03 08 00 00 08 F5 00 07 07 2E 35 EF
10:20:08.802 设备发送:07 03 04 04 00 01 C4 9D
10:20:10.813 设备接收:FF FF FF FF FF FF FF 07 03 02 00 02 B1 85
10:20:10.828 设备发送:08 03 04 84 00 04 05 89
10:20:12.822 设备接收:FF FF FF FF FF FF 08 03 08 13 87 11 20 FF 98 11 21 F2 6F
10:20:12.869 设备发送:08 03 04 8D 00 21 14 50
10:20:14.850 设备接收:FF FF FF FF FF FF FF 08 03 42 09 09 18 C4 00 00 00 00 00 00 00 00 00 00 00 00 00 00 00 00 00 00 08 FD 18 BD 00 00 00 00 00 00 00 00 00 00 00 00 00 00 00 00 00 00 09 0F 18 D7 00 00 00 00 00 00 00 00 00 00 00 00 00 00 00 00 00 00 FD 13
10:20:14.865 设备发送:08 03 06 84 00 04 04 31
10:20:16.879 设备接收:FF FF FF FF FF FF FF 08 03 08 00 00 12 3E 00 0F 4F CC 95 9A
10:20:16.895 设备发送:08 03 04 04 00 01 C4 62
10:20:18.889 设备接收:FF FF FF FF FF FF FF 08 03 02 00 02 E5 84
10:20:18.905 设备发送:09 03 04 84 00 04 04 58
10:20:20.901 设备接收:FF FF FF FF FF FF FF FF 09 03 08 13 85 0F B2 FF DC 0F B2 66 E8
10:20:20.932 设备发送:09 03 04 8D 00 21 15 81
10:20:22.948 设备接收:FF FF FF FF FF FF FF 09 03 42 09 0C 16 85 00 00 00 00 00 00 00 00 00 00 00 00 00 00 00 00 00 00 09 04 16 96 00 00 00 00 00 00 00 00 00 00 00 00 00 00 00 00 00 00 09 18 16 99 00 00 00 00 00 00 00 00 00 00 00 00 00 00 00 00 00 00 59 34
10:20:22.963 设备发送:09 03 06 84 00 04 05 E0
10:20:24.955 设备接收:FF FF FF FF FF FF FF 09 03 08 00 00 10 45 00 0D EE E0 AD 03
10:20:24.971 设备发送:09 03 04 04 00 01 C5 B3
10:20:26.971 设备接收:FF FF FF FF FF FF FF 09 03 02 00 02 D8 44
10:20:26.986 设备发送:0A 03 04 84 00 04 04 6B
10:20:29.001 设备接收:FF FF FF FF FF FF FF
10:20:29.016 设备发送:0A 03 04 8D 00 21 15 B2
10:20:31.007 设备接收:FF FF FF FF FF FF 0A 03 42 09 18 05 70 00 00 00 00 00 00 00 00 00 00 00 00 00 00 00 00 00 00 09 10 05 72 00 00 00 00 00 00 00 00 00 00 00 00 00 00 00 00 00 00 09 1A 05 6E 00 00 00 00 00 00 00 00 00 00 00 00 00 00 00 00 00 00 D5 A2
10:20:31.023 设备发送:0A 03 06 84 00 04 05 D3
10:20:33.033 设备接收:FF FF FF FF FF FF
10:20:33.051 设备发送:0A 03 04 04 00 01 C5 80
10:20:35.043 设备接收:FF FF FF FF FF FF FF
10:20:35.075 设备发送:01 03 04 84 00 04 05 10
10:20:37.081 设备接收:FF FF FF FF FF FF FF FF
10:20:37.097 设备发送:01 03 04 8D 00 21 14 C9
10:20:39.102 设备接收:FF FF FF FF FF FF FF 01 03 42 09 14 1F 8F 00 00 00 00 00 00 00 00 00 00 00 00 00 00 00 00 00 00 09 2B 1F 91 00 00 00 00 00 00 00 00 00 00 00 00 00 00 00 00 00 00 09 26 1F 9B 00 00 00 00 00 00 00 00 00 00 00 00 00 00 00 00 00 00 9C 22
10:20:39.113 设备发送:01 03 06 84 00 04 04 A8
10:20:41.125 设备接收:FF FF FF FF FF FF FF
10:20:41.141 设备发送:01 03 04 04 00 01 C4 FB
10:20:43.127 设备接收:FF FF FF FF FF FF FF
10:20:43.159 设备发送:02 03 04 84 00 04 05 23
10:20:45.157 设备接收:FF FF FF FF FF FF FF
10:20:45.174 设备发送:02 03 04 8D 00 21 14 FA
10:20:47.152 设备接收:FF FF FF FF FF FF 02 03 42 09 14 1E 6F 00 00 00 00 00 00 00 00 00 00 00 00 00 00 00 00 00 00 09 2C 1E 7D 00 00 00 00 00 00 00 00 00 00 00 00 00 00 00 00 00 00 09 21 1E 7B 00 00 00 00 00 00 00 00 00 00 00 00 00 00 00 00 00 00 E6 10
10:20:47.183 设备发送:02 03 06 84 00 04 04 9B
10:20:49.179 设备接收:FF FF FF FF FF FF
10:20:49.225 设备发送:02 03 04 04 00 01 C4 C8
10:20:51.219 设备接收:FF FF FF FF FF FF FF
10:20:51.235 设备发送:03 03 04 84 00 04 04 F2
10:20:53.230 设备接收:FF FF FF FF FF FF FF
10:20:53.246 设备发送:03 03 04 8D 00 21 15 2B
10:20:55.261 设备接收:FF FF FF FF FF FF FF FF 03 03 42 09 14 21 69 00 00 00 00 00 00 00 00 00 00 00 00 00 00 00 00 00 00 09 30 21 55 00 00 00 00 00 00 00 00 00 00 00 00 00 00 00 00 00 00 09 25 21 68 00 00 00 00 00 00 00 00 00 00 00 00 00 00 00 00 00 00 4D FF
10:20:55.276 设备发送:03 03 06 84 00 04 05 4A
10:20:57.256 设备接收:FF FF FF FF FF FF FF FF
10:20:57.303 设备发送:03 03 04 04 00 01 C5 19
10:20:59.284 设备接收:FF FF FF FF FF FF FF
10:20:59.315 设备发送:04 03 04 84 00 04 05 45
10:21:01.322 设备接收:FF FF FF FF FF FF FF
10:21:01.337 设备发送:04 03 04 8D 00 21 14 9C
10:21:03.314 设备接收:FF FF FF FF FF FF 04 03 42 09 1C 1B D0 00 00 00 00 00 00 00 00 00 00 00 00 00 00 00 00 00 00 09 0A 1B C5 00 00 00 00 00 00 00 00 00 00 00 00 00 00 00 00 00 00 09 27 1B C4 00 00 00 00 00 00 00 00 00 00 00 00 00 00 00 00 00 00 63 F9
10:21:03.345 设备发送:04 03 06 84 00 04 04 FD
10:21:05.362 设备接收:FF FF FF FF FF FF
10:21:05.378 设备发送:04 03 04 04 00 01 C4 AE

