
08:28:58.909 设备发送:01 03 04 8D 00 21 14 C9
08:29:01.928 设备发送:01 03 04 8D 00 21 14 C9
08:29:04.962 设备发送:01 03 04 8D 00 21 14 C9
08:29:07.972 设备发送:01 03 06 84 00 04 04 A8
08:29:10.991 设备发送:01 03 06 84 00 04 04 A8
08:29:14.020 设备发送:01 03 06 84 00 04 04 A8
08:29:17.044 设备发送:01 03 04 04 00 01 C4 FB
08:29:20.049 设备发送:01 03 04 04 00 01 C4 FB
08:29:23.062 设备发送:01 03 04 04 00 01 C4 FB
08:29:26.105 设备发送:02 03 04 84 00 04 05 23
08:29:29.116 设备发送:02 03 04 84 00 04 05 23
08:29:32.131 设备发送:02 03 04 84 00 04 05 23
08:29:35.160 设备发送:02 03 04 8D 00 21 14 FA
08:29:38.155 设备发送:02 03 04 8D 00 21 14 FA
08:29:41.197 设备发送:02 03 04 8D 00 21 14 FA
08:29:44.195 设备发送:02 03 06 84 00 04 04 9B
08:29:47.235 设备发送:02 03 06 84 00 04 04 9B
08:29:50.243 设备发送:02 03 06 84 00 04 04 9B
08:29:53.268 设备发送:02 03 04 04 00 01 C4 C8
08:29:56.281 设备发送:02 03 04 04 00 01 C4 C8
08:29:59.308 设备发送:02 03 04 04 00 01 C4 C8
08:30:02.321 设备发送:03 03 04 84 00 04 04 F2
08:30:05.346 设备发送:03 03 04 84 00 04 04 F2
08:30:08.370 设备发送:03 03 04 84 00 04 04 F2
08:30:11.387 设备发送:03 03 04 8D 00 21 15 2B
08:30:14.413 设备发送:03 03 04 8D 00 21 15 2B
08:30:17.432 设备发送:03 03 04 8D 00 21 15 2B
08:30:20.433 设备发送:03 03 06 84 00 04 05 4A
08:30:23.469 设备发送:03 03 06 84 00 04 05 4A
08:30:26.471 设备发送:03 03 06 84 00 04 05 4A
08:30:29.512 设备发送:03 03 04 04 00 01 C5 19
08:30:32.542 设备发送:03 03 04 04 00 01 C5 19
08:30:35.538 设备发送:03 03 04 04 00 01 C5 19
08:30:38.563 设备发送:04 03 04 84 00 04 05 45
08:30:41.594 设备发送:04 03 04 84 00 04 05 45
08:30:44.617 设备发送:04 03 04 84 00 04 05 45
08:30:47.646 设备发送:04 03 04 8D 00 21 14 9C
08:30:50.627 设备发送:04 03 04 8D 00 21 14 9C
08:30:53.653 设备发送:04 03 04 8D 00 21 14 9C
08:30:56.710 设备发送:04 03 06 84 00 04 04 FD
08:30:59.708 设备发送:04 03 06 84 00 04 04 FD
08:31:02.728 设备发送:04 03 06 84 00 04 04 FD
08:31:05.729 设备发送:04 03 04 04 00 01 C4 AE
08:31:08.784 设备发送:04 03 04 04 00 01 C4 AE
08:31:11.804 设备发送:04 03 04 04 00 01 C4 AE
08:31:14.786 设备发送:05 03 04 84 00 04 04 94
08:31:17.830 设备发送:05 03 04 84 00 04 04 94
08:31:20.828 设备接收:05 03 08 13 8C 04 EC 00 03 04 EC EF 28 FF FF FF FF FF FF FF FF FF FF FF FF FF FF FF FF FF FF FF FF FF FF FF FF FF FF FF FF FF FF FF FF FF FF FF FF FF FF FF FF FF FF FF FF FF FF FF FF FF FF FF FF FF FF FF FF FF FF FF FF FF FF FF FF FF FF FF FF FF FF FF FF FF FF FF FF FF FF FF FF FF FF FF FF FF FF FF FF FF FF FF FF FF FF FF FF FF FF FF FF FF FF FF FF FF FF FF FF FF FF FF FF FF FF FF FF FF FF FF FF FF FF FF FF FF FF FF FF FF FF FF FF FF FF FF FF FF
08:31:20.858 设备发送:05 03 04 8D 00 21 15 4D
08:31:23.851 设备接收:FF FF FF FF FF FF FF FF FF FF FF FF FF FF FF FF FF FF FF FF FF FF FF FF FF FF FF FF FF FF FF FF FF FF FF FF FF FF FF FF FF FF FF FF FF FF FF FF FF FF FF FF FF FF FF FF FF FF FF FF FF FF FF FF FF FF FF FF FF FF FF FF FF FF FF FF FF FF FF FF FF FF FF FF FF FF FF FF FF FF FF FF FF FF FF FF FF FF FF FF FF FF FF FF FF FF FF FF FF FF FF FF FF FF FF FF FF FF FF FF FF FF FF FF FF FF FF FF FF FF FF FF FF FF FF FF FF FF FF FF FF FF FF FF FF FF FF FF FF FF
08:31:23.866 设备发送:05 03 06 84 00 04 05 2C
08:31:26.885 设备接收:FF FF FF FF FF FF FF FF FF FF FF FF FF FF FF FF FF FF FF FF FF FF FF FF FF FF FF FF FF FF FF FF FF FF FF FF FF FF FF FF FF FF FF FF FF FF FF FF FF FF FF FF FF FF FF FF FF FF FF FF FF FF FF FF FF FF FF FF FF FF FF FF FF FF FF FF FF FF FF FF FF FF FF FF FF FF FF FF FF FF FF FF FF FF FF FF FF FF FF FF FF FF FF FF FF FF FF FF FF FF FF FF FF FF FF FF FF FF FF FF FF FF FF FF FF FF FF FF FF FF FF FF FF FF FF FF FF FF FF FF FF FF FF FF FF FF FF FF FF FF
08:31:26.901 设备发送:05 03 04 04 00 01 C5 7F
08:31:29.889 设备接收:FF FF FF FF FF FF FF FF FF FF FF FF FF FF FF FF FF FF FF FF FF FF FF FF FF FF FF FF FF FF FF FF FF FF FF FF FF FF FF FF FF FF FF FF FF FF FF FF FF FF FF FF FF FF FF FF FF FF FF FF FF FF FF FF FF FF FF FF FF FF FF FF FF FF FF FF FF FF FF FF FF FF FF FF FF FF FF FF FF FF FF FF FF FF FF FF FF FF FF FF FF FF FF FF FF FF FF FF FF FF FF FF FF FF FF FF FF FF FF FF FF FF FF FF FF FF FF FF FF FF FF FF FF FF FF FF FF FF FF FF FF FF FF FF FF FF FF FF FF FF
08:31:29.905 设备发送:06 03 04 84 00 04 04 A7
08:31:32.916 设备接收:FF FF FF FF FF FF FF FF FF FF FF FF FF FF FF FF FF FF FF FF FF FF FF FF FF FF FF FF FF FF FF FF FF FF FF FF FF FF FF FF FF FF FF FF FF FF FF FF FF FF FF FF FF FF FF FF FF FF FF FF FF FF FF FF FF FF FF FF FF FF FF FF FF FF FF FF FF FF FF FF FF FF FF FF FF FF FF FF FF FF FF FF FF FF FF FF FF FF FF FF FF FF FF FF FF FF FF FF FF FF FF FF FF FF FF FF FF FF FF FF FF FF FF FF FF FF FF FF FF FF FF FF FF FF FF FF FF FF FF FF FF FF FF FF FF FF FF FF FF FF
08:31:32.931 设备发送:06 03 04 8D 00 21 15 7E
08:31:35.918 设备接收:FF FF FF FF FF FF FF FF FF FF FF FF FF FF FF FF FF FF FF FF FF FF FF FF FF FF FF FF FF FF FF FF FF FF FF FF FF FF FF FF FF FF FF FF FF FF FF FF FF FF FF FF FF FF FF FF FF FF FF FF FF FF FF FF FF FF FF FF FF FF FF FF FF FF FF FF FF FF FF FF FF FF FF FF FF FF FF FF FF FF FF FF FF FF FF FF FF FF FF FF FF FF FF FF FF FF FF FF FF FF FF FF FF FF FF FF FF FF FF FF FF FF FF FF FF FF FF FF FF FF FF FF FF FF FF FF FF FF FF FF FF FF FF FF FF FF FF FF FF FF
08:31:35.934 设备发送:06 03 06 84 00 04 05 1F
08:31:38.946 设备接收:FF FF FF FF FF FF FF FF FF FF FF FF FF FF FF FF FF FF FF FF FF FF FF FF FF FF FF FF FF FF FF FF FF FF FF FF FF FF FF FF FF FF FF FF FF FF FF FF FF FF FF FF FF FF FF FF FF FF FF FF FF FF FF FF FF FF FF FF FF FF FF FF FF FF FF FF FF FF FF FF FF FF FF FF FF FF FF FF FF FF FF FF FF FF FF FF FF FF FF FF FF FF FF FF FF FF FF FF FF FF FF FF FF FF FF FF FF FF FF FF FF FF FF FF FF FF FF FF FF FF FF FF FF FF FF FF FF FF FF FF FF FF FF FF FF FF FF FF FF FF
08:31:38.961 设备发送:06 03 04 04 00 01 C5 4C
08:31:41.989 设备接收:FF FF FF FF FF FF FF FF FF FF FF FF FF FF FF FF FF FF FF FF FF FF FF FF FF FF FF FF FF FF FF FF FF FF FF FF FF FF FF FF FF FF FF FF FF FF FF FF FF FF FF FF FF FF FF FF FF FF FF FF FF FF FF FF FF FF FF FF FF FF FF FF FF FF FF FF FF FF FF FF FF FF FF FF FF FF FF FF FF FF FF FF FF FF FF FF FF FF FF FF FF FF FF FF FF FF FF FF FF FF FF FF FF FF FF FF FF FF FF FF FF FF FF FF FF FF FF FF FF FF FF FF FF FF FF FF FF FF FF FF FF FF FF FF FF FF FF FF FF FF
08:31:42.003 设备发送:07 03 04 84 00 04 05 76
08:31:44.999 设备接收:FF FF FF FF FF FF FF FF FF FF FF FF FF FF FF FF FF FF FF FF FF FF FF FF FF FF FF FF FF FF FF FF FF FF FF FF FF FF FF FF FF FF FF FF FF FF FF FF FF FF FF FF FF FF FF FF FF FF FF FF FF FF FF FF FF FF FF FF FF FF FF FF FF FF FF FF FF FF FF FF FF FF FF FF FF FF FF FF FF FF FF FF FF FF FF FF FF FF FF FF FF FF FF FF FF FF FF FF FF FF FF FF FF FF FF FF FF FF FF FF FF FF FF FF FF FF FF FF FF FF FF FF FF FF FF FF FF FF FF FF FF FF FF FF FF FF FF FF FF FF
08:31:45.013 设备发送:07 03 04 8D 00 21 14 AF
08:31:48.011 设备接收:FF FF FF FF FF FF FF FF FF FF FF FF FF FF FF FF FF FF FF FF FF FF FF FF FF FF FF FF FF FF FF FF FF FF FF FF FF FF FF FF FF FF FF FF FF FF FF FF FF FF FF FF FF FF FF FF FF FF FF FF FF FF FF FF FF FF FF FF FF FF FF FF FF FF FF FF FF FF FF FF FF FF FF FF FF FF FF FF FF FF FF FF FF FF FF FF FF FF FF FF FF FF FF FF FF FF FF FF FF FF FF FF FF FF FF FF FF FF FF FF FF FF FF FF FF FF FF FF FF FF FF FF FF FF FF FF FF FF FF FF FF FF FF FF FF FF FF FF FF FF
08:31:48.026 设备发送:07 03 06 84 00 04 04 CE
08:31:51.024 设备接收:FF FF FF FF FF FF FF FF FF FF FF FF FF FF FF FF FF FF FF FF FF FF FF FF FF FF FF FF FF FF FF FF FF FF FF FF FF FF FF FF FF FF FF FF FF FF FF FF FF FF FF FF FF FF FF FF FF FF FF FF FF FF FF FF FF FF FF FF FF FF FF FF FF FF FF FF FF FF FF FF FF FF FF FF FF FF FF FF FF FF FF FF FF FF FF FF FF FF FF FF FF FF FF FF FF FF FF FF FF FF FF FF FF FF FF FF FF FF FF FF FF FF FF FF FF FF FF FF FF FF FF FF FF FF FF FF FF FF FF FF FF FF FF FF FF FF FF FF FF FF
08:31:51.039 设备发送:07 03 04 04 00 01 C4 9D
08:31:54.030 设备接收:FF FF FF FF FF FF FF FF FF FF FF FF FF FF FF FF FF FF FF FF FF FF FF FF FF FF FF FF FF FF FF FF FF FF FF FF FF FF FF FF FF FF FF FF FF FF FF FF FF FF FF FF FF FF FF FF FF FF FF FF FF FF FF FF FF FF FF FF FF FF FF FF FF FF FF FF FF FF FF FF FF FF FF FF FF FF FF FF FF FF FF FF FF FF FF FF FF FF FF FF FF FF FF FF FF FF FF FF FF FF FF FF FF FF FF FF FF FF FF FF FF FF FF FF FF FF FF FF FF FF FF FF FF FF FF FF FF FF FF FF FF FF FF FF FF FF FF FF FF FF
08:31:54.061 设备发送:08 03 04 84 00 04 05 89
08:31:57.049 设备接收:FF FF FF FF FF FF FF FF FF FF FF FF FF FF FF FF FF FF FF FF FF FF FF FF FF FF FF FF FF FF FF FF FF FF FF FF FF FF FF FF FF FF FF FF FF FF FF FF FF FF FF FF FF FF FF FF FF FF FF FF FF FF FF FF FF FF FF FF FF FF FF FF FF FF FF FF FF FF FF FF FF FF FF FF FF FF FF FF FF FF FF FF FF FF FF FF FF FF FF FF FF FF FF FF FF FF FF FF FF FF FF FF FF FF FF FF FF FF FF FF FF FF FF FF FF FF FF FF FF FF FF FF FF FF FF FF FF FF FF FF FF FF FF FF FF FF FF FF FF FF
08:31:57.081 设备发送:08 03 04 8D 00 21 14 50
08:32:00.105 设备接收:FF FF FF FF FF FF FF FF FF FF FF FF FF FF FF FF FF FF FF FF FF FF FF FF FF FF FF FF FF FF FF FF FF FF FF FF FF FF FF FF FF FF FF FF FF FF FF FF FF FF FF FF FF FF FF FF FF FF FF FF FF FF FF FF FF FF FF FF FF FF FF FF FF FF FF FF FF FF FF FF FF FF FF FF FF FF FF FF FF FF FF FF FF FF FF FF FF FF FF FF FF FF FF FF FF FF FF FF FF FF FF FF FF FF FF FF FF FF FF FF FF FF FF FF FF FF FF FF FF FF FF FF FF FF FF FF FF FF FF FF FF FF FF FF FF FF FF FF FF FF
08:32:00.121 设备发送:08 03 06 84 00 04 04 31
08:32:03.117 设备接收:FF FF FF FF FF FF FF FF FF FF FF FF FF FF FF FF FF FF FF FF FF FF FF FF FF FF FF FF FF FF FF FF FF FF FF FF FF FF FF FF FF FF FF FF FF FF FF FF FF FF FF FF FF FF FF FF FF FF FF FF FF FF FF FF FF FF FF FF FF FF FF FF FF FF FF FF FF FF FF FF FF FF FF FF FF FF FF FF FF FF FF FF FF FF FF FF FF FF FF FF FF FF FF FF FF FF FF FF FF FF FF FF FF FF FF FF FF FF FF FF FF FF FF FF FF FF FF FF FF FF FF FF FF FF FF FF FF FF FF FF FF FF FF FF FF FF FF FF FF FF
08:32:03.133 设备发送:08 03 04 04 00 01 C4 62
08:32:06.132 设备接收:FF FF FF FF FF FF FF FF FF FF FF FF FF FF FF FF FF FF FF FF FF FF FF FF FF FF FF FF FF FF FF FF FF FF FF FF FF FF FF FF FF FF FF FF FF FF FF FF FF FF FF FF FF FF FF FF FF FF FF FF FF FF FF FF FF FF FF FF FF FF FF FF FF FF FF FF FF FF FF FF FF FF FF FF FF FF FF FF FF FF FF FF FF FF FF FF FF FF FF FF FF FF FF FF FF FF FF FF FF FF FF FF FF FF FF FF FF FF FF FF FF FF FF FF FF FF FF FF FF FF FF FF FF FF FF FF FF FF FF FF FF FF FF FF FF FF FF FF FF FF
08:32:06.148 设备发送:09 03 04 84 00 04 04 58
08:32:09.147 设备接收:FF FF FF FF FF FF FF FF FF FF FF FF FF FF FF FF FF FF FF FF FF FF FF FF FF FF FF FF FF FF FF FF FF FF FF FF FF FF FF FF FF FF FF FF FF FF FF FF FF FF FF FF FF FF FF FF FF FF FF FF FF FF FF FF FF FF FF FF FF FF FF FF FF FF FF FF FF FF FF FF FF FF FF FF FF FF FF FF FF FF FF FF FF FF FF FF FF FF FF FF FF FF FF FF FF FF FF FF FF FF FF FF FF FF FF FF FF FF FF FF FF FF FF FF FF FF FF FF FF FF FF FF FF FF FF FF FF FF FF FF FF FF FF FF FF FF FF FF FF FF
08:32:09.194 设备发送:09 03 04 8D 00 21 15 81
08:32:12.176 设备接收:FF FF FF FF FF FF FF FF FF FF FF FF FF FF FF FF FF FF FF FF FF FF FF FF FF FF FF FF FF FF FF FF FF FF FF FF FF FF FF FF FF FF FF FF FF FF FF FF FF FF FF FF FF FF FF FF FF FF FF FF FF FF FF FF FF FF FF FF FF FF FF FF FF FF FF FF FF FF FF FF FF FF FF FF FF FF FF FF FF FF FF FF FF FF FF FF FF FF FF FF FF FF FF FF FF FF FF FF FF FF FF FF FF FF FF FF FF FF FF FF FF FF FF FF FF FF FF FF FF FF FF FF FF FF FF FF FF FF FF FF FF FF FF FF FF FF FF FF FF FF
08:32:12.191 设备发送:09 03 06 84 00 04 05 E0
08:32:15.187 设备接收:FF FF FF FF FF FF FF FF FF FF FF FF FF FF FF FF FF FF FF FF FF FF FF FF FF FF FF FF FF FF FF FF FF FF FF FF FF FF FF FF FF FF FF FF FF FF FF FF FF FF FF FF FF FF FF FF FF FF FF FF FF FF FF FF FF FF FF FF FF FF FF FF FF FF FF FF FF FF FF FF FF FF FF FF FF FF FF FF FF FF FF FF FF FF FF FF FF FF FF FF FF FF FF FF FF FF FF FF FF FF FF FF FF FF FF FF FF FF FF FF FF FF FF FF FF FF FF FF FF FF FF FF FF FF FF FF FF FF FF FF FF FF FF FF FF FF FF FF FF FF
08:32:15.203 设备发送:09 03 04 04 00 01 C5 B3
08:32:18.213 设备接收:FF FF FF FF FF FF FF FF FF FF FF FF FF FF FF FF FF FF FF FF FF FF FF FF FF FF FF FF FF FF FF FF FF FF FF FF FF FF FF FF FF FF FF FF FF FF FF FF FF FF FF FF FF FF FF FF FF FF FF FF FF FF FF FF FF FF FF FF FF FF FF FF FF FF FF FF FF FF FF FF FF FF FF FF FF FF FF FF FF FF FF FF FF FF FF FF FF FF FF FF FF FF FF FF FF FF FF FF FF FF FF FF FF FF FF FF FF FF FF FF FF FF FF FF FF FF FF FF FF FF FF FF FF FF FF FF FF FF FF FF FF FF FF FF FF FF FF FF FF FF
08:32:18.229 设备发送:0A 03 04 84 00 04 04 6B
08:32:21.221 设备接收:FF FF FF FF FF FF FF FF FF FF FF FF FF FF FF FF FF FF FF FF FF FF FF FF FF FF FF FF FF FF FF FF FF FF FF FF FF FF FF FF FF FF FF FF FF FF FF FF FF FF FF FF FF FF FF FF FF FF FF FF FF FF FF FF FF FF FF FF FF FF FF FF FF FF FF FF FF FF FF FF FF FF FF FF FF FF FF FF FF FF FF FF FF FF FF FF FF FF FF FF FF FF FF FF FF FF FF FF FF FF FF FF FF FF FF FF FF FF FF FF FF FF FF FF FF FF FF FF FF FF FF FF FF FF FF FF FF FF FF FF FF FF FF FF FF FF FF FF FF FF
08:32:21.237 设备发送:0A 03 04 8D 00 21 15 B2
08:32:24.262 设备接收:FF FF FF FF FF FF FF FF FF FF FF FF FF FF FF FF FF FF FF FF FF FF FF FF FF FF FF FF FF FF FF FF FF FF FF FF FF FF FF FF FF FF FF FF FF FF FF FF FF FF FF FF FF FF FF FF FF FF FF FF FF FF FF FF FF FF FF FF FF FF FF FF FF FF FF FF FF FF FF FF FF FF FF FF FF FF FF FF FF FF FF FF FF FF FF FF FF FF FF FF FF FF FF FF FF FF FF FF FF FF FF FF FF FF FF FF FF FF FF FF FF FF FF FF FF FF FF FF FF FF FF FF FF FF FF FF FF FF FF FF FF FF FF FF FF FF FF FF FF FF
08:32:24.277 设备发送:0A 03 06 84 00 04 05 D3
08:32:27.285 设备接收:FF FF FF FF FF FF FF FF FF FF FF FF FF FF FF FF FF FF FF FF FF FF FF FF FF FF FF FF FF FF FF FF FF FF FF FF FF FF FF FF FF FF FF FF FF FF FF FF FF FF FF FF FF FF FF FF FF FF FF FF FF FF FF FF FF FF FF FF FF FF FF FF FF FF FF FF FF FF FF FF FF FF FF FF FF FF FF FF FF FF FF FF FF FF FF FF FF FF FF FF FF FF FF FF FF FF FF FF FF FF FF FF FF FF FF FF FF FF FF FF FF FF FF FF FF FF FF FF FF FF FF FF FF FF FF FF FF FF FF FF FF FF FF FF FF FF FF FF FF FF
08:32:27.301 设备发送:0A 03 04 04 00 01 C5 80
08:32:30.300 设备接收:FF FF FF FF FF FF FF FF FF FF FF FF FF FF FF FF FF FF FF FF FF FF FF FF FF FF FF FF FF FF FF FF FF FF FF FF FF FF FF FF FF FF FF FF FF FF FF FF FF FF FF FF FF FF FF FF FF FF FF FF FF FF FF FF FF FF FF FF FF FF FF FF FF FF FF FF FF FF FF FF FF FF FF FF FF FF FF FF FF FF FF FF FF FF FF FF FF FF FF FF FF FF FF FF FF FF FF FF FF FF FF FF FF FF FF FF FF FF FF FF FF FF FF FF FF FF FF FF FF FF FF FF FF FF FF FF FF FF FF FF FF FF FF FF FF FF FF FF FF FF
08:32:30.316 设备发送:01 03 04 84 00 04 05 10
08:32:33.291 设备接收:FF FF FF FF FF FF FF FF FF FF FF FF FF FF FF FF FF FF FF FF FF FF FF FF FF FF FF FF FF FF FF FF FF FF FF FF FF FF FF FF FF FF FF FF FF FF FF FF FF FF FF FF FF FF FF FF FF FF FF FF FF FF FF FF FF FF FF FF FF FF FF FF FF FF FF FF FF FF FF FF FF FF FF FF FF FF FF FF FF FF FF FF FF FF FF FF FF FF FF FF FF FF FF FF FF FF FF FF FF FF FF FF FF FF FF FF FF FF FF FF FF FF FF 09 03 08 00 00 01 86 00 0D C0 5F B6 43 FF FF FF FF FF FF FF FF FF FF FF FF FF FF
08:32:33.307 设备发送:01 03 04 8D 00 21 14 C9
08:32:36.332 设备接收:FF FF FF FF FF FF FF FF FF FF FF FF FF FF FF FF FF FF FF FF FF FF FF FF FF FF FF FF FF FF FF FF FF FF FF FF FF FF FF FF FF FF FF FF FF FF FF FF FF FF FF FF FF FF FF FF FF FF FF FF FF FF FF FF FF FF FF FF FF FF FF FF FF FF FF FF FF FF FF FF FF FF FF FF FF FF FF FF FF FF FF FF FF FF FF FF FF FF FF FF FF FF FF FF FF FF FF FF FF FF FF FF FF FF FF FF FF FF FF FF FF FF FF FF FF FF FF FF FF FF FF FF FF FF FF FF FF FF FF FF FF FF FF FF FF FF FF FF FF FF
08:32:36.348 设备发送:01 03 06 84 00 04 04 A8
08:32:39.351 设备接收:FF FF FF FF FF FF FF FF FF FF FF FF FF FF FF FF FF FF FF FF FF FF FF FF FF FF FF FF FF FF FF FF FF FF FF FF FF FF FF FF FF FF FF FF FF FF FF FF FF FF FF FF FF FF FF FF FF FF FF FF FF FF FF FF FF FF FF FF FF FF FF FF FF FF FF FF FF FF FF FF FF FF FF FF FF FF FF FF FF FF FF FF FF FF FF FF FF FF FF FF FF FF FF FF FF FF FF FF FF FF FF FF FF FF FF FF FF FF FF FF FF FF FF FF FF FF FF FF FF FF FF FF FF FF FF FF FF FF FF FF FF FF FF FF FF FF FF FF FF FF
08:32:39.366 设备发送:01 03 04 04 00 01 C4 FB
08:32:42.369 设备接收:FF FF FF FF FF FF FF FF FF FF FF FF FF FF FF FF FF FF FF FF FF FF FF FF FF FF FF FF FF FF FF FF FF FF FF FF FF FF FF FF FF FF FF FF FF FF FF FF FF FF FF FF FF FF FF FF FF FF FF FF FF FF FF FF FF FF FF FF FF FF FF FF FF FF FF FF FF FF FF FF FF FF FF FF FF FF FF FF FF FF FF FF FF FF FF FF FF FF FF FF FF FF FF FF FF FF FF FF FF FF FF FF FF FF FF FF FF FF FF FF FF FF FF FF FF FF FF FF FF FF FF FF FF FF FF FF FF FF FF FF FF FF FF FF FF FF FF FF FF FF
08:32:42.399 设备发送:02 03 04 84 00 04 05 23
08:32:45.382 设备接收:FF FF FF FF FF FF FF FF FF FF FF FF FF FF FF FF FF FF FF FF FF FF FF FF FF FF FF FF FF FF FF FF FF FF FF FF FF FF FF FF FF FF FF FF FF FF FF FF FF FF FF FF FF FF FF FF FF FF FF FF FF FF FF FF FF FF FF FF FF FF FF FF FF FF FF FF FF FF FF FF FF FF FF FF FF FF FF FF FF FF FF FF FF FF FF FF FF FF FF FF FF FF FF FF FF FF FF FF FF FF FF FF FF FF FF FF FF FF FF FF FF FF FF FF FF FF FF FF FF FF FF FF FF FF FF FF FF FF FF FF FF FF FF FF FF FF FF FF FF FF
08:32:45.413 设备发送:02 03 04 8D 00 21 14 FA
08:32:48.395 设备接收:FF FF FF FF FF FF FF FF FF FF FF FF FF FF FF FF FF FF FF FF FF FF FF FF FF FF FF FF FF FF FF FF FF FF FF FF FF FF FF FF FF FF FF FF FF FF FF FF FF FF FF FF FF FF FF FF FF FF FF FF FF FF FF FF FF FF FF FF FF FF FF FF FF FF FF FF FF FF FF FF FF FF FF FF FF FF FF FF FF FF FF FF FF FF FF FF FF FF FF FF FF FF FF FF FF FF FF FF FF FF FF FF FF FF FF FF FF FF FF FF FF FF FF FF FF FF FF FF FF FF FF FF FF FF FF FF FF FF FF FF FF FF FF FF FF FF FF FF FF FF
08:32:48.411 设备发送:02 03 06 84 00 04 04 9B
08:32:51.425 设备接收:FF FF FF FF FF FF FF FF FF FF FF FF FF FF FF FF FF FF FF FF FF FF FF FF FF FF FF FF FF FF FF FF FF FF FF FF FF FF FF FF FF FF FF FF FF FF FF FF FF FF FF FF FF FF FF FF FF FF FF FF FF FF FF FF FF FF FF FF FF FF FF FF FF FF FF FF FF FF FF FF FF FF FF FF FF FF FF FF FF FF FF FF FF FF FF FF FF FF FF FF FF FF FF FF FF FF FF FF FF FF FF FF FF FF FF FF FF FF FF FF FF FF FF FF FF FF FF FF FF FF FF FF FF FF FF FF FF FF FF FF FF FF FF FF FF FF FF FF FF FF
08:32:51.440 设备发送:02 03 04 04 00 01 C4 C8
08:32:54.470 设备接收:FF FF FF FF FF FF FF FF FF FF FF FF FF FF FF FF FF FF FF FF FF FF FF FF FF FF FF FF FF FF FF FF FF FF FF FF FF FF FF FF FF FF FF FF FF FF FF FF FF FF FF FF FF FF FF FF FF FF FF FF FF FF FF FF FF FF FF FF FF FF FF FF FF FF FF FF FF FF FF FF FF FF FF FF FF FF FF FF FF FF FF FF FF FF FF FF FF FF FF FF FF FF FF FF FF FF FF FF FF FF FF FF FF FF FF FF FF FF FF FF FF FF FF FF FF FF FF FF FF FF FF FF FF FF FF FF FF FF FF FF FF FF FF FF FF FF FF FF FF FF
08:32:54.486 设备发送:03 03 04 84 00 04 04 F2
08:32:57.453 设备接收:FF FF FF FF FF FF FF FF FF FF FF FF FF FF FF FF FF FF FF FF FF FF FF FF FF FF FF FF FF FF FF FF FF FF FF FF FF FF FF FF FF FF FF FF FF FF FF FF FF FF FF FF FF FF FF FF FF FF FF FF FF FF FF FF FF FF FF FF FF FF FF FF FF FF FF FF FF FF FF FF FF FF FF FF FF FF FF FF FF FF FF FF FF FF FF FF FF FF FF FF FF FF FF FF FF FF FF FF FF FF FF FF FF FF FF FF FF FF FF FF FF FF FF FF FF FF FF FF FF FF FF FF FF FF FF FF FF FF FF FF FF FF FF FF FF FF FF FF FF FF
08:32:57.483 设备发送:03 03 04 8D 00 21 15 2B
08:33:00.477 设备接收:FF FF FF FF FF FF FF FF FF FF FF FF FF FF FF FF FF FF FF FF FF FF FF FF FF FF FF FF FF FF FF FF FF FF FF FF FF FF FF FF FF FF FF FF FF FF FF FF FF FF FF FF FF FF FF FF FF FF FF FF FF FF FF FF FF FF FF FF FF FF FF FF FF FF FF FF FF FF FF FF FF FF FF FF FF FF FF FF FF FF FF FF FF FF FF FF FF FF FF FF FF FF FF FF FF FF FF FF FF FF FF FF FF FF FF FF FF FF FF FF FF FF FF FF FF FF FF FF FF FF FF FF FF FF FF FF FF FF FF FF FF FF FF FF FF FF FF FF FF FF
08:33:00.523 设备发送:03 03 06 84 00 04 05 4A
08:33:03.504 设备接收:FF FF FF FF FF FF FF FF FF FF FF FF FF FF FF FF FF FF FF FF FF FF FF FF FF FF FF FF FF FF FF FF FF FF FF FF FF FF FF FF FF FF FF FF FF FF FF FF FF FF FF FF FF FF FF FF FF FF FF FF FF FF FF FF FF FF FF FF FF FF FF FF FF FF FF FF FF FF FF FF FF FF FF FF FF FF FF FF FF FF FF FF FF FF FF FF FF FF FF FF FF FF FF FF FF FF FF FF FF FF FF FF FF FF FF FF FF FF FF FF FF FF FF FF FF FF FF FF FF FF FF FF FF FF FF FF FF FF FF FF FF FF FF FF FF FF FF FF FF FF
08:33:03.520 设备发送:03 03 04 04 00 01 C5 19
08:33:06.536 设备接收:FF FF FF FF FF FF FF FF FF FF FF FF FF FF FF FF FF FF FF FF FF FF FF FF FF FF FF FF FF FF FF FF FF FF FF FF FF FF FF FF FF FF FF FF FF FF FF FF FF FF FF FF FF FF FF FF FF FF FF FF FF FF FF FF FF FF FF FF FF FF FF FF FF FF FF FF FF FF FF FF FF FF FF FF FF FF FF FF FF FF FF FF FF FF FF FF FF FF FF FF FF FF FF FF FF FF FF FF FF FF FF FF FF FF FF FF FF FF FF FF FF FF FF FF FF FF FF FF FF FF FF FF FF FF FF FF FF FF FF FF FF FF FF FF FF FF FF FF FF FF
08:33:06.552 设备发送:04 03 04 84 00 04 05 45
08:33:09.547 设备接收:FF FF FF FF FF FF FF FF FF FF FF FF FF FF FF FF FF FF FF FF FF FF FF FF FF FF FF FF FF FF FF FF FF FF FF FF FF FF FF FF FF FF FF FF FF FF FF FF FF FF FF FF FF FF FF FF FF FF FF FF FF FF FF FF FF FF FF FF FF FF FF FF FF FF FF FF FF FF FF FF FF FF FF FF FF FF FF FF FF FF FF FF FF FF FF FF FF FF FF FF FF FF FF FF FF FF FF FF FF FF FF FF FF FF FF FF FF FF FF FF FF FF FF FF FF FF FF FF FF FF FF FF FF FF FF FF FF FF FF FF FF FF FF FF FF FF FF FF FF FF
08:33:09.563 设备发送:04 03 04 8D 00 21 14 9C
08:33:12.570 设备接收:FF FF FF FF FF FF FF FF FF FF FF FF FF FF FF FF FF FF FF FF FF FF FF FF FF FF FF FF FF FF FF FF FF FF FF FF FF FF FF FF FF FF FF FF FF FF FF FF FF FF FF FF FF FF FF FF FF FF FF FF FF FF FF FF FF FF FF FF FF FF FF FF FF FF FF FF FF FF FF FF FF FF FF FF FF FF FF FF FF FF FF FF FF FF FF FF FF FF FF FF FF FF FF FF FF FF FF FF FF FF FF FF FF FF FF FF FF FF FF FF FF FF FF FF FF FF FF FF FF FF FF FF FF FF FF FF FF FF FF FF FF FF FF FF FF FF FF FF FF FF
08:33:12.602 设备发送:04 03 06 84 00 04 04 FD
08:33:15.581 设备接收:FF FF FF FF FF FF FF FF FF FF FF FF FF FF FF FF FF FF FF FF FF FF FF FF FF FF FF FF FF FF FF FF FF FF FF FF FF FF FF FF FF FF FF FF FF FF FF FF FF FF FF FF FF FF FF FF FF FF FF FF FF FF FF FF FF FF FF FF FF FF FF FF FF FF FF FF FF FF FF FF FF FF FF FF FF FF FF FF FF FF FF FF FF FF FF FF FF FF FF FF FF FF FF FF FF FF FF FF FF FF FF FF FF FF FF FF FF FF FF FF FF FF FF FF FF FF FF FF FF FF FF FF FF FF FF FF FF FF FF FF FF FF FF FF FF FF FF FF FF FF
08:33:15.596 设备发送:04 03 04 04 00 01 C4 AE
08:33:18.601 设备接收:FF FF FF FF FF FF FF FF FF FF FF FF FF FF FF FF FF FF FF FF FF FF FF FF FF FF FF FF FF FF FF FF FF FF FF FF FF FF FF FF FF FF FF FF FF FF FF FF FF FF FF FF FF FF FF FF FF FF FF FF FF FF FF FF FF FF FF FF FF FF FF FF FF FF FF FF FF FF FF FF FF FF FF FF FF FF FF FF FF FF FF FF FF FF FF FF FF FF FF FF FF FF FF FF FF FF FF FF FF FF FF FF FF FF FF FF FF FF FF FF FF FF FF FF FF FF FF FF FF FF FF FF FF FF FF FF FF FF FF FF FF FF FF FF FF FF FF FF FF FF
08:33:18.616 设备发送:05 03 04 84 00 04 04 94
08:33:21.627 设备接收:FF FF FF FF FF FF FF FF FF FF FF FF FF FF FF FF FF FF FF FF FF FF FF FF FF FF FF FF FF FF FF FF FF FF FF FF FF FF FF FF FF FF FF FF FF FF FF FF FF FF FF FF FF FF FF FF FF FF FF FF FF FF FF FF FF FF FF FF FF FF FF FF FF FF FF FF FF FF FF FF FF FF FF FF FF FF FF FF FF FF FF FF FF FF FF FF FF FF FF FF FF FF FF FF FF FF FF FF FF FF FF FF FF FF FF FF FF FF FF FF FF FF FF FF FF FF FF FF FF FF FF FF FF FF FF FF FF FF FF FF FF FF FF FF FF FF FF FF FF FF
08:33:21.642 设备发送:05 03 04 8D 00 21 15 4D
08:33:24.657 设备接收:FF FF FF FF FF FF FF FF FF FF FF FF FF FF FF FF FF FF FF FF FF FF FF FF FF FF FF FF FF FF FF FF FF FF FF FF FF FF FF FF FF FF FF FF FF FF FF FF FF FF FF FF FF FF FF FF FF FF FF FF FF FF FF FF FF FF FF FF FF FF FF FF FF FF FF FF FF FF FF FF FF FF FF FF FF FF FF FF FF FF FF FF FF FF FF FF FF FF FF FF FF FF FF FF FF FF FF FF FF FF FF FF FF FF FF FF FF FF FF FF FF FF FF FF FF FF FF FF FF FF FF FF FF FF FF FF FF FF FF FF FF FF FF FF FF FF FF FF FF FF
08:33:24.671 设备发送:05 03 06 84 00 04 05 2C
08:33:27.667 设备接收:FF FF FF FF FF FF FF FF FF FF FF FF FF FF FF FF FF FF FF FF FF FF FF FF FF FF FF FF FF FF FF FF FF FF FF FF FF FF FF FF FF FF FF FF FF FF FF FF FF FF FF FF FF FF FF FF FF FF FF FF FF FF FF FF FF FF FF FF FF FF FF FF FF FF FF FF FF FF FF FF FF FF FF FF FF FF FF FF FF FF FF FF FF FF FF FF FF FF FF FF FF FF FF FF FF FF FF FF FF FF FF FF FF FF FF FF FF FF FF FF FF FF FF FF FF FF FF FF FF FF FF FF FF FF FF FF FF FF FF FF FF FF FF FF FF FF FF FF FF FF
08:33:27.702 设备发送:05 03 04 04 00 01 C5 7F
08:33:30.698 设备接收:FF FF FF FF FF FF FF FF FF FF FF FF FF FF FF FF FF FF FF FF FF FF FF FF FF FF FF FF FF FF FF FF FF FF FF FF FF FF FF FF FF FF FF FF FF FF FF FF FF FF FF FF FF FF FF FF FF FF FF FF FF FF FF FF FF FF FF FF FF FF FF FF FF FF FF FF FF FF FF FF FF FF FF FF FF FF FF FF FF FF FF FF FF FF FF FF FF FF FF FF FF FF FF FF FF FF FF FF FF FF FF FF FF FF FF FF FF FF FF FF FF FF FF 55 55 FF FF FF FF FF FF FF FF FF FF FF FF FF FF FF FF FF FF FF FF FF FF FF FF FF
08:33:30.712 设备发送:06 03 04 84 00 04 04 A7
08:33:33.703 设备接收:FF FF FF FF FF FF FF FF FF FF FF FF FF FF FF FF FF FF FF FF FF FF FF FF FF FF FF FF FF FF FF FF FF FF FF FF FF FF FF FF FF FF FF FF FF FF FF FF FF FF FF FF FF FF FF FF FF FF FF FF FF FF FF FF FF FF FF FF FF FF FF FF FF FF FF FF FF FF FF FF FF FF FF FF FF FF FF FF FF FF FF FF FF FF FF FF FF FF FF FF FF FF FF FF FF FF FF FF FF FF FF FF FF FF FF FF FF FF FF FF FF FF FF FF FF FF FF FF FF FF FF FF FF FF FF FF FF FF FF FF FF FF FF FF FF FF FF FF FF FF
08:33:33.718 设备发送:06 03 04 8D 00 21 15 7E
08:33:36.747 设备接收:FF FF FF FF FF FF FF FF FF FF FF FF FF FF FF FF FF FF FF FF FF FF FF FF FF FF FF FF FF FF FF FF FF FF FF FF FF FF FF FF FF FF FF FF FF FF FF FF FF FF FF FF FF FF FF FF FF FF FF FF FF FF FF FF FF FF FF FF FF FF FF FF FF FF FF FF FF FF FF FF FF FF FF FF FF FF FF FF FF FF FF FF FF FF FF FF FF FF FF FF FF FF FF FF FF FF FF FF FF FF FF FF FF FF FF FF FF FF FF FF FF FF FF FF FF FF FF FF FF FF FF FF FF FF FF FF FF FF FF FF FF FF FF FF FF FF FF FF FF FF
08:33:36.762 设备发送:06 03 06 84 00 04 05 1F
08:33:39.739 设备接收:FF FF FF FF FF FF FF FF FF FF FF FF FF FF FF FF FF FF FF FF FF FF FF FF FF FF FF FF FF FF FF FF FF FF FF FF FF FF FF FF FF FF FF FF FF FF FF FF FF FF FF FF FF FF FF FF FF FF FF FF FF FF FF FF FF FF FF FF FF FF FF FF FF FF FF FF FF FF FF FF FF FF FF FF FF FF FF FF FF FF FF FF FF FF FF FF FF FF FF FF FF FF FF FF FF FF FF FF FF FF FF FF FF FF FF FF FF FF FF FF FF FF FF FF FF FF FF FF FF FF FF FF FF FF FF FF FF FF FF FF FF FF FF FF FF FF FF FF FF FF
08:33:39.754 设备发送:06 03 04 04 00 01 C5 4C
08:33:42.776 设备接收:FF FF FF FF FF FF FF FF FF FF FF FF FF FF FF FF FF FF FF FF FF FF FF FF FF FF FF FF FF FF FF FF FF FF FF FF FF FF FF FF FF FF FF FF FF FF FF FF FF FF FF FF FF FF FF FF FF FF FF FF FF FF FF FF FF FF FF FF FF FF FF FF FF FF FF FF FF FF FF FF FF FF FF FF FF FF FF FF FF FF FF FF FF FF FF FF FF FF FF FF FF FF FF FF FF FF FF FF FF FF FF FF FF FF FF FF FF FF FF FF FF FF FF FF FF FF FF FF FF FF FF FF FF FF FF FF FF FF FF FF FF FF FF FF FF FF FF FF FF FF
08:33:42.790 设备发送:07 03 04 84 00 04 05 76
08:33:45.797 设备接收:FF FF FF FF FF FF FF FF FF FF FF FF FF FF FF FF FF FF FF FF FF FF FF FF FF FF FF FF FF FF FF FF FF FF FF FF FF FF FF FF FF FF FF FF FF FF FF FF FF FF FF FF FF FF FF FF FF FF FF FF FF FF FF FF FF FF FF FF FF FF FF FF FF FF FF FF FF FF FF FF FF FF FF FF FF FF FF FF FF FF FF FF FF FF FF FF FF FF FF FF FF FF FF FF FF FF FF FF FF FF FF FF FF FF FF FF FF FF FF FF FF FF FF FF FF FF FF FF FF FF FF FF FF FF FF FF FF FF FF FF FF FF FF FF FF FF FF FF FF FF
08:33:45.813 设备发送:07 03 04 8D 00 21 14 AF
08:33:48.794 设备接收:FF FF FF FF FF FF FF FF FF FF FF FF FF FF FF FF FF FF FF FF FF FF FF FF FF FF FF FF FF FF FF FF FF FF FF FF FF FF FF FF FF FF FF FF FF FF FF FF FF FF FF FF FF FF FF FF FF FF FF FF FF FF FF FF FF FF FF FF FF FF FF FF FF FF FF FF FF FF FF FF FF FF FF FF FF FF FF FF FF FF FF FF FF FF FF FF FF FF FF FF FF FF FF FF FF FF FF FF FF FF FF FF FF FF FF FF FF FF FF FF FF FF FF FF FF FF FF FF FF FF FF FF FF FF FF FF FF FF FF FF FF FF FF FF FF FF FF FF FF FF
08:33:48.808 设备发送:07 03 06 84 00 04 04 CE
08:33:51.813 设备接收:FF FF FF FF FF FF FF FF FF FF FF FF FF FF FF FF FF FF FF FF FF FF FF FF FF FF FF FF FF FF FF FF FF FF FF FF FF FF FF FF FF FF FF FF FF FF FF FF FF FF FF FF FF FF FF FF FF FF FF FF FF FF FF FF FF FF FF FF FF FF FF FF FF FF FF FF FF FF FF FF FF FF FF FF FF FF FF FF FF FF FF FF FF FF FF FF FF FF FF FF FF FF FF FF FF FF FF FF FF FF FF FF FF FF FF FF FF FF FF FF FF FF FF FF FF FF FF FF FF FF FF FF FF FF FF FF FF FF FF FF FF FF FF FF FF FF FF FF FF FF
08:33:51.828 设备发送:07 03 04 04 00 01 C4 9D
08:33:54.838 设备接收:FF FF FF FF FF FF FF FF FF FF FF FF FF FF FF FF FF FF FF FF FF FF FF FF FF FF FF FF FF FF FF FF FF FF FF FF FF FF FF FF FF FF FF FF FF FF FF FF FF FF FF FF FF FF FF FF FF FF FF FF FF FF FF FF FF FF FF FF FF FF FF FF FF FF FF FF FF FF FF FF FF FF FF FF FF FF FF FF FF FF FF FF FF FF FF FF FF FF FF FF FF FF FF FF FF FF FF FF FF FF FF FF FF FF FF FF FF FF FF FF FF FF FF FF FF FF FF FF FF FF FF FF FF FF FF FF FF FF FF FF FF FF FF FF FF FF FF FF FF FF
08:33:54.868 设备发送:08 03 04 84 00 04 05 89
08:33:57.861 设备接收:FF FF FF FF FF FF FF FF FF FF FF FF FF FF FF FF FF FF FF FF FF FF FF FF FF FF FF FF FF FF FF FF FF FF FF FF FF FF FF FF FF FF FF FF FF FF FF FF FF FF FF FF FF FF FF FF FF FF FF FF FF FF FF FF FF FF FF FF FF FF FF FF FF FF FF FF FF FF FF FF FF FF FF FF FF FF FF FF FF FF FF FF FF FF FF FF FF FF FF FF FF FF FF FF FF FF FF FF FF FF FF FF FF FF FF FF FF FF FF FF FF FF FF FF FF FF FF FF FF FF FF FF FF FF FF FF FF FF FF FF FF FF FF FF FF FF FF FF FF FF
08:33:57.870 设备发送:08 03 04 8D 00 21 14 50
08:34:00.881 设备接收:FF FF FF FF FF FF FF FF FF FF FF FF FF FF FF FF FF FF FF FF FF FF FF FF FF FF FF FF FF FF FF FF FF FF FF FF FF FF FF FF FF FF FF FF FF FF FF FF FF FF FF FF FF FF FF FF FF FF FF FF FF FF FF FF FF FF FF FF FF FF FF FF FF FF FF FF FF FF FF FF FF FF FF FF FF FF FF FF FF FF FF FF FF FF FF FF FF FF FF FF FF FF FF FF FF FF FF FF FF FF FF FF FF FF FF FF FF FF FF FF FF FF FF FF FF FF FF FF FF FF FF FF FF FF FF FF FF FF FF FF FF FF FF FF FF FF FF FF FF FF
08:34:00.897 设备发送:08 03 06 84 00 04 04 31
08:34:03.922 设备接收:FF FF FF FF FF FF FF FF FF FF FF FF FF FF FF FF FF FF FF FF FF FF FF FF FF FF FF FF FF FF FF FF FF FF FF FF FF FF FF FF FF FF FF FF FF FF FF FF FF FF FF FF FF FF FF FF FF FF FF FF FF FF FF FF FF FF FF FF FF FF FF FF FF FF FF FF FF FF FF FF FF FF FF FF FF FF FF FF FF FF FF FF FF FF FF FF FF FF FF FF FF FF FF FF FF FF FF FF FF FF FF FF FF FF FF FF FF FF FF FF FF FF FF FF FF FF FF FF FF FF FF FF FF FF FF FF FF FF FF FF FF FF FF FF FF FF FF FF FF FF
08:34:03.954 设备发送:08 03 04 04 00 01 C4 62
08:34:06.921 设备接收:FF FF FF FF FF FF FF FF FF FF FF FF FF FF FF FF FF FF FF FF FF FF FF FF FF FF FF FF FF FF FF FF FF FF FF FF FF FF FF FF FF FF FF FF FF FF FF FF FF FF FF FF FF FF FF FF FF FF FF FF FF FF FF FF FF FF FF FF FF FF FF FF FF FF FF FF FF FF FF FF FF FF FF FF FF FF FF FF FF FF FF FF FF FF FF FF FF FF FF FF FF FF FF FF FF FF FF FF FF FF FF FF FF FF FF FF FF FF FF FF FF FF FF FF FF FF FF FF FF FF FF FF FF FF FF FF FF FF FF FF FF FF FF FF FF FF FF FF FF FF
08:34:06.936 设备发送:09 03 04 84 00 04 04 58
08:34:09.961 设备接收:FF FF FF FF FF FF FF FF FF FF FF FF FF FF FF FF FF FF FF FF FF FF FF FF FF FF FF FF FF FF FF FF FF FF FF FF FF FF FF FF FF FF FF FF FF FF FF FF FF FF FF FF FF FF FF FF FF FF FF FF FF FF FF FF FF FF FF FF FF FF FF FF FF FF FF FF FF FF FF FF FF FF FF FF FF FF FF FF FF FF FF FF FF FF FF FF FF FF FF FF FF FF FF FF FF FF FF FF FF FF FF FF FF FF FF FF FF FF FF FF FF FF FF FF FF FF FF FF FF FF FF FF FF FF FF FF FF FF FF FF FF FF FF FF FF FF FF FF FF FF
08:34:09.977 设备发送:09 03 04 8D 00 21 15 81
08:34:12.971 设备接收:FF FF FF FF FF FF FF FF FF FF FF FF FF FF FF FF FF FF FF FF FF FF FF FF FF FF FF FF FF FF FF FF FF FF FF FF FF FF FF FF FF FF FF FF FF FF FF FF FF FF FF FF FF FF FF FF FF FF FF FF FF FF FF FF FF FF FF FF FF FF FF FF FF FF FF FF FF FF FF FF FF FF FF FF FF FF FF FF FF FF FF FF FF FF FF FF FF FF FF FF FF FF FF FF FF FF FF FF FF FF FF FF FF FF FF FF FF FF FF FF FF FF FF FF FF FF FF FF FF FF FF FF FF FF FF FF FF FF FF FF FF FF FF FF FF FF FF FF FF FF
08:34:12.986 设备发送:09 03 06 84 00 04 05 E0
08:34:15.996 设备接收:FF FF FF FF FF FF FF FF FF FF FF FF FF FF FF FF FF FF FF FF FF FF FF FF FF FF FF FF FF FF FF FF FF FF FF FF FF FF FF FF FF FF FF FF FF FF FF FF FF FF FF FF FF FF FF FF FF FF FF FF FF FF FF FF FF FF FF FF FF FF FF FF FF FF FF FF FF FF FF FF FF FF FF FF FF FF FF FF FF FF FF FF FF FF FF FF FF FF FF FF FF FF FF FF FF FF FF FF FF FF FF FF FF FF FF FF FF FF FF FF FF FF FF FF FF FF FF FF FF FF FF FF FF FF FF FF FF FF FF FF FF FF FF FF FF FF FF FF FF FF
08:34:16.012 设备发送:09 03 04 04 00 01 C5 B3
08:34:19.002 设备接收:FF FF FF FF FF FF FF FF FF FF FF FF FF FF FF FF FF FF FF FF FF FF FF FF FF FF FF FF FF FF FF FF FF FF FF FF FF FF FF FF FF FF FF FF FF FF FF FF FF FF FF FF FF FF FF FF FF FF FF FF FF FF FF FF FF FF FF FF FF FF FF FF FF FF FF FF FF FF FF FF FF FF FF FF FF FF FF FF FF FF FF FF FF FF FF FF FF FF FF FF FF FF FF FF FF FF FF FF FF FF FF FF FF FF FF FF FF FF FF FF FF FF FF 08 03 08 00 00 01 E3 00 0F 1C 85 86 2C 08 03 02 00 02 E5 84 09 03 08 13 8B 04 6B
08:34:19.033 设备发送:0A 03 04 84 00 04 04 6B
08:34:22.021 设备接收:00 00 04 6B A2 C4 09 03 42 08 FF 06 71 00 00 00 00 00 00 00 00 00 00 00 00 00 00 00 00 00 00 08 F2 06 89 00 00 00 00 00 00 00 00 00 00 00 00 00 00 00 00 00 00 08 FF 06 94 00 00 00 00 00 00 00 00 00 00 00 00 00 00 00 00 00 00 30 5F 09 03 08 00 00 01 AB 00 0D C0 62 DB 94 09 03 02 00 02 D8 44
08:34:22.037 设备发送:0A 03 04 8D 00 21 15 B2
08:34:25.047 设备发送:0A 03 04 8D 00 21 15 B2
08:34:28.085 设备发送:0A 03 04 8D 00 21 15 B2
08:34:31.118 设备发送:0A 03 06 84 00 04 05 D3
08:34:34.114 设备发送:0A 03 06 84 00 04 05 D3
08:34:37.131 设备发送:0A 03 06 84 00 04 05 D3
08:34:40.171 设备发送:0A 03 04 04 00 01 C5 80
08:34:43.198 设备发送:0A 03 04 04 00 01 C5 80
08:34:46.195 设备发送:0A 03 04 04 00 01 C5 80
08:34:49.222 设备发送:01 03 04 84 00 04 05 10
08:34:52.254 设备发送:01 03 04 84 00 04 05 10
08:34:55.253 设备发送:01 03 04 84 00 04 05 10
08:34:58.293 设备发送:01 03 04 8D 00 21 14 C9
08:35:01.285 设备发送:01 03 04 8D 00 21 14 C9
08:35:04.310 设备发送:01 03 04 8D 00 21 14 C9
08:35:07.339 设备发送:01 03 06 84 00 04 04 A8
08:35:10.384 设备发送:01 03 06 84 00 04 04 A8
08:35:13.381 设备发送:01 03 06 84 00 04 04 A8
08:35:16.391 设备发送:01 03 04 04 00 01 C4 FB
08:35:19.413 设备发送:01 03 04 04 00 01 C4 FB
08:35:22.449 设备发送:01 03 04 04 00 01 C4 FB
08:35:25.455 设备发送:02 03 04 84 00 04 05 23
08:35:28.483 设备发送:02 03 04 84 00 04 05 23
08:35:31.483 设备发送:02 03 04 84 00 04 05 23
08:35:34.521 设备发送:02 03 04 8D 00 21 14 FA
08:35:37.535 设备发送:02 03 04 8D 00 21 14 FA
08:35:40.552 设备发送:02 03 04 8D 00 21 14 FA
08:35:43.570 设备发送:02 03 06 84 00 04 04 9B
08:35:46.594 设备发送:02 03 06 84 00 04 04 9B
08:35:49.631 设备发送:02 03 06 84 00 04 04 9B
08:35:52.634 设备发送:02 03 04 04 00 01 C4 C8
08:35:55.666 设备发送:02 03 04 04 00 01 C4 C8
08:35:58.675 设备发送:02 03 04 04 00 01 C4 C8
08:36:01.710 设备发送:03 03 04 84 00 04 04 F2
08:36:04.712 设备发送:03 03 04 84 00 04 04 F2
08:36:07.747 设备发送:03 03 04 84 00 04 04 F2
08:36:10.758 设备发送:03 03 04 8D 00 21 15 2B
08:36:13.782 设备发送:03 03 04 8D 00 21 15 2B
08:36:16.809 设备发送:03 03 04 8D 00 21 15 2B
08:36:19.821 设备发送:03 03 06 84 00 04 05 4A
08:36:22.843 设备发送:03 03 06 84 00 04 05 4A
08:36:25.851 设备发送:03 03 06 84 00 04 05 4A
08:36:28.885 设备发送:03 03 04 04 00 01 C5 19
08:36:31.907 设备发送:03 03 04 04 00 01 C5 19
08:36:34.918 设备发送:03 03 04 04 00 01 C5 19
08:36:37.953 设备发送:04 03 04 84 00 04 05 45
08:36:40.980 设备发送:04 03 04 84 00 04 05 45
08:36:43.979 设备发送:04 03 04 84 00 04 05 45
08:36:47.008 设备发送:04 03 04 8D 00 21 14 9C
08:36:50.007 设备发送:04 03 04 8D 00 21 14 9C
08:36:53.033 设备发送:04 03 04 8D 00 21 14 9C
08:36:56.062 设备发送:04 03 06 84 00 04 04 FD
08:36:59.088 设备发送:04 03 06 84 00 04 04 FD
08:37:02.087 设备发送:04 03 06 84 00 04 04 FD
08:37:05.128 设备发送:04 03 04 04 00 01 C4 AE
08:37:08.138 设备发送:04 03 04 04 00 01 C4 AE
08:37:11.166 设备发送:04 03 04 04 00 01 C4 AE
08:37:14.191 设备发送:05 03 04 84 00 04 04 94
08:37:17.175 设备接收:05 03 08 13 89 05 9C 00 17 05 9C BA 42
08:37:17.191 设备发送:05 03 04 8D 00 21 15 4D
08:37:20.215 设备接收:05 03 42 08 F8 08 32 00 00 00 00 00 00 00 00 00 00 00 00 00 00 00 00 00 00 08 F8 08 2E 00 00 00 00 00 00 00 00 00 00 00 00 00 00 00 00 00 00 09 02 08 40 00 00 00 00 00 00 00 00 00 00 00 00 00 00 00 00 00 00 89 B0
08:37:20.230 设备发送:05 03 06 84 00 04 05 2C
08:37:23.220 设备接收:05 03 08 00 00 02 0F 00 0E 0A 5F F2 5F
08:37:23.252 设备发送:05 03 04 04 00 01 C5 7F
08:37:26.246 设备接收:05 03 02 00 02 C8 45
08:37:26.261 设备发送:06 03 04 84 00 04 04 A7
08:37:29.272 设备接收:06 03 08 13 8A 05 54 00 00 05 54 D6 44 FF
08:37:29.287 设备发送:06 03 04 8D 00 21 15 7E
08:37:32.279 设备接收:06 03 42 08 FC 07 D0 00 00 00 00 00 00 00 00 00 00 00 00 00 00 00 00 00 00 08 FA 07 CD 00 00 00 00 00 00 00 00 00 00 00 00 00 00 00 00 00 00 09 04 07 FB 00 00 00 00 00 00 00 00 00 00 00 00 00 00 00 00 00 00 34 35 FF
08:37:32.295 设备发送:06 03 06 84 00 04 05 1F
08:37:35.308 设备接收:06 03 08 00 00 01 B1 00 0D FF 1C 23 92
08:37:35.324 设备发送:06 03 04 04 00 01 C5 4C
08:37:38.318 设备接收:06 03 02 00 02 8C 45
08:37:38.334 设备发送:07 03 04 84 00 04 05 76
08:37:41.371 设备接收:07 03 08 13 8B 03 B4 FF D7 03 B7 81 CD
08:37:41.386 设备发送:07 03 04 8D 00 21 14 AF
08:37:44.355 设备接收:07 03 42 09 09 05 52 00 00 00 00 00 00 00 00 00 00 00 00 00 00 00 00 00 00 08 FD 05 59 00 00 00 00 00 00 00 00 00 00 00 00 00 00 00 00 00 00 09 05 05 51 00 00 00 00 00 00 00 00 00 00 00 00 00 00 00 00 00 00 9F 64
08:37:44.370 设备发送:07 03 06 84 00 04 04 CE
08:37:47.374 设备接收:07 03 08 00 00 01 77 00 06 EF 07 93 76
08:37:47.390 设备发送:07 03 04 04 00 01 C4 9D
08:37:50.398 设备接收:07 03 02 00 02 B1 85
08:37:50.429 设备发送:08 03 04 84 00 04 05 89
08:37:53.416 设备接收:08 03 08 13 8B 07 1B FF F0 07 1B D6 F3
08:37:53.431 设备发送:08 03 04 8D 00 21 14 50
08:37:56.442 设备接收:08 03 42 08 FB 0A 6D 00 00 00 00 00 00 00 00 00 00 00 00 00 00 00 00 00 00 08 F0 0A 58 00 00 00 00 00 00 00 00 00 00 00 00 00 00 00 00 00 00 08 FF 0A 9C 00 00 00 00 00 00 00 00 00 00 00 00 00 00 00 00 00 00 19 90
08:37:56.457 设备发送:08 03 06 84 00 04 04 31
08:37:59.457 设备接收:08 03 08 00 00 02 52 00 0F 1C 90 3B CA
08:37:59.473 设备发送:08 03 04 04 00 01 C4 62
08:38:02.483 设备接收:08 03 02 00 02 E5 84
08:38:02.499 设备发送:09 03 04 84 00 04 04 58
08:38:05.496 设备接收:09 03 08 13 89 05 3D FF ED 05 3D E9 56
08:38:05.526 设备发送:09 03 04 8D 00 21 15 81
08:38:08.530 设备接收:09 03 42 08 F8 07 AB 00 00 00 00 00 00 00 00 00 00 00 00 00 00 00 00 00 00 08 F3 07 C6 00 00 00 00 00 00 00 00 00 00 00 00 00 00 00 00 00 00 09 00 07 D8 00 00 00 00 00 00 00 00 00 00 00 00 00 00 00 00 00 00 78 B3
08:38:08.545 设备发送:09 03 06 84 00 04 05 E0
08:38:11.556 设备接收:09 03 08 00 00 01 FA 00 0D C0 6A 27 9E
08:38:11.572 设备发送:09 03 04 04 00 01 C5 B3
08:38:14.568 设备接收:09 03 02 00 02 D8 44
08:38:14.583 设备发送:0A 03 04 84 00 04 04 6B
08:38:17.600 设备发送:0A 03 04 84 00 04 04 6B
08:38:20.639 设备发送:0A 03 04 84 00 04 04 6B
08:38:23.650 设备发送:0A 03 04 8D 00 21 15 B2
08:38:26.670 设备发送:0A 03 04 8D 00 21 15 B2
08:38:29.666 设备发送:0A 03 04 8D 00 21 15 B2
08:38:32.709 设备发送:0A 03 06 84 00 04 05 D3
08:38:35.700 设备发送:0A 03 06 84 00 04 05 D3
08:38:38.734 设备发送:0A 03 06 84 00 04 05 D3
08:38:41.758 设备发送:0A 03 04 04 00 01 C5 80
08:38:44.785 设备发送:0A 03 04 04 00 01 C5 80
08:38:47.785 设备发送:0A 03 04 04 00 01 C5 80
08:38:50.830 设备发送:01 03 04 84 00 04 05 10
08:38:53.841 设备发送:01 03 04 84 00 04 05 10
08:38:56.867 设备发送:01 03 04 84 00 04 05 10
08:38:59.875 设备发送:01 03 04 8D 00 21 14 C9
08:39:02.897 设备发送:01 03 04 8D 00 21 14 C9
08:39:05.926 设备发送:01 03 04 8D 00 21 14 C9
08:39:08.923 设备发送:01 03 06 84 00 04 04 A8
08:39:11.954 设备发送:01 03 06 84 00 04 04 A8
08:39:14.979 设备发送:01 03 06 84 00 04 04 A8
08:39:18.008 设备发送:01 03 04 04 00 01 C4 FB
08:39:21.020 设备发送:01 03 04 04 00 01 C4 FB
08:39:24.023 设备发送:01 03 04 04 00 01 C4 FB
08:39:27.053 设备发送:02 03 04 84 00 04 05 23
08:39:30.089 设备发送:02 03 04 84 00 04 05 23
08:39:33.087 设备发送:02 03 04 84 00 04 05 23
08:39:36.129 设备发送:02 03 04 8D 00 21 14 FA
08:39:39.155 设备发送:02 03 04 8D 00 21 14 FA
08:39:42.157 设备发送:02 03 04 8D 00 21 14 FA
08:39:45.183 设备发送:02 03 06 84 00 04 04 9B
08:39:48.193 设备发送:02 03 06 84 00 04 04 9B
08:39:51.222 设备发送:02 03 06 84 00 04 04 9B
08:39:54.237 设备发送:02 03 04 04 00 01 C4 C8
08:39:57.249 设备发送:02 03 04 04 00 01 C4 C8
08:40:00.265 设备发送:02 03 04 04 00 01 C4 C8
08:40:03.312 设备发送:03 03 04 84 00 04 04 F2
08:40:06.325 设备发送:03 03 04 84 00 04 04 F2
08:40:09.341 设备发送:03 03 04 84 00 04 04 F2
08:40:12.373 设备发送:03 03 04 8D 00 21 15 2B
08:40:15.388 设备发送:03 03 04 8D 00 21 15 2B
08:40:18.395 设备发送:03 03 04 8D 00 21 15 2B
08:40:21.412 设备发送:03 03 06 84 00 04 05 4A
08:40:24.423 设备发送:03 03 06 84 00 04 05 4A
08:40:27.461 设备发送:03 03 06 84 00 04 05 4A
08:40:30.488 设备发送:03 03 04 04 00 01 C5 19
08:40:33.484 设备发送:03 03 04 04 00 01 C5 19
08:40:36.531 设备发送:03 03 04 04 00 01 C5 19
08:40:39.541 设备发送:04 03 04 84 00 04 05 45
08:40:42.555 设备发送:04 03 04 84 00 04 05 45
08:40:45.583 设备发送:04 03 04 84 00 04 05 45
08:40:48.598 设备发送:04 03 04 8D 00 21 14 9C
08:40:51.608 设备发送:04 03 04 8D 00 21 14 9C
08:40:54.654 设备发送:04 03 04 8D 00 21 14 9C
08:40:57.664 设备发送:04 03 06 84 00 04 04 FD
08:41:00.695 设备发送:04 03 06 84 00 04 04 FD
08:41:03.713 设备发送:04 03 06 84 00 04 04 FD
08:41:06.736 设备发送:04 03 04 04 00 01 C4 AE
08:41:09.748 设备发送:04 03 04 04 00 01 C4 AE
08:41:12.740 设备发送:04 03 04 04 00 01 C4 AE
08:41:15.797 设备发送:05 03 04 84 00 04 04 94
08:41:18.807 设备发送:05 03 04 84 00 04 04 94
08:41:21.796 设备接收:05 03 08 13 8A 06 4F FF DF 06 4F FC 24 FF FF FF FF FF FF FF FF FF FF FF FF FF FF FF FF FF FF FF FF FF FF FF FF FF FF FF FF FF FF FF FF FF FF FF FF FF FF FF FF FF FF FF FF FF FF FF FF FF FF FF FF FF FF FF FF FF FF FF FF FF FF FF FF FF FF FF FF FF FF FF FF FF FF FF FF FF FF FF FF FF FF FF FF FF FF FF FF FF FF FF FF FF FF FF FF FF FF FF FF FF FF FF FF FF FF FF FF FF FF FF FF FF FF FF FF FF FF FF FF FF FF FF FF FF FF FF FF FF FF FF FF FF FF FF FF FF
08:41:21.810 设备发送:05 03 04 8D 00 21 15 4D
08:41:24.818 设备接收:FF FF FF FF FF FF FF FF FF FF FF FF FF FF FF FF FF FF FF FF FF FF FF FF FF FF FF FF FF FF FF FF FF FF FF FF FF FF FF FF FF FF FF FF FF FF FF FF FF FF FF FF FF FF FF FF FF FF FF FF FF FF FF FF FF FF FF FF FF FF FF FF FF FF FF FF FF FF FF FF FF FF FF FF FF FF FF FF FF FF FF FF FF FF FF FF FF FF FF FF FF FF FF FF FF FF FF FF FF FF FF FF FF FF FF FF FF FF FF FF FF FF FF FF FF FF FF FF FF FF FF FF FF FF FF FF FF FF FF FF FF FF FF FF FF FF FF FF FF FF
08:41:24.833 设备发送:05 03 06 84 00 04 05 2C
08:41:27.847 设备接收:FF FF FF FF FF FF FF FF FF FF FF FF FF FF FF FF FF FF FF FF FF FF FF FF FF FF FF FF FF FF FF FF FF FF FF FF FF FF FF FF FF FF FF FF FF FF FF FF FF FF FF FF FF FF FF FF FF FF FF FF FF FF FF FF FF FF FF FF FF FF FF FF FF FF FF FF FF FF FF FF FF FF FF FF FF FF FF FF FF FF FF FF FF FF FF FF FF FF FF FF FF FF FF FF FF FF FF FF FF FF FF FF FF FF FF FF FF FF FF FF FF FF FF FF FF FF FF FF FF FF FF FF FF FF FF FF FF FF FF FF FF FF FF FF FF FF FF FF FF FF
08:41:27.863 设备发送:05 03 04 04 00 01 C5 7F
08:41:30.872 设备接收:FF FF FF FF FF FF FF FF FF FF FF FF FF FF FF FF FF FF FF FF FF FF FF FF FF FF FF FF FF FF FF FF FF FF FF FF FF FF FF FF FF FF FF FF FF FF FF FF FF FF FF FF FF FF FF FF FF FF FF FF FF FF FF FF FF FF FF FF FF FF FF FF FF FF FF FF FF FF FF FF FF FF FF FF FF FF FF FF FF FF FF FF FF FF FF FF FF FF FF FF FF FF FF FF FF FF FF FF FF FF FF FF FF FF FF FF FF FF FF FF FF FF FF FF FF FF FF FF FF FF FF FF FF FF FF FF FF FF FF FF FF FF FF FF FF FF FF FF FF FF
08:41:30.887 设备发送:06 03 04 84 00 04 04 A7
08:41:33.857 设备接收:FF FF FF FF FF FF FF FF FF FF FF FF FF FF FF FF FF FF FF FF FF FF FF FF FF FF FF FF FF FF FF FF FF FF FF FF FF FF FF FF FF FF FF FF FF FF FF FF FF FF FF FF FF FF FF FF FF FF FF FF FF FF FF FF FF FF FF FF FF FF FF FF FF FF FF FF FF FF FF FF FF FF FF FF FF FF FF FF FF FF FF FF FF FF FF FF FF FF FF FF FF FF FF FF FF FF FF FF FF FF FF FF FF FF FF FF FF FF FF FF FF FF FF FF FF FF FF FF FF FF FF FF FF FF FF FF FF FF FF FF FF FF FF FF FF FF FF FF FF FF
08:41:33.921 设备发送:06 03 04 8D 00 21 15 7E
08:41:36.897 设备接收:FF FF FF FF FF FF FF FF FF FF FF FF FF FF FF FF FF FF FF FF FF FF FF FF FF FF FF FF FF FF FF FF FF FF FF FF FF FF FF FF FF FF FF FF FF FF FF FF FF FF FF FF FF FF FF FF FF FF FF FF FF FF FF FF FF FF FF FF FF FF FF FF FF FF FF FF FF FF FF FF FF FF FF FF FF FF FF FF FF FF FF FF FF FF FF FF FF FF FF FF FF FF FF FF FF FF FF FF FF FF FF FF FF FF FF FF FF FF FF FF FF FF FF FF FF FF FF FF FF FF FF FF FF FF FF FF FF FF FF FF FF FF FF FF FF FF FF FF FF FF
08:41:36.912 设备发送:06 03 06 84 00 04 05 1F
08:41:39.907 设备接收:FF FF FF FF FF FF FF FF FF FF FF FF FF FF FF FF FF FF FF FF FF FF FF FF FF FF FF FF FF FF FF FF FF FF FF FF FF FF FF FF FF FF FF FF FF FF FF FF FF FF FF FF FF FF FF FF FF FF FF FF FF FF FF FF FF FF FF FF FF FF FF FF FF FF FF FF FF FF FF FF FF FF FF FF FF FF FF FF FF FF FF FF FF FF FF FF FF FF FF FF FF FF FF FF FF FF FF FF FF FF FF FF FF FF FF FF FF FF FF FF FF FF FF FF FF FF FF FF FF FF FF FF FF FF FF FF FF FF FF FF FF FF FF FF FF FF FF FF FF FF
08:41:39.955 设备发送:06 03 04 04 00 01 C5 4C
08:41:42.934 设备接收:FF FF FF FF FF FF FF FF FF FF FF FF FF FF FF FF FF FF FF FF FF FF FF FF FF FF FF FF FF FF FF FF FF FF FF FF FF FF FF FF FF FF FF FF FF FF FF FF FF FF FF FF FF FF FF FF FF FF FF FF FF FF FF FF FF FF FF FF FF FF FF FF FF FF FF FF FF FF FF FF FF FF FF FF FF FF FF FF FF FF FF FF FF FF FF FF FF FF FF FF FF FF FF FF FF FF FF FF FF FF FF FF FF FF FF FF FF FF FF FF FF FF FF FF FF FF FF FF FF FF FF FF FF FF FF FF FF FF FF FF FF FF FF FF FF FF FF FF FF FF
08:41:42.950 设备发送:07 03 04 84 00 04 05 76
08:41:45.974 设备接收:FF FF FF FF FF FF FF FF FF FF FF FF FF FF FF FF FF FF FF FF FF FF FF FF FF FF FF FF FF FF FF FF FF FF FF FF FF FF FF FF FF FF FF FF FF FF FF FF FF FF FF FF FF FF FF FF FF FF FF FF FF FF FF FF FF FF FF FF FF FF FF FF FF FF FF FF FF FF FF FF FF FF FF FF FF FF FF FF FF FF FF FF FF FF FF FF FF FF FF FF FF FF FF FF FF FF FF FF FF FF FF FF FF FF FF FF FF FF FF FF FF FF FF FF FF FF FF FF FF FF FF FF FF FF FF FF FF FF FF FF FF FF FF FF FF FF FF FF FF FF
08:41:45.989 设备发送:07 03 04 8D 00 21 14 AF
08:41:48.979 设备接收:FF FF FF FF FF FF FF FF FF FF FF FF FF FF FF FF FF FF FF FF FF FF FF FF FF FF FF FF FF FF FF FF FF FF FF FF FF FF FF FF FF FF FF FF FF FF FF FF FF FF FF FF FF FF FF FF FF FF FF FF FF FF FF FF FF FF FF FF FF FF FF FF FF FF FF FF FF FF FF FF FF FF FF FF FF FF FF FF FF FE FF FF FF FF FF FF FF FF FF FF FF FF FF FF FF FF FF FF FF FF FF FF FF FF FF FF FF FF FF FF FF FF FF FF FF FF FF FF FF FF FF FF FF FF FF FF FF FF FF FF FF FF FF FF FF FF FF FF FF FF
08:41:48.994 设备发送:07 03 06 84 00 04 04 CE
08:41:52.000 设备接收:FF FF FF FF FF FF FF FF FF FF FF FF FF FF FF FF FF FF FF FF FF FF FF FF FF FF FF FF FF FF FF FF FF FF FF FF FF FF FF FF FF FF FF FF FF FF FF FF FF FF FF FF FF FF FF FF FF FF FF FF FF FF FF FF FF FF FF FF FF FF FF FF FF FF FF FF FF FF FF FF FF FF FF FF FF FF FF FE FF FF FF FF FF FF FF FF FF FF FF FF FF FF FF FF FF FF FF FF FF FF FF FF FF FF FF FF FF FF FF FF FF FF FF FF FF FF FF FF FF FF FF FF FF FF FF FF FF FF FF FF FF FF FF FF FF FF FF FF FF FF
08:41:52.014 设备发送:07 03 04 04 00 01 C4 9D
08:41:55.028 设备接收:FF FF FF FF FF FF FF FF FF FF FF FF FF FF FF FF FF FF FF FF FF FF FF FF FF FF FF FF FF FF FF FF FF FF FF FF FF FF FF FF FF FF FF FF FF FF FF FF FF FF FF FF FF FF FF FF FF FF FF FF FF FF FF FF FF FF FF FF FF FF FF FF FF FF FF FF FF FF FF FF FF FF FF FF FF FF FF FF FF FF FF FF FF FF FF FF FF FF FF FF FF FF FF FF FF FF FF FF FF FF FF FF FF FF FF FF FF FF FF FF FF FF FF FF FE FF FF FF FF FF FF FF FF FF FF FF FF FF FF FF FF FF FF FF FF FF FF FF FF FF
08:41:55.044 设备发送:08 03 04 84 00 04 05 89
08:41:58.019 设备接收:FF FF FF FF FF FF FF FF FF FF FF FF FF FF FF FF FF FF FF FF FF FF FF FF FF FF FF FF FF FF FF FF FF FF FF FF FF FF FF FF FF FF FF FF FF FF FF FF FF FF FF FF FF FF FF FF FF FF FF FF FF FF FF FF FF FF FF FF FF FF FF FF FF FF FF FF FF FF FF FF FF FF FF FF FF FF FF FF FE FF FF FF FF FF FF FF FF FF FF FF FF FF FF FF FF FF FF FF FF FF FF FF FF FF FF FF FF FF FF FF FF FF FF FF FF FF FF FF FF FF FF FF FF FF FF FF FF FF FF FF FF FF FF FF FF FF FF FF FF FF
08:41:58.050 设备发送:08 03 04 8D 00 21 14 50
08:42:01.069 设备接收:FF FF FF FF FF FF FF FF FF FF FF FF FF FF FF FF FF FF FF FF FF FF FF FF FF FF FF FF FF FF FF FF FF FF FF FF FF FF FF FF FF FF FF FF FF FF FF FF FF FF FF FF FF FF FF FF FF FF FF FF FF FF FF FF FF FF FF FF FF FF FF FF FF FF FF FF FF FF FF FF FF FF FF FF FF FF FF FF FF FF FF FF FF FF FF FF FF FF FF FF FF FF FF FF FF FF FF FF FF FF FF FF FF FF FF FF FF FF FF FF FF FF FF FF FF FF FF FF FF FF FF FF FF FF FF FF FF FF FF FF FF FF FF FF FF FF FF FF FF FF
08:42:01.085 设备发送:08 03 06 84 00 04 04 31
08:42:04.072 设备接收:FF FF FF FF FF FF FF FF FF FF FF FF FF FF FF FF FF FF FF FF FF FF FF FF FF FF FF FF FF FF FF FF FF FF FF FF FF FF FF FF FF FF FF FF FF FF FF FF FF FF FF FF FF FF FF FF FF FF FF FF FF FF FF FF FF FF FF FF FF FF FF FF FF FF FF FF FF FF FF FF FF FF FF FF FF FF FF FF FF FF FF FF FF FF FF FF FF FF FF FF FF FF FF FF FF FF FF FF FF FF FF FF FF FF FF FF FF FF FF FF FF FF FF FF FF FF FF FF FF FF FF FF FF FF FF FF FF FF FF FF FF FF FF FF FF FF FF FF FF FF
08:42:04.088 设备发送:08 03 04 04 00 01 C4 62
08:42:07.088 设备接收:FF FF FF FF FF FF FF FF FF FF FF FF FF FF FF FF FF FF FF FF FF FF FF FF FF FF FF FF FF FF FF FF FF FF FF FF FF FF FF FF FF FF FF FF FF FF FF FF FF FF FF FF FF FF FF FF FF FF FF FF FF FF FF FF FF FF FF FF FF FF FF FF FF FF FF FF FF FF FF FF FF FF FF FF FF FF FF FF FF FF FF FF FF FF FF FF FF FF FF FF FF FF FF FF FF FF FF FF FF FF FF FF FF FF FF FF FF FF FF FF FF FF FF FF FF FF FF FF FF FF FF FF FF FF FF FF FF FF FF FF FF FF FF FF FF FF FF FF FF FF
08:42:07.119 设备发送:09 03 04 84 00 04 04 58
08:42:10.112 设备接收:FF FF FF FF FF FF FF FF FF FF FF FF FF FF FF FF FF FF FF FF FF FF FF FF FF FF FF FF FF FF FF FF FF FF FF FF FF FF FF FF FF FF FF FF FF FF FF FF FF FF FF FF FF FF FF FF FF FF FF FF FF FF FF FF FF FF FF FF FF FF FF FF FF FF FF FF FF FF FF FF FF FF FF FF FF FF FF FF FF FF FF FF FF FF FF FF FF FF FF FF FF FF FF FF FF FF FF FF FF FF FF FF FF FF FF FF FF FF FF FF FF FF FF FF FF FF FF FF FF FF FF FF FF FF FF FF FF FF FF FF FF FF FF FF FF FF FF FF FF FF
08:42:10.142 设备发送:09 03 04 8D 00 21 15 81
08:42:13.151 设备接收:FF FF FF FF FF FF FF FF FF FF FF FF FF FF FF FF FF FF FF FF FF FF FF FF FF FF FF FF FF FF FF FF FF FF FF FF FF FF FF FF FF FF FF FF FF FF FF FF FF FF FF FF FF FF FF FF FF FF FF FF FF FF FF FF FF FF FF FF FF FF FF FF FF FF FF FF FF FF FF FF FF FF FF FF FF FF FF FF FF FF FF FF FF FF FF FF FF FF FF FF FF FF FF FF FF FF FF FF FF FF FF FF FF FF FF FF FF FF FF FF FF FF FF FF FF FF FF FF FF FF FF FF FF FF FF FF FF FF FF FF FF FF FF FF FF FF FF FF FF FF
08:42:13.166 设备发送:09 03 06 84 00 04 05 E0
08:42:16.152 设备接收:FF FF FF FF FF FF FF FF FF FF FF FF FF FF FF FF FF FF FF FF FF FF FF FF FF FF FF FF FF FF FF FF FF FF FF FF FF FF FF FF FF FF FF FF FF FF FF FF FF FF FF FF FF FF FF FF FF FF FF FF FF FF FF FF FF FF FF FF FF FF FF FF FF FF FF FF FF FF FF FF FF FF FF FF FF FF FF FF FF FF FF FF FF FF FF FF FF FF FF FF FF FF FF FF FF FF FF FF FF FF FF FF FF FF FF FF FF FF FF FF FF FF FF FF FF FF FF FF FF FF FF FF FF FF FF FF FF FF FF FF FF FF FF FF FF FF FF FF FF FF
08:42:16.167 设备发送:09 03 04 04 00 01 C5 B3
08:42:19.189 设备接收:FF FF FF FF FF FF FF FF FF FF FF FF FF FF FF FF FF FF FF FF FF FF FF FF FF FF FF FF FF FF FF FF FF FF FF FF FF FF FF FF FF FF FF FF FF FF FF FF FF FF FF FF FF FF FF FF FF FF FF FF FF FF FF FF FF FF FF FF FF FF FF FF FF FF FF FF FF FF FF FF FF FF FF FF FF FF FF FF FF FF FF FF FF FF FF FF FF FF FF FF FF FF FF FF FF FF FF FF FF FF FF FF FF FF FF FF FF FF FF FF FF FF FF FF FF FF FF FF FF FF FF FF FF FF FF FF FF FF FF FF FF FF FF FF FF FF FF FF FF FF
08:42:19.204 设备发送:0A 03 04 84 00 04 04 6B
08:42:22.199 设备接收:FF FF FF FF FF FF FF FF FF FF FF FF FF FF FF FF FF FF FF FF FF FF FF FF FF FF FF FF FF FF FF FF FF FF FF FF FF FF FF FF FF FF FF FF FF FF FF FF FF FF FF FF FF FF FF FF FF FF FF FF FF FF FF FF FF FF FF FF FF FF FF FF FF FF FF FF FF FF FF FF FF FF FF FF FF FF FF FF FF FF FF FF FF FF FF FF FF FF FF FF FF FF FF FF FF FF FF FF FF FF FF FF FF FF FF FF FF FF FF FF FF FF FF FF FF FF FF FF FF FF FF FF FF FF FF FF FF FF FF FF FF FF FF FF FF FF FF FF FF FF
08:42:22.215 设备发送:0A 03 04 8D 00 21 15 B2
08:42:25.216 设备接收:FF FF FF FF FF FF FF FF FF FF FF FF FF FF FF FF FF FF FF FF FF FF FF FF FF FF FF FF FF FF FF FF FF FF FF FF FF FF FF FF FF FF FF FF FF FF FF FF FF FF FF FF FF FF FF FF FF FF FF FF FF FF FF FF FF FF FF FF FF FF FF FF FF FF FF FF FF FF FF FF FF FF FF FF FF FF FF FF FF FF FF FF FF FF FF FF FF FF FF FF FF FF FF FF FF FF FF FF FF FF FF FF FF FF FF FF FF FF FF FF FF FF FF FF FF FF FF FF FF FF FF FF FF FF FF FF FF FF FF FF FF FF FF FF FF FF FF FF FF FF
08:42:25.229 设备发送:0A 03 06 84 00 04 05 D3
08:42:28.243 设备接收:FF FF FF FF FF FF FF FF FF FF FF FF FF FF FF FF FF FF FF FF FF FF FF FF FF FF FF FF FF FF FF FF FF FF FF FF FF FF FF FF FF FF FF FF FF FF FF FF FF FF FF FF FF FF FF FF FF FF FF FF FF FF FF FF FF FF FF FF FF FF FF FF FF FF FF FF FF FF FF FF FF FF FF FF FF FF FF FF FF FF FF FF FF FF FF FF FF FF FF FF FF FF FF FF FF FF FF FF FF FF FF FF FF FF FF FF FF FF FF FF FF FF FF FF FF FF FF FF FF FF FF FF FF FF FF FF FF FF FF FF FF FF FF FF FF FF FF FF FF FF
08:42:28.274 设备发送:0A 03 04 04 00 01 C5 80
08:42:31.270 设备接收:FF FF FF FF FF FF FF FF FF FF FF FF FF FF FF FF FF FF FF FF FF FF FF FF FF FF FF FF FF FF FF FF FF FF FF FF FF FF FF FF FF FF FF FF FF FF FF FF FF FF FF FF FF FF FF FF FF FF FF FF FF FF FF FF FF FF FF FF FF FF FF FF FF FF FF FF FF FF FF FF FF FF FF FF FF FF FF FF FF FF FF FF FF FF FF FF FF FF FF FF FF FF FF FF FF FF FF FF FF FF FF FF FF FF FF FF FF FF FF FF FF FF FF FF FF FF FF FF FF FF FF FF FF FF FF FF FF FF FF FF FF FF FF FF FF FF FF FF FF FF
08:42:31.285 设备发送:01 03 04 84 00 04 05 10
08:42:34.278 设备接收:FF FF FF FF FF FF FF FF FF FF FF FF FF FF FF FF FF FF FF FF FF FF FF FF FF FF FF FF FF FF FF FF FF FF FF FF FF FF FF FF FF FF FF FF FF FF FF FF FF FF FF FF FF FF FF FF FF FF FF FF FF FF FF FF FF FF FF FF FF FF FF FF FF FF FF FF FF FF FF FF FF FF FF FF FF FF FF FF FF FF FF FF FF FF FF FF FF FF FF FF FF FF FF FF FF FF FF FF FF FF FF FF FF FF FF FF FF FF FF FF FF FF FF FF FF FF FF FF FF FF FF FF FF FF FF FF FF FF FF FF FF FF FF FF FF FF FF FF FF FF
08:42:34.293 设备发送:01 03 04 8D 00 21 14 C9
08:42:37.287 设备接收:FF FF FF FF FF FF FF FF FF FF FF FF FF FF FF FF FF FF FF FF FF FF FF FF FF FF FF FF FF FF FF FF FF FF FF FF FF FF FF FF FF FF FF FF FF FF FF FF FF FF FF FF FF FF FF FF FF FF FF FF FF FF FF FF FF FF FF FF FF FF FF FF FF FF FF FF FF FF FF FF FF FF FF FF FF FF FF FF FF FF FF FF FF FF FF FF FF FF FF FF FF FF FF FF FF FF FF FF FF FF FF FF FF FF FF FF FF FF FF FF FF FF FF 09 03 02 00 02 D8 44 FF FF FF FF FF FF FF FF FF FF FF FF FF FF FF FF FF FF FF FF
08:42:37.302 设备发送:01 03 06 84 00 04 04 A8
08:42:40.324 设备接收:FF FF FF FF FF FF FF FF FF FF FF FF FF FF FF FF FF FF FF FF FF FF FF FF FF FF FF FF FF FF FF FF FF FF FF FF FF FF FF FF FF FF FF FF FF FF FF FF FF FF FF FF FF FF FF FF FF FF FF FF FF FF FF FF FF FF FF FF FF FF FF FF FF FF FF FF FF FF FF FF FF FF FF FF FF FF FF FF FF FF FF FF FF FF FF FF FF FF FF FF FF FF FF FF FF FF FF FF FF FF FF FF FF FF FF FF FF FF FF FF FF FF FF FF FF FF FF FF FF FF FF FF FF FF FF FF FF FF FF FF FF FF FF FF FF FF FF FF FF FF
08:42:40.354 设备发送:01 03 04 04 00 01 C4 FB
08:42:43.340 设备接收:FF FF FF FF FF FF FF FF FF FF FF FF FF FF FF FF FF FF FF FF FF FF FF FF FF FF FF FF FF FF FF FF FF FF FF FF FF FF FF FF FF FF FF FF FF FF FF FF FF FF FF FF FF FF FF FF FF FF FF FF FF FF FF FF FF FF FF FF FF FF FF FF FF FF FF FF FF FF FF FF FF FF FF FF FF FF FF FF FF FF FF FF FF FF FF FF FF FF FF FF FF FF FF FF FF FF FF FF FF FF FF FF FF FF FF FF FF FF FF FF FF FF FF FF FF FF FF FF FF FF FF FF FF FF FF FF FF FF FF FF FF FF FF FF FF FF FF FF FF FF
08:42:43.347 设备发送:02 03 04 84 00 04 05 23
08:42:46.357 设备接收:FF FF FF FF FF FF FF FF FF FF FF FF FF FF FF FF FF FF FF FF FF FF FF FF FF FF FF FF FF FF FF FF FF FF FF FF FF FF FF FF FF FF FF FF FF FF FF FF FF FF FF FF FF FF FF FF FF FF FF FF FF FF FF FF FF FF FF FF FF FF FF FF FF FF FF FF FF FF FF FF FF FF FF FF FF FF FF FF FF FF FF FF FF FF FF FF FF FF FF FF FF FF FF FF FF FF FF FF FF FF FF FF FF FF FF FF FF FF FF FF FF FF FF FF FF FF FF FF FF FF FF FF FF FF FF FF FF FF FF FF FF FF FF FF FF FF FF FF FF FF
08:42:46.372 设备发送:02 03 04 8D 00 21 14 FA
08:42:49.364 设备接收:FF FF FF FF FF FF FF FF FF FF FF FF FF FF FF FF FF FF FF FF FF FF FF FF FF FF FF FF FF FF FF FF FF FF FF FF FF FF FF FF FF FF FF FF FF FF FF FF FF FF FF FF FF FF FF FF FF FF FF FF FF FF FF FF FF FF FF FF FF FF FF FF FF FF FF FF FF FF FF FF FF FF FF FF FF FF FF FF FF FF FF FF FF FF FF FF FF FF FF FF FF FF FF FF FF FF FF FF FF FF FF FF FF FF FF FF FF FF FF FF FF FF FF FF FF FF FF FF FF FF FF FF FF FF FF FF FF FF FF FF FF FF FF FF FF FF FF FF FF FF
08:42:49.412 设备发送:02 03 06 84 00 04 04 9B
08:42:52.414 设备接收:FF FF FF FF FF FF FF FF FF FF FF FF FF FF FF FF FF FF FF FF FF FF FF FF FF FF FF FF FF FF FF FF FF FF FF FF FF FF FF FF FF FF FF FF FF FF FF FF FF FF FF FF FF FF FF FF FF FF FF FF FF FF FF FF FF FF FF FF FF FF FF FF FF FF FF FF FF FF FF FF FF FF FF FF FF FF FF FF FF FF FF FF FF FF FF FF FF FF FF FF FF FF FF FF FF FF FF FF FF FF FF FF FF FF FF FF FF FF FF FF FF FF FF FF FF FF FF FF FF FF FF FF FF FF FF FF FF FF FF FF FF FF FF FF FF FF FF FF FF FF
08:42:52.429 设备发送:02 03 04 04 00 01 C4 C8
08:42:55.414 设备接收:FF FF FF FF FF FF FF FF FF FF FF FF FF FF FF FF FF FF FF FF FF FF FF FF FF FF FF FF FF FF FF FF FF FF FF FF FF FF FF FF FF FF FF FF FF FF FF FF FF FF FF FF FF FF FF FF FF FF FF FF FF FF FF FF FF FF FF FF FF FF FF FF FF FF FF FF FF FF FF FF FF FF FF FF FF FF FF FF FF FF FF FF FF FF FF FF FF FF FF FF FF FF FF FF FF FF FF FF FF FF FF FF FF FF FF FF FF FF FF FF FF FF FF FF FF FF FF FF FF FF FF FF FF FF FF FF FF FF FF FF FF FF FF FF FF FF FF FF FF FF
08:42:55.429 设备发送:03 03 04 84 00 04 04 F2
08:42:58.442 设备接收:FF FF FF FF FF FF FF FF FF FF FF FF FF FF FF FF FF FF FF FF FF FF FF FF FF FF FF FF FF FF FF FF FF FF FF FF FF FF FF FF FF FF FF FF FF FF FF FF FF FF FF FF FF FF FF FF FF FF FF FF FF FF FF FF FF FF FF FF FF FF FF FF FF FF FF FF FF FF FF FF FF FF FF FF FF FF FF FF FF FF FF FF FF FF FF FF FF FF FF FF FF FF FF FF FF FF FF FF FF FF FF FF FF FF FF FF FF FF FF FF FF FF FF FF FF FF FF FF FF FF FF FF FF FF FF FF FF FF FF FF FF FF FF FF FF FF FF FF FF FF
08:42:58.458 设备发送:03 03 04 8D 00 21 15 2B
08:43:01.455 设备接收:FF FF FF FF FF FF FF FF FF FF FF FF FF FF FF FF FF FF FF FF FF FF FF FF FF FF FF FF FF FF FF FF FF FF FF FF FF FF FF FF FF FF FF FF FF FF FF FF FF FF FF FF FF FF FF FF FF FF FF FF FF FF FF FF FF FF FF FF FF FF FF FF FF FF FF FF FF FF FF FF FF FF FF FF FF FF FF FF FF FF FF FF FF FF FF FF FF FF FF FF FF FF FF FF FF FF FF FF FF FF FF FF FF FF FF FF FF FF FF FF FF FF FF FF FF FF FF FF FF FF FF FF FF FF FF FF FF FF FF FF FF FF FF FF FF FF FF FF FF FF
08:43:01.470 设备发送:03 03 06 84 00 04 05 4A
08:43:04.482 设备接收:FF FF FF FF FF FF FF FF FF FF FF FF FF FF FF FF FF FF FF FF FF FF FF FF FF FF FF FF FF FF FF FF FF FF FF FF FF FF FF FF FF FF FF FF FF FF FF FF FF FF FF FF FF FF FF FF FF FF FF FF FF FF FF FF FF FF FF FF FF FF FF FF FF FF FF FF FF FF FF FF FF FF FF FF FF FF FF FF FF FF FF FF FF FF FF FF FF FF FF FF FF FF FF FF FF FF FF FF FF FF FF FF FF FF FF FF FF FF FF FF FF FF FF FF FF FF FF FF FF FF FF FF FF FF FF FF FF FF FF FF FF FF FF FF FF FF FF FF FF FF
08:43:04.496 设备发送:03 03 04 04 00 01 C5 19
08:43:07.506 设备接收:FF FF FF FF FF FF FF FF FF FF FF FF FF FF FF FF FF FF FF FF FF FF FF FF FF FF FF FF FF FF FF FF FF FF FF FF FF FF FF FF FF FF FF FF FF FF FF FF FF FF FF FF FF FF FF FF FF FF FF FF FF FF FF FF FF FF FF FF FF FF FF FF FF FF FF FF FF FF FF FF FF FF FF FF FF FF FF FF FF FF FF FF FF FF FF FF FF FF FF FF FF FF FF FF FF FF FF FF FF FF FF FF FF FF FF FF FF FF FF FF FF FF FF FF FF FF FF FF FF FF FF FF FF FF FF FF FF FF FF FF FF FF FF FF FF FF FF FF FF FF
08:43:07.522 设备发送:04 03 04 84 00 04 05 45
08:43:10.537 设备接收:FF FF FF FF FF FF FF FF FF FF FF FF FF FF FF FF FF FF FF FF FF FF FF FF FF FF FF FF FF FF FF FF FF FF FF FF FF FF FF FF FF FF FF FF FF FF FF FF FF FF FF FF FF FF FF FF FF FF FF FF FF FF FF FF FF FF FF FF FF FF FF FF FF FF FF FF FF FF FF FF FF FF FF FF FF FF FF FF FF FF FF FF FF FF FF FF FF FF FF FF FF FF FF FF FF FF FF FF FF FF FF FF FF FF FF FF FF FF FF FF FF FF FF FF FF FF FF FF FF FF FF FF FF FF FF FF FF FF FF FF FF FF FF FF FF FF FF FF FF FF
08:43:10.545 设备发送:04 03 04 8D 00 21 14 9C
08:43:13.523 设备接收:FF FF FF FF FF FF FF FF FF FF FF FF FF FF FF FF FF FF FF FF FF FF FF FF FF FF FF FF FF FF FF FF FF FF FF FF FF FF FF FF FF FF FF FF FF FF FF FF FF FF FF FF FF FF FF FF FF FF FF FF FF FF FF FF FF FF FF FF FF FF FF FF FF FF FF FF FF FF FF FF FF FF FF FF FF FF FF FF FF FF FF FF FF FF FF FF FF FF FF FF FF FF FF FF FF FF FF FF FF FF FF FF FF FF FF FF FF FF FF FF FF FF FF FF FF FF FF FF FF FF FF FF FF FF FF FF FF FF FF FF FF FF FF FF FF FF FF FF FF FF
08:43:13.553 设备发送:04 03 06 84 00 04 04 FD
08:43:16.547 设备接收:FF FF FF FF FF FF FF FF FF FF FF FF FF FF FF FF FF FF FF FF FF FF FF FF FF FF FF FF FF FF FF FF FF FF FF FF FF FF FF FF FF FF FF FF FF FF FF FF FF FF FF FF FF FF FF FF FF FF FF FF FF FF FF FF FF FF FF FF FF FF FF FF FF FF FF FF FF FF FF FF FF FF FF FF FF FF FF FF FF FF FF FF FF FF FF FF FF FF FF FF FF FF FF FF FF FF FF FF FF FF FF FF FF FF FF FF FF FF FF FF FF FF FF FF FF FF FF FF FF FF FF FF FF FF FF FF FF FF FF FF FF FF FF FF FF FF FF FF FF FF
08:43:16.563 设备发送:04 03 04 04 00 01 C4 AE
08:43:19.575 设备接收:FF FF FF FF FF FF FF FF FF FF FF FF FF FF FF FF FF FF FF FF FF FF FF FF FF FF FF FF FF FF FF FF FF FF FF FF FF FF FF FF FF FF FF FF FF FF FF FF FF FF FF FF FF FF FF FF FF FF FF FF FF FF FF FF FF FF FF FF FF FF FF FF FF FF FF FF FF FF FF FF FF FF FF FF FF FF FF FF FF FF FF FF FF FF FF FF FF FF FF FF FF FF FF FF FF FF FF FF FF FF FF FF FF FF FF FF FF FF FF FF FF FF FF FF FF FF FF FF FF FF FF FF FF FF FF FF FF FF FF FF FF FF FF FF FF FF FF FF FF FF
08:43:19.590 设备发送:05 03 04 84 00 04 04 94
08:43:22.597 设备接收:FF FF FF FF FF FF FF FF FF FF FF FF FF FF FF FF FF FF FF FF FF FF FF FF FF FF FF FF FF FF FF FF FF FF FF FF FF FF FF FF FF FF FF FF FF FF FF FF FF FF FF FF FF FF FF FF FF FF FF FF FF FF FF FF FF FF FF FF FF FF FF FF FF FF FF FF FF FF FF FF FF FF FF FF FF FF FF FF FF FF FF FF FF FF FF FF FF FF FF FF FF FF FF FF FF FF FF FF FF FF FF FF FF FF FF FF FF FF FF FF FF FF FF FF FF FF FF FF FF FF FF FF FF FF FF FF FF FF FF FF FF FF FF FF FF FF FF FF FF FF
08:43:22.613 设备发送:05 03 04 8D 00 21 15 4D
08:43:25.625 设备接收:FF FF FF FF FF FF FF FF FF FF FF FF FF FF FF FF FF FF FF FF FF FF FF FF FF FF FF FF FF FF FF FF FF FF FF FF FF FF FF FF FF FF FF FF FF FF FF FF FF FF FF FF FF FF FF FF FF FF FF FF FF FF FF FF FF FF FF FF FF FF FF FF FF FF FF FF FF FF FF FF FF FF FF FF FF FF FF FF FF FF FF FF FF FF FF FF FF FF FF FF FF FF FF FF FF FF FF FF FF FF FF FF FF FF FF FF FF FF FF FF FF FF FF FF FF FF FF FF FF FF FF FF FF FF FF FF FF FF FF FF FF FF FF FF FF FF FF FF FF FF
08:43:25.640 设备发送:05 03 06 84 00 04 05 2C
08:43:28.640 设备接收:FF FF FF FF FF FF FF FF FF FF FF FF FF FF FF FF FF FF FF FF FF FF FF FF FF FF FF FF FF FF FF FF FF FF FF FF FF FF FF FF FF FF FF FF FF FF FF FF FF FF FF FF FF FF FF FF FF FF FF FF FF FF FF FF FF FF FF FF FF FF FF FF FF FF FF FF FF FF FF FF FF FF FF FF FF FF FF FF FF FF FF FF FF FF FF FF FF FF FF FF FF FF FF FF FF FF FF FF FF FF FF FF FF FF FF FF FF FF FF FF FF FF FF FF FF FF FF FF FF FF FF FF FF FF FF FF FF FF FF FF FF FF FF FF FF FF FF FF FF FF
08:43:28.660 设备发送:05 03 04 04 00 01 C5 7F
08:43:31.674 设备接收:FF FF FF FF FF FF FF FF FF FF FF FF FF FF FF FF FF FF FF FF FF FF FF FF FF FF FF FF FF FF FF FF FF FF FF FF FF FF FF FF FF FF FF FF FF FF FF FF FF FF FF FF FF FF FF FF FF FF FF FF FF FF FF FF FF FF FF FF FF FF FF FF FF FF FF FF FF FF FF FF FF FF FF FF FF FF FF FF FF FF FF FF FF FF FF FF FF FF FF FF FF FF FF FF FF FF FF FF FF FF FF FF FF FF FF FF FF FF FF FF FF FF FF FF FF FF FF FF FF FF FF FF FF FF FF FF FF FF FF FF FF FF FF FF FF FF FF FF FF FF
08:43:31.689 设备发送:06 03 04 84 00 04 04 A7
08:43:34.672 设备接收:FF FF FF FF FF FF FF FF FF FF FF FF FF FF FF FF FF FF FF FF FF FF FF FF FF FF FF FF FF FF FF FF FF FF FF FF FF FF FF FF FF FF FF FF FF FF FF FF FF FF FF FF FF FF FF FF FF FF FF FF FF FF FF FF FF FF FF FF FF FF FF FF FF FF FF FF FF FF FF FF FF FF FF FF FF FF FF FF FF FF FF FF FF FF FF FF FF FF FF FF FF FF FF FF FF FF FF FF FF FF FF FF FF FF FF FF FF FF FF FF FF FF FF FF FF FF FF FF FF FF FF FF FF FF FF FF FF FF FF FF FF FF FF FF FF FF FF FF FF FF
08:43:34.688 设备发送:06 03 04 8D 00 21 15 7E
08:43:37.699 设备接收:FF FF FF FF FF FF FF FF FF FF FF FF FF FF FF FF FF FF FF FF FF FF FF FF FF FF FF FF FF FF FF FF FF FF FF FF FF FF FF FF FF FF FF FF FF FF FF FF FF FF FF FF FF FF FF FF FF FF FF FF FF FF FF FF FF FF FF FF FF FF FF FF FF FF FF FF FF FF FF FF FF FF FF FF FF FF FF FF FF FF FF FF FF FF FF FF FF FF FF FF FF FF FF FF FF FF FF FF FF FF FF FF FF FF FF FF FF FF FF FF FF FF FF FF FF FF FF FF FF FF FF FF FF FF FF FF FF FF FF FF FF FF FF FF FF FF FF FF FF FF
08:43:37.714 设备发送:06 03 06 84 00 04 05 1F
08:43:40.729 设备接收:FF FF FF FF FF FF FF FF FF FF FF FF FF FF FF FF FF FF FF FF FF FF FF FF FF FF FF FF FF FF FF FF FF FF FF FF FF FF FF FF FF FF FF FF FF FF FF FF FF FF FF FF FF FF FF FF FF FF FF FF FF FF FF FF FF FF FF FF FF FF FF FF FF FF FF FF FF FF FF FF FF FF FF FF FF FF FF FF FF FF FF FF FF FF FF FF FF FF FF FF FF FF FF FF FF FF FF FF FF FF FF FF FF FF FF FF FF FF FF FF FF FF FF FF FF FF FF FF FF FF FF FF FF FF FF FF FF FF FF FF FF FF FF FF FF FF FF FF FF FF
08:43:40.744 设备发送:06 03 04 04 00 01 C5 4C
08:43:43.734 设备接收:FF FF FF FF FF FF FF FF FF FF FF FF FF FF FF FF FF FF FF FF FF FF FF FF FF FF FF FF FF FF FF FF FF FF FF FF FF FF FF FF FF FF FF FF FF FF FF FF FF FF FF FF FF FF FF FF FF FF FF FF FF FF FF FF FF FF FF FF FF FF FF FF FF FF FF FF FF FF FF FF FF FF FF FF FF FF FF FF FF FF FF FF FF FF FF FF FF FF FF FF FF FF FF FF FF FF FF FF FF FF FF FF FF FF FF FF FF FF FF FF FF FF FF FF FF FF FF FF FF FF FF FF FF FF FF FF FF FF FF FF FF FF FF FF FF FF FF FF FF FF
08:43:43.748 设备发送:07 03 04 84 00 04 05 76
08:43:46.758 设备接收:FF FF FF FF FF FF FF FF FF FF FF FF FF FF FF FF FF FF FF FF FF FF FF FF FF FF FF FF FF FF FF FF FF FF FF FF FF FF FF FF FF FF FF FF FF FF FF FF FF FF FF FF FF FF FF FF FF FF FF FF FF FF FF FF FF FF FF FF FF FF FF FF FF FF FF FF FF FF FF FF FF FF FF FF FF FF FF FF FF FF FF FF FF FF FF FF FF FF FF FF FF FF FF FF FF FF FF FF FF FF FF FF FF FF FF FF FF FF FF FF FF FF FF FF FF FF FF FF FF FF FF FF FF FF FF FF FF FF FF FF FF FF FF FF FF FF FF FF FF FF
08:43:46.773 设备发送:07 03 04 8D 00 21 14 AF
08:43:49.772 设备接收:FF FF FF FF FF FF FF FF FF FF FF FF FF FF FF FF FF FF FF FF FF FF FF FF FF FF FF FF FF FF FF FF FF FF FF FF FF FF FF FF FF FF FF FF FF FF FF FF FF FF FF FF FF FF FF FF FF FF FF FF FF FF FF FF FF FF FF FF FF FF FF FF FF FF FF FF FF FF FF FF FF FF FF FF FF FF FF FF FF FF FF FF FF FF FF FF FF FF FF FF FF FF FF FF FF FF FF FF FF FF FF FF FF FF FF FF FF FF FF FF FF FF FF FF FF FF FF FF FF FF FF FF FF FF FF FF FF FF FF FF FF FF FF FF FF FF FF FF FF FF
08:43:49.787 设备发送:07 03 06 84 00 04 04 CE
08:43:52.801 设备接收:FF FF FF FF FF FF FF FF FF FF FF FF FF FF FF FF FF FF FF FF FF FF FF FF FF FF FF FF FF FF FF FF FF FF FF FF FF FF FF FF FF FF FF FF FF FF FF FF FF FF FF FF FF FF FF FF FF FF FF FF FF FF FF FF FF FF FF FF FF FF FF FF FF FF FF FF FF FF FF FF FF FF FF FF FF FF FF FF FF FF FF FF FF FF FF FF FF FF FF FF FF FF FF FF FF FF FF FF FF FF FF FF FF FF FF FF FF FF FF FF FF FF FF FF FF FF FF FF FF FF FF FF FF FF FF FF FF FF FF FF FF FF FF FF FF FF FF FF FF FF
08:43:52.816 设备发送:07 03 04 04 00 01 C4 9D
08:43:55.824 设备接收:FF FF FF FF FF FF FF FF FF FF FF FF FF FF FF FF FF FF FF FF FF FF FF FF FF FF FF FF FF FF FF FF FF FF FF FF FF FF FF FF FF FF FF FF FF FF FF FF FF FF FF FF FF FF FF FF FF FF FF FF FF FF FF FF FF FF FF FF FF FF FF FF FF FF FF FF FF FF FF FF FF FF FF FF FF FF FF FF FF FF FF FF FF FF FF FF FF FF FF FF FF FF FF FF FF FF FF FF FF FF FF FF FF FF FF FF FF FF FF FF FF FF FF FF FF FF FF FF FF FF FF FF FF FF FF FF FF FF FF FF FF FF FF FF FF FF FF FF FF FF
08:43:55.839 设备发送:08 03 04 84 00 04 05 89
08:43:58.851 设备接收:FF FF FF FF FF FF FF FF FF FF FF FF FF FF FF FF FF FF FF FF FF FF FF FF FF FF FF FF FF FF FF FF FF FF FF FF FF FF FF FF FF FF FF FF FF FF FF FF FF FF FF FF FF FF FF FF FF FF FF FF FF FF FF FF FF FF FF FF FF FF FF FF FF FF FF FF FF FF FF FF FF FF FF FF FF FF FF FF FF FF FF FF FF FF FF FF FF FF FF FF FF FF FF FF FF FF FF FF FF FF FF FF FF FF FF FF FF FF FF FF FF FF FF FF FF FF FF FF FF FF FF FF FF FF FF FF FF FF FF FF FF FF FF FF FF FF FF FF FF FF
08:43:58.867 设备发送:08 03 04 8D 00 21 14 50
08:44:01.850 设备接收:FF FF FF FF FF FF FF FF FF FF FF FF FF FF FF FF FF FF FF FF FF FF FF FF FF FF FF FF FF FF FF FF FF FF FF FF FF FF FF FF FF FF FF FF FF FF FF FF FF FF FF FF FF FF FF FF FF FF FF FF FF FF FF FF FF FF FF FF FF FF FF FF FF FF FF FF FF FF FF FF FF FF FF FF FF FF FF FF FF FF FF FF FF FF FF FF FF FF FF FF FF FF FF FF FF FF FF FF FF FF FF FF FF FF FF FF FF FF FF FF FF FF FF FF FF FF FF FF FF FF FF FF FF FF FF FF FF FF FF FF FF FF FF FF FF FF FF FF FF FF
08:44:01.865 设备发送:08 03 06 84 00 04 04 31
08:44:04.869 设备接收:FF FF FF FF FF FF FF FF FF FF FF FF FF FF FF FF FF FF FF FF FF FF FF FF FF FF FF FF FF FF FF FF FF FF FF FF FF FF FF FF FF FF FF FF FF FF FF FF FF FF FF FF FF FF FF FF FF FF FF FF FF FF FF FF FF FF FF FF FF FF FF FF FF FF FF FF FF FF FF FF FF FF FF FF FF FF FF FF FF FF FF FF FF FF FF FF FF FF FF FF FF FF FF FF FF FF FF FF FF FF FF FF FF FF FF FF FF FF FF FF FF FF FF FF FF FF FF FF FF FF FF FF FF FF FF FF FF FF FF FF FF FF FF FF FF FF FF FF FF FF
08:44:04.885 设备发送:08 03 04 04 00 01 C4 62
08:44:07.895 设备接收:FF FF FF FF FF FF FF FF FF FF FF FF FF FF FF FF FF FF FF FF FF FF FF FF FF FF FF FF FF FF FF FF FF FF FF FF FF FF FF FF FF FF FF FF FF FF FF FF FF FF FF FF FF FF FF FF FF FF FF FF FF FF FF FF FF FF FF FF FF FF FF FF FF FF FF FF FF FF FF FF FF FF FF FF FF FF FF FF FF FF FF FF FF FF FF FF FF FF FF FF FF FF FF FF FF FF FF FF FF FF FF FF FF FF FF FF FF FF FF FF FF FF FF FF FF FF FF FF FF FF FF FF FF FF FF FF FF FF FF FF FF FF FF FF FF FF FF FF FF FF
08:44:07.911 设备发送:09 03 04 84 00 04 04 58
08:44:10.906 设备接收:FF FF FF FF FF FF FF FF FF FF FF FF FF FF FF FF FF FF FF FF FF FF FF FF FF FF FF FF FF FF FF FF FF FF FF FF FF FF FF FF FF FF FF FF FF FF FF FF FF FF FF FF FF FF FF FF FF FF FF FF FF FF FF FF FF FF FF FF FF FF FF FF FF FF FF FF FF FF FF FF FF FF FF FF FF FF FF FF FF FF FF FF FF FF FF FF FF FF FF FF FF FF FF FF FF FF FF FF FF FF FF FF FF FF FF FF FF FF FF FF FF FF FF FF FF FF FF FF FF FF FF FF FF FF FF FF FF FF FF FF FF FF FF FF FF FF FF FF FF FF
08:44:10.921 设备发送:09 03 04 8D 00 21 15 81
08:44:13.923 设备接收:FF FF FF FF FF FF FF FF FF FF FF FF FF FF FF FF FF FF FF FF FF FF FF FF FF FF FF FF FF FF FF FF FF FF FF FF FF FF FF FF FF FF FF FF FF FF FF FF FF FF FF FF FF FF FF FF FF FF FF FF FF FF FF FF FF FF FF FF FF FF FF FF FF FF FF FF FF FF FF FF FF FF FF FF FF FF FF FF FF FF FF FF FF FF FF FF FF FF FF FF FF FF FF FF FF FF FF FF FF FF FF FF FF FF FF FF FF FF FF FF FF FF FF FF FF FF FF FF FF FF FF FF FF FF FF FF FF FF FF FF FF FF FF FF FF FF FF FF FF FF
08:44:13.939 设备发送:09 03 06 84 00 04 05 E0
08:44:16.964 设备接收:FF FF FF FF FF FF FF FF FF FF FF FF FF FF FF FF FF FF FF FF FF FF FF FF FF FF FF FF FF FF FF FF FF FF FF FF FF FF FF FF FF FF FF FF FF FF FF FF FF FF FF FF FF FF FF FF FF FF FF FF FF FF FF FF FF FF FF FF FF FF FF FF FF FF FF FF FF FF FF FF FF FF FF FF FF FF FF FF FF FF FF FF FF FF FF FF FF FF FF FF FF FF FF FF FF FF FF FF FF FF FF FF FF FF FF FF FF FF FF FF FF FF FF FF FF FF FF FF FF FF FF FF FF FF FF FF FF FF FF FF FF FF FF FF FF FF FF FF FF FF
08:44:16.980 设备发送:09 03 04 04 00 01 C5 B3
08:44:19.977 设备接收:FF FF FF FF FF FF FF FF FF FF FF FF FF FF FF FF FF FF FF FF FF FF FF FF FF FF FF FF FF FF FF FF FF FF FF FF FF FF FF FF FF FF FF FF FF FF FF FF FF FF FF FF FF FF FF FF FF FF FF FF FF FF FF FF FF FF FF FF FF FF FF FF FF FF FF FF FF FF FF FF FF FF FF FF FF FF FF FF FF FF FF FF FF FF FF FF FF FF FF FF FF FF FF FF FF FF FF FF FF FF FF FF FF FF FF FF FF FF FF FF FF FF FF FF FF FF FF FF FF FF FF FF FF FF FF FF FF FF FF FF FF FF FF FF FF FF FF FF FF FF
08:44:19.992 设备发送:0A 03 04 84 00 04 04 6B
08:44:23.006 设备接收:FF FF FF FF FF FF FF FF FF FF FF FF FF FF FF FF FF FF FF FF FF FF FF FF FF FF FF FF FF FF FF FF FF FF FF FF FF FF FF FF FF FF FF FF FF FF FF FF FF FF FF FF FF FF FF FF FF FF FF FF FF FF FF FF FF FF FF FF FF FF FF FF FF FF FF FF FF FF FF FF FF FF FF FF FF FF FF FF FF FF FF FF FF FF FF FF FF FF FF FF FF FF FF FF FF FF FF FF FF FF FF FF FF FF FF FF FF FF FF FF FF FF FF 08 03 08 00 00 03 1C 00 0F 1C A4 53 C2 FF FF FF FF FF FF FF FF FF FF FF FF FF FF
08:44:23.021 设备发送:0A 03 04 8D 00 21 15 B2
08:44:26.012 设备接收:FF FF FF FF FF FF FF FF FF FF FF FF FF FF FF FF FF FF FF FF FF FF FF FF FF FF FF FF FF FF FF FF FF FF FF FF FF FF FF FF FF FF FF FF FF FF FF FF FF FF FF FF FF FF FF FF FF FF FF FF FF FF FF FF FF FF FF FF FF FF FF FF FF FF FF FF FF FF FF FF FF FF FF FF FF FF FF FF FF FF FF FF FF FF FF FF FF FF FF FF FF FF FF FF FF FF FF FF FF FF FF FF FF FF FF FF FF FF FF FF FF FF FF 09 03 08 13 8B 06 66 FF DA 06 67 9E 6D 09 03 42 08 FF 09 51 00 00 00 00 00 00 00
08:44:26.026 设备发送:0A 03 06 84 00 04 05 D3
08:44:29.021 设备接收:00 00 00 00 00 00 00 00 00 00 00 08 FA 09 5D 00 00 00 00 00 00 00 00 00 00 00 00 00 00 00 00 00 00 09 09 09 73 00 00 00 00 00 00 00 00 00 00 00 00 00 00 00 00 00 00 D7 B9 09 03 08 00 00 02 96 00 0D C0 7A B6 68 09 03 02 00 02 D8 44
08:44:29.084 设备发送:0A 03 04 04 00 01 C5 80
08:44:32.075 设备发送:0A 03 04 04 00 01 C5 80
08:44:35.093 设备发送:0A 03 04 04 00 01 C5 80
08:44:38.128 设备发送:01 03 04 84 00 04 05 10
08:44:41.114 设备接收:01 03 08 13 8B 09 82 FF C8 09 83 61 5A
08:44:41.135 设备发送:01 03 04 8D 00 21 14 C9
08:44:44.140 设备接收:01 03 42 09 00 0D BC 00 00 00 00 00 00 00 00 00 00 00 00 00 00 00 00 00 00 09 07 0D D1 00 00 00 00 00 00 00 00 00 00 00 00 00 00 00 00 00 00 09 0E 0D EC 00 00 00 00 00 00 00 00 00 00 00 00 00 00 00 00 00 00 1C FE
08:44:44.156 设备发送:01 03 06 84 00 04 04 A8
08:44:47.149 设备接收:01 03 08 00 00 04 0D 00 12 7F 13 78 6A
08:44:47.165 设备发送:01 03 04 04 00 01 C4 FB
08:44:50.163 设备接收:01 03 02 00 02 39 85
08:44:50.178 设备发送:02 03 04 84 00 04 05 23
08:44:53.205 设备接收:02 03 08 13 8B 07 F9 FF D1 07 F9 DF 7E
08:44:53.221 设备发送:02 03 04 8D 00 21 14 FA
08:44:56.200 设备接收:02 03 42 08 FD 0B 8A 00 00 00 00 00 00 00 00 00 00 00 00 00 00 00 00 00 00 09 02 0B 87 00 00 00 00 00 00 00 00 00 00 00 00 00 00 00 00 00 00 09 09 0B B5 00 00 00 00 00 00 00 00 00 00 00 00 00 00 00 00 00 00 BB 61
08:44:56.231 设备发送:02 03 06 84 00 04 04 9B
08:44:59.244 设备接收:02 03 08 00 00 02 80 00 12 CD 26 EF E0
08:44:59.274 设备发送:02 03 04 04 00 01 C4 C8
08:45:02.271 设备接收:02 03 02 00 02 7D 85
08:45:02.287 设备发送:03 03 04 84 00 04 04 F2
08:45:05.287 设备接收:03 03 08 13 8A 0C FE FF E8 0C FE E9 06
08:45:05.302 设备发送:03 03 04 8D 00 21 15 2B
08:45:08.321 设备接收:03 03 42 09 01 12 C1 00 00 00 00 00 00 00 00 00 00 00 00 00 00 00 00 00 00 09 12 12 BA 00 00 00 00 00 00 00 00 00 00 00 00 00 00 00 00 00 00 09 14 12 DE 00 00 00 00 00 00 00 00 00 00 00 00 00 00 00 00 00 00 3D 41
08:45:08.337 设备发送:03 03 06 84 00 04 05 4A
08:45:11.332 设备接收:03 03 08 00 00 06 0C 00 13 44 D4 4C 92
08:45:11.348 设备发送:03 03 04 04 00 01 C5 19
08:45:14.342 设备接收:03 03 02 00 02 40 45
08:45:14.357 设备发送:04 03 04 84 00 04 05 45
08:45:17.382 设备发送:04 03 04 84 00 04 05 45
08:45:20.405 设备发送:04 03 04 84 00 04 05 45
08:45:23.436 设备发送:04 03 04 8D 00 21 14 9C
08:45:26.457 设备发送:04 03 04 8D 00 21 14 9C
08:45:29.458 设备发送:04 03 04 8D 00 21 14 9C
08:45:32.467 设备发送:04 03 06 84 00 04 04 FD
08:45:35.477 设备接收:04 03 08 00 00 05 0B 00 10 A1 82 D9 BB
08:45:35.509 设备发送:04 03 04 04 00 01 C4 AE
08:45:38.539 设备发送:04 03 04 04 00 01 C4 AE
08:45:41.517 设备接收:04 03 02 00 02 F5 85
08:45:41.533 设备发送:05 03 04 84 00 04 04 94
08:45:44.546 设备接收:05 03 08 13 88 07 53 FF F3 07 53 CE 67
08:45:44.562 设备发送:05 03 04 8D 00 21 15 4D
08:45:47.557 设备接收:05 03 42 08 FF 0A A4 00 00 00 00 00 00 00 00 00 00 00 00 00 00 00 00 00 00 09 01 0A 9B 00 00 00 00 00 00 00 00 00 00 00 00 00 00 00 00 00 00 09 09 0A AF 00 00 00 00 00 00 00 00 00 00 00 00 00 00 00 00 00 00 04 8A
08:45:47.604 设备发送:05 03 06 84 00 04 05 2C
08:45:50.601 设备接收:05 03 08 00 00 02 F8 00 0E 0A 77 07 94
08:45:50.616 设备发送:05 03 04 04 00 01 C5 7F
08:45:53.630 设备接收:05 03 02 00 02 C8 45
08:45:53.646 设备发送:06 03 04 84 00 04 04 A7
08:45:56.632 设备接收:06 03 08 13 89 06 69 00 0E 06 6A 68 51
08:45:56.648 设备发送:06 03 04 8D 00 21 15 7E
08:45:59.658 设备接收:06 03 42 09 03 09 65 00 00 00 00 00 00 00 00 00 00 00 00 00 00 00 00 00 00 09 01 09 64 00 00 00 00 00 00 00 00 00 00 00 00 00 00 00 00 00 00 09 0C 09 89 00 00 00 00 00 00 00 00 00 00 00 00 00 00 00 00 00 00 F7 1B
08:45:59.673 设备发送:06 03 06 84 00 04 05 1F
08:46:02.673 设备接收:06 03 08 00 00 02 88 00 0D FF 31 7F B9
08:46:02.681 设备发送:06 03 04 04 00 01 C5 4C
08:46:05.695 设备接收:06 03 02 00 02 8C 45
08:46:05.711 设备发送:07 03 04 84 00 04 05 76
08:46:08.699 设备接收:07 03 08 13 8A 04 3F FF D8 04 41 86 D0
08:46:08.708 设备发送:07 03 04 8D 00 21 14 AF
08:46:11.731 设备接收:07 03 42 09 09 06 2C 00 00 00 00 00 00 00 00 00 00 00 00 00 00 00 00 00 00 08 FF 06 32 00 00 00 00 00 00 00 00 00 00 00 00 00 00 00 00 00 00 09 08 06 2A 00 00 00 00 00 00 00 00 00 00 00 00 00 00 00 00 00 00 87 A0
08:46:11.746 设备发送:07 03 06 84 00 04 04 CE
08:46:14.760 设备接收:07 03 08 00 00 02 06 00 06 EF 15 6F 43
08:46:14.776 设备发送:07 03 04 04 00 01 C4 9D
08:46:17.762 设备接收:07 03 02 00 02 B1 85
08:46:17.794 设备发送:08 03 04 84 00 04 05 89
08:46:20.788 设备接收:08 03 08 13 8A 08 AF 00 0F 08 AF 73 75
08:46:20.820 设备发送:08 03 04 8D 00 21 14 50
08:46:23.824 设备接收:08 03 42 08 FF 0C BE 00 00 00 00 00 00 00 00 00 00 00 00 00 00 00 00 00 00 08 F7 0C AF 00 00 00 00 00 00 00 00 00 00 00 00 00 00 00 00 00 00 09 05 0C DC 00 00 00 00 00 00 00 00 00 00 00 00 00 00 00 00 00 00 5A BC
08:46:23.839 设备发送:08 03 06 84 00 04 04 31
08:46:26.821 设备接收:08 03 08 00 00 03 73 00 0F 1C AD 47 CD
08:46:26.853 设备发送:08 03 04 04 00 01 C4 62
08:46:29.863 设备接收:08 03 02 00 02 E5 84
08:46:29.878 设备发送:09 03 04 84 00 04 04 58
08:46:32.874 设备接收:09 03 08 13 8A 06 AE FF F0 06 AE 8E E3
08:46:32.896 设备发送:09 03 04 8D 00 21 15 81
08:46:35.886 设备接收:09 03 42 09 01 09 A9 00 00 00 00 00 00 00 00 00 00 00 00 00 00 00 00 00 00 08 FA 09 BC 00 00 00 00 00 00 00 00 00 00 00 00 00 00 00 00 00 00 09 08 09 CE 00 00 00 00 00 00 00 00 00 00 00 00 00 00 00 00 00 00 68 9A
08:46:35.902 设备发送:09 03 06 84 00 04 05 E0
08:46:38.912 设备接收:09 03 08 00 00 02 D8 00 0D C0 80 5E 25
08:46:38.943 设备发送:09 03 04 04 00 01 C5 B3
08:46:41.941 设备接收:09 03 02 00 02 D8 44
08:46:41.957 设备发送:0A 03 04 84 00 04 04 6B
08:46:44.975 设备发送:0A 03 04 84 00 04 04 6B
08:46:48.005 设备发送:0A 03 04 84 00 04 04 6B
08:46:51.018 设备发送:0A 03 04 8D 00 21 15 B2
08:46:54.045 设备发送:0A 03 04 8D 00 21 15 B2
08:46:57.064 设备发送:0A 03 04 8D 00 21 15 B2
08:47:00.052 设备发送:0A 03 06 84 00 04 05 D3
08:47:03.082 设备发送:0A 03 06 84 00 04 05 D3
08:47:06.109 设备发送:0A 03 06 84 00 04 05 D3
08:47:09.117 设备发送:0A 03 04 04 00 01 C5 80
08:47:12.148 设备发送:0A 03 04 04 00 01 C5 80
08:47:15.159 设备发送:0A 03 04 04 00 01 C5 80
08:47:18.203 设备发送:01 03 04 84 00 04 05 10
08:47:21.213 设备接收:01 03 08 13 8B 09 D3 FF EB 09 D3 6D 60
08:47:21.228 设备发送:01 03 04 8D 00 21 14 C9
08:47:24.194 设备接收:01 03 42 09 04 0E 33 00 00 00 00 00 00 00 00 00 00 00 00 00 00 00 00 00 00 09 0A 0E 46 00 00 00 00 00 00 00 00 00 00 00 00 00 00 00 00 00 00 09 0E 0E 5C 00 00 00 00 00 00 00 00 00 00 00 00 00 00 00 00 00 00 06 4A
08:47:24.241 设备发送:01 03 06 84 00 04 04 A8
08:47:27.239 设备接收:01 03 08 00 00 04 7B 00 12 7F 1E 70 64
08:47:27.269 设备发送:01 03 04 04 00 01 C4 FB
08:47:30.246 设备接收:01 03 02 00 02 39 85
08:47:30.268 设备发送:02 03 04 84 00 04 05 23
08:47:33.280 设备接收:02 03 08 13 89 08 2B 00 0D 08 2B 30 10
08:47:33.295 设备发送:02 03 04 8D 00 21 14 FA
08:47:36.291 设备接收:02 03 42 09 00 0B F1 00 00 00 00 00 00 00 00 00 00 00 00 00 00 00 00 00 00 09 04 0B EE 00 00 00 00 00 00 00 00 00 00 00 00 00 00 00 00 00 00 09 08 0C 11 00 00 00 00 00 00 00 00 00 00 00 00 00 00 00 00 00 00 54 54
08:47:36.305 设备发送:02 03 06 84 00 04 04 9B
08:47:39.299 设备接收:02 03 08 00 00 02 DD 00 12 CD 2F C2 2B
08:47:39.315 设备发送:02 03 04 04 00 01 C4 C8
08:47:42.339 设备接收:02 03 02 00 02 7D 85
08:47:42.354 设备发送:03 03 04 84 00 04 04 F2
08:47:45.353 设备接收:03 03 08 13 86 0D 83 FF E4 0D 83 49 6F
08:47:45.368 设备发送:03 03 04 8D 00 21 15 2B
08:47:48.384 设备接收:03 03 42 09 00 13 7C 00 00 00 00 00 00 00 00 00 00 00 00 00 00 00 00 00 00 09 16 13 78 00 00 00 00 00 00 00 00 00 00 00 00 00 00 00 00 00 00 09 14 13 9C 00 00 00 00 00 00 00 00 00 00 00 00 00 00 00 00 00 00 66 15
08:47:48.400 设备发送:03 03 06 84 00 04 05 4A
08:47:51.401 设备接收:03 03 08 00 00 06 A4 00 13 44 E4 2D 5E
08:47:51.416 设备发送:03 03 04 04 00 01 C5 19
08:47:54.416 设备接收:03 03 02 00 02 40 45
08:47:54.432 设备发送:04 03 04 84 00 04 05 45
08:47:57.438 设备接收:04 03 08 13 84 0A E6 00 15 0A E6 9E 98
08:47:57.454 设备发送:04 03 04 8D 00 21 14 9C
08:48:00.461 设备接收:04 03 42 09 08 0F C2 00 00 00 00 00 00 00 00 00 00 00 00 00 00 00 00 00 00 08 FF 0F C1 00 00 00 00 00 00 00 00 00 00 00 00 00 00 00 00 00 00 09 15 0F CE 00 00 00 00 00 00 00 00 00 00 00 00 00 00 00 00 00 00 02 5C
08:48:00.477 设备发送:04 03 06 84 00 04 04 FD
08:48:03.493 设备接收:04 03 08 00 00 05 7B 00 10 A1 8D D8 74
08:48:03.509 设备发送:04 03 04 04 00 01 C4 AE
08:48:06.497 设备接收:04 03 02 00 02 F5 85
08:48:06.512 设备发送:05 03 04 84 00 04 04 94
08:48:09.531 设备接收:05 03 08 13 88 07 A0 00 0D 07 A0 DB D3
08:48:09.546 设备发送:05 03 04 8D 00 21 15 4D
08:48:12.563 设备接收:05 03 42 09 03 0B 0C 00 00 00 00 00 00 00 00 00 00 00 00 00 00 00 00 00 00 09 06 0B 01 00 00 00 00 00 00 00 00 00 00 00 00 00 00 00 00 00 00 09 0D 0B 15 00 00 00 00 00 00 00 00 00 00 00 00 00 00 00 00 00 00 0D C4 FF FF FF FF FF FF FF FF
08:48:12.578 设备发送:05 03 06 84 00 04 05 2C
08:48:15.556 设备接收:05 03 08 00 00 03 45 00 0E 0A 7E AA 58
08:48:15.572 设备发送:05 03 04 04 00 01 C5 7F
08:48:18.567 设备接收:05 03 02 00 02 C8 45 FF FF
08:48:18.615 设备发送:06 03 04 84 00 04 04 A7
08:48:21.594 设备接收:06 03 08 13 8C 06 93 FF F2 06 93 D5 23
08:48:21.625 设备发送:06 03 04 8D 00 21 15 7E
08:48:24.619 设备接收:06 03 42 09 02 09 9D 00 00 00 00 00 00 00 00 00 00 00 00 00 00 00 00 00 00 09 02 09 9F 00 00 00 00 00 00 00 00 00 00 00 00 00 00 00 00 00 00 09 0B 09 CB 00 00 00 00 00 00 00 00 00 00 00 00 00 00 00 00 00 00 1E EA FF
08:48:24.634 设备发送:06 03 06 84 00 04 05 1F
08:48:27.629 设备接收:06 03 08 00 00 02 CC 00 0D FF 38 4F B0
08:48:27.675 设备发送:06 03 04 04 00 01 C5 4C
08:48:30.679 设备接收:06 03 02 00 02 8C 45
08:48:30.695 设备发送:07 03 04 84 00 04 05 76
08:48:33.673 设备接收:07 03 08 13 8B 04 6D FF CE 04 71 CE 0C
08:48:33.688 设备发送:07 03 04 8D 00 21 14 AF
08:48:36.720 设备接收:07 03 42 09 0C 06 65 00 00 00 00 00 00 00 00 00 00 00 00 00 00 00 00 00 00 09 05 06 6F 00 00 00 00 00 00 00 00 00 00 00 00 00 00 00 00 00 00 09 0D 06 65 00 00 00 00 00 00 00 00 00 00 00 00 00 00 00 00 00 00 61 F4
08:48:36.735 设备发送:07 03 06 84 00 04 04 CE
08:48:39.731 设备接收:07 03 08 00 00 02 33 00 06 EF 1A A3 43
08:48:39.747 设备发送:07 03 04 04 00 01 C4 9D
08:48:42.741 设备接收:07 03 02 00 02 B1 85
08:48:42.757 设备发送:08 03 04 84 00 04 05 89
08:48:45.751 设备接收:08 03 08 13 8B 09 17 FF EE 09 17 A3 BF
08:48:45.766 设备发送:08 03 04 8D 00 21 14 50
08:48:48.773 设备接收:08 03 42 08 FD 0D 27 00 00 00 00 00 00 00 00 00 00 00 00 00 00 00 00 00 00 08 F6 0D 1E 00 00 00 00 00 00 00 00 00 00 00 00 00 00 00 00 00 00 09 04 0D 53 00 00 00 00 00 00 00 00 00 00 00 00 00 00 00 00 00 00 A0 CC
08:48:48.821 设备发送:08 03 06 84 00 04 04 31
08:48:51.823 设备接收:08 03 08 00 00 03 D0 00 0F 1C B6 C3 DF
08:48:51.838 设备发送:08 03 04 04 00 01 C4 62
08:48:54.817 设备接收:08 03 02 00 02 E5 84
08:48:54.864 设备发送:09 03 04 84 00 04 04 58
08:48:57.864 设备接收:09 03 08 13 8B 06 EF FF D7 06 F0 93 DF
08:48:57.880 设备发送:09 03 04 8D 00 21 15 81
08:49:00.860 设备接收:09 03 42 09 02 09 FC 00 00 00 00 00 00 00 00 00 00 00 00 00 00 00 00 00 00 08 FC 0A 0D 00 00 00 00 00 00 00 00 00 00 00 00 00 00 00 00 00 00 09 0A 0A 21 00 00 00 00 00 00 00 00 00 00 00 00 00 00 00 00 00 00 CC 20
08:49:00.891 设备发送:09 03 06 84 00 04 05 E0
08:49:03.887 设备接收:09 03 08 00 00 03 1E 00 0D C0 87 96 27
08:49:03.918 设备发送:09 03 04 04 00 01 C5 B3
08:49:06.900 设备接收:09 03 02 00 02 D8 44
08:49:06.930 设备发送:0A 03 04 84 00 04 04 6B
08:49:09.962 设备发送:0A 03 04 84 00 04 04 6B
08:49:12.975 设备发送:0A 03 04 84 00 04 04 6B
08:49:16.004 设备发送:0A 03 04 8D 00 21 15 B2
08:49:19.017 设备发送:0A 03 04 8D 00 21 15 B2
08:49:22.027 设备发送:0A 03 04 8D 00 21 15 B2
08:49:25.046 设备发送:0A 03 06 84 00 04 05 D3
08:49:28.058 设备发送:0A 03 06 84 00 04 05 D3
08:49:31.087 设备发送:0A 03 06 84 00 04 05 D3
08:49:34.106 设备发送:0A 03 04 04 00 01 C5 80
08:49:37.117 设备发送:0A 03 04 04 00 01 C5 80
08:49:40.146 设备发送:0A 03 04 04 00 01 C5 80
08:49:43.161 设备发送:01 03 04 84 00 04 05 10
08:49:46.173 设备接收:01 03 08 13 89 0A 45 FF EC 0A 45 37 D1
08:49:46.204 设备发送:01 03 04 8D 00 21 14 C9
08:49:49.184 设备接收:01 03 42 09 05 0E D7 00 00 00 00 00 00 00 00 00 00 00 00 00 00 00 00 00 00 09 0C 0E EA 00 00 00 00 00 00 00 00 00 00 00 00 00 00 00 00 00 00 09 10 0F 00 00 00 00 00 00 00 00 00 00 00 00 00 00 00 00 00 00 00 F2 2B
08:49:49.215 设备发送:01 03 06 84 00 04 04 A8
08:49:52.219 设备接收:01 03 08 00 00 04 E3 00 12 7F 29 10 6E
08:49:52.235 设备发送:01 03 04 04 00 01 C4 FB
08:49:55.213 设备接收:01 03 02 00 02 39 85
08:49:55.229 设备发送:02 03 04 84 00 04 05 23
08:49:58.258 设备接收:02 03 08 13 8B 08 85 FF EE 08 85 BA 56
08:49:58.280 设备发送:02 03 04 8D 00 21 14 FA
08:50:01.267 设备接收:02 03 42 09 01 0C 62 00 00 00 00 00 00 00 00 00 00 00 00 00 00 00 00 00 00 09 06 0C 6D 00 00 00 00 00 00 00 00 00 00 00 00 00 00 00 00 00 00 09 0A 0C 85 00 00 00 00 00 00 00 00 00 00 00 00 00 00 00 00 00 00 63 76
08:50:01.283 设备发送:02 03 06 84 00 04 04 9B
08:50:04.295 设备接收:02 03 08 00 00 03 33 00 12 CD 37 2B E7
08:50:04.310 设备发送:02 03 04 04 00 01 C4 C8
08:50:07.313 设备接收:02 03 02 00 02 7D 85
08:50:07.329 设备发送:03 03 04 84 00 04 04 F2
08:50:10.311 设备接收:03 03 08 13 8B 0E 07 FF AB 0E 08 14 C2
08:50:10.327 设备发送:03 03 04 8D 00 21 15 2B
08:50:13.366 设备接收:03 03 42 09 09 14 3A 00 00 00 00 00 00 00 00 00 00 00 00 00 00 00 00 00 00 09 16 14 2C 00 00 00 00 00 00 00 00 00 00 00 00 00 00 00 00 00 00 09 15 14 4C 00 00 00 00 00 00 00 00 00 00 00 00 00 00 00 00 00 00 22 9A
08:50:13.382 设备发送:03 03 06 84 00 04 05 4A
08:50:16.384 设备接收:03 03 08 00 00 07 32 00 13 44 F2 E5 5C
08:50:16.399 设备发送:03 03 04 04 00 01 C5 19
08:50:19.382 设备接收:03 03 02 00 02 40 45
08:50:19.429 设备发送:04 03 04 84 00 04 05 45
08:50:22.423 设备接收:04 03 08 13 8C 0B 5C FF EC 0B 5C AF 54
08:50:22.438 设备发送:04 03 04 8D 00 21 14 9C
08:50:25.450 设备接收:04 03 42 09 0D 10 6C 00 00 00 00 00 00 00 00 00 00 00 00 00 00 00 00 00 00 08 FE 10 5A 00 00 00 00 00 00 00 00 00 00 00 00 00 00 00 00 00 00 09 12 10 6E 00 00 00 00 00 00 00 00 00 00 00 00 00 00 00 00 00 00 D1 F5
08:50:25.466 设备发送:04 03 06 84 00 04 04 FD
08:50:28.458 设备接收:04 03 08 00 00 05 EE 00 10 A1 98 15 A6
08:50:28.474 设备发送:04 03 04 04 00 01 C4 AE
08:50:31.488 设备接收:04 03 02 00 02 F5 85
08:50:31.509 设备发送:05 03 04 84 00 04 04 94
08:50:34.529 设备发送:05 03 04 84 00 04 04 94
08:50:37.523 设备接收:05 03 08 13 8C 07 EF FF D1 07 F0 3A 0F FF FF FF FF FF FF FF FF FF FF FF FF FF FF FF FF FF FF FF FF FF FF FF FF FF FF FF FF FF FF FF FF FF FF FF FF FF FF FF FF FF FF FF FF FF FF FF FF FF FF FF FF FF FF FF FF FF FF FF FF FF FF FF FF FF FF FF FF FF FF FF FF FF FF FF FF FF FF FF FF FF FF FF FF FF FF FF FF FF FF FF FF FF FF FF FF FF FF FF FF FF FF FF FF FF FF FF FF FF FF FF FF FF FF FF FF FF FF FF FF FF FF FF FF FF FF FF FF FF FF FF FF FF FF FF FF FF
08:50:37.554 设备发送:05 03 04 8D 00 21 15 4D
08:50:40.552 设备接收:FF FF FF FF FF FF FF FF FF FF FF FF FF FF FF FF FF FF FF FF FF FF FF FF FF FF FF FF FF FF FF FF FF FF FF FF FF FF FF FF FF FF FF FF FF FF FF FF FF FF FF FF FF FF FF FF FF FF FF FF FF FF FF FF FF FF FF FF FF FF FF FF FF FF FF FF FF FF FF FF FF FF FF FF FF FF FF FF FF FF FF FF FF FF FF FF FF FF FF FF FF FF FF FF FF FF FF FF FF FF FF FF FF FF FF FF FF FF FF FF FF FF FF FF FF FF FF FF FF FF FF FF FF FF FF FF FF FF FF FF FF FF FF FF FF FF FF FF FF FF
08:50:40.567 设备发送:05 03 06 84 00 04 05 2C
08:50:43.565 设备接收:FF FF FF FF FF FF FF FF FF FF FF FF FF FF FF FF FF FF FF FF FF FF FF FF FF FF FF FF FF FF FF FF FF FF FF FF FF FF FF FF FF FF FF FF FF FF FF FF FF FF FF FF FF FF FF FF FF FF FF FF FF FF FF FF FF FF FF FF FF FF FF FF FF FF FF FF FF FF FF FF FF FF FF FF FF FF FF FF FF FF FF FF FF FF FF FF FF FF FF FF FF FF FF FF FF FF FF FF FF FF FF FF FF FF FF FF FF FF FF FF FF FF FF FF FF FF FF FF FF FF FF FF FF FF FF FF FF FF FF FF FF FF FF FF FF FF FF FF FF FF
08:50:43.581 设备发送:05 03 04 04 00 01 C5 7F
08:50:46.561 设备接收:FF FF FF FF FF FF FF FF FF FF FF FF FF FF FF FF FF FF FF FF FF FF FF FF FF FF FF FF FF FF FF FF FF FF FF FF FF FF FF FF FF FF FF FF FF FF FF FF FF FF FF FF FF FF FF FF FF FF FF FF FF FF FF FF FF FF FF FF FF FF FF FF FF FF FF FF FF FF FF FF FF FF FF FF FF FF FF FF FF FF FF FF FF FF FF FF FF FF FF FF FF FF FF FF FF FF FF FF FF FF FF FF FF FF FF FF FF FF FF FF FF FF FF FF FF FF FF FF FF FF FF FF FF FF FF FF FF FF FF FF FF FF FF FF FF FF FF FF FF FF
08:50:46.577 设备发送:06 03 04 84 00 04 04 A7
08:50:49.604 设备接收:FF FF FF FF FF FF FF FF FF FF FF FF FF FF FF FF FF FF FF FF FF FF FF FF FF FF FF FF FF FF FF FF FF FF FF FF FF FF FF FF FF FF FF FF FF FF FF FF FF FF FF FF FF FF FF FF FF FF FF FF FF FF FF FF FF FF FF FF FF FF FF FF FF FF FF FF FF FF FF FF FF FF FF FF FF FF FF FF FF FF FF FF FF FF FF FF FF FF FF FF FF FF FF FF FF FF FF FF FF FF FF FF FF FF FF FF FF FF FF FF FF FF FF FF FF FF FF FF FF FF FF FF FF FF FF FF FF FF FF FF FF FF FF FF FF FF FF FF FF FF
08:50:49.619 设备发送:06 03 04 8D 00 21 15 7E
08:50:52.627 设备接收:FF FF FF FF FF FF FF FF FF FF FF FF FF FF FF FF FF FF FF FF FF FF FF FF FF FF FF FF FF FF FF FF FF FF FF FF FF FF FF FF FF FF FF FF FF FF FF FF FF FF FF FF FF FF FF FF FF FF FF FF FF FF FF FF FF FF FF FF FF FF FF FF FF FF FF FF FF FF FF FF FF FF FF FF FF FF FF FF FF FF FF FF FF FF FF FF FF FF FF FF FF FF FF FF FF FF FF FF FF FF FF FF FF FF FF FF FF FF FF FF FF FF FF FF FF FF FF FF FF FF FF FF FF FF FF FF FF FF FF FF FF FF FF FF FF FF FF FF FF FF
08:50:52.645 设备发送:06 03 06 84 00 04 05 1F
08:50:55.639 设备接收:FF FF FF FF FF FF FF FF FF FF FF FF FF FF FF FF FF FF FF FF FF FF FF FF FF FF FF FF FF FF FF FF FF FF FF FF FF FF FF FF FF FF FF FF FF FF FF FF FF FF FF FF FF FF FF FF FF FF FF FF FF FF FF FF FF FF FF FF FF FF FF FF FF FF FF FF FF FF FF FF FF FF FF FF FF FF FF FF FF FF FF FF FF FF FF FF FF FF FF FF FF FF FF FF FF FF FF FF FF FF FF FF FF FF FF FF FF FF FF FF FF FF FF FF FF FF FF FF FF FF FF FF FF FF FF FF FF FF FF FF FF FF FF FF FF FF FF FF FF FF
08:50:55.654 设备发送:06 03 04 04 00 01 C5 4C
08:50:58.663 设备接收:FF FF FF FF FF FF FF FF FF FF FF FF FF FF FF FF FF FF FF FF FF FF FF FF FF FF FF FF FF FF FF FF FF FF FF FF FF FF FF FF FF FF FF FF FF FF FF FF FF FF FF FF FF FF FF FF FF FF FF FF FF FF FF FF FF FF FF FF FF FF FF FF FF FF FF FF FF FF FF FF FF FF FF FF FF FF FF FF FF FF FF FF FF FF FF FF FF FF FF FF FF FF FF FF FF FF FF FF FF FF FF FF FF FF FF FF FF FF FF FF FF FF FF FF FF FF FF FF FF FF FF FF FF FF FF FF FF FF FF FF FF FF FF FF FF FF FF FF FF FF
08:50:58.678 设备发送:07 03 04 84 00 04 05 76
08:51:01.656 设备接收:FF FF FF FF FF FF FF FF FF FF FF FF FF FF FF FF FF FF FF FF FF FF FF FF FF FF FF FF FF FF FF FF FF FF FF FF FF FF FF FF FF FF FF FF FF FF FF FF FF FF FF FF FF FF FF FF FF FF FF FF FF FF FF FF FF FF FF FF FF FF FF FF FF FF FF FF FF FF FF FF FF FF FF FF FF FF FF FF FF FF FF FF FF FF FF FF FF FF FF FF FF FF FF FF FF FF FF FF FF FF FF FF FF FF FF FF FF FF FF FF FF FF FF FF FF FF FF FF FF FF FF FF FF FF FF FF FF FF FF FF FF FF FF FF FF FF FF FF FF FF
08:51:01.704 设备发送:07 03 04 8D 00 21 14 AF
08:51:04.718 设备接收:FF FF FF FF FF FF FF FF FF FF FF FF FF FF FF FF FF FF FF FF FF FF FF FF FF FF FF FF FF FF FF FF FF FF FF FF FF FF FF FF FF FF FF FF FF FF FF FF FF FF FF FF FF FF FF FF FF FF FF FF FF FF FF FF FF FF FF FF FF FF FF FF FF FF FF FF FF FF FF FF FF FF FF FF FF FF FF FF FF FF FF FF FF FF FF FF FF FF FF FF FF FF FF FF FF FF FF FF FF FF FF FF FF FF FF FF FF FF FF FF FF FF FF FF FF FF FF FF FF FF FF FF FF FF FF FF FF FF FF FF FF FF FF FF FF FF FF FF FF FF
08:51:04.735 设备发送:07 03 06 84 00 04 04 CE
08:51:07.714 设备接收:FF FF FF FF FF FF FF FF FF FF FF FF FF FF FF FF FF FF FF FF FF FF FF FF FF FF FF FF FF FF FF FF FF FF FF FF FF FF FF FF FF FF FF FF FF FF FF FF FF FF FF FF FF FF FF FF FF FF FF FF FF FF FF FF FF FF FF FF FF FF FF FF FF FF FF FF FF FF FF FF FF FF FF FF FF FF FF FF FF FF FF FF FF FF FF FF FF FF FF FF FF FF FF FF FF FF FF FF FF FF FF FF FF FF FF FF FF FF FF FF FF FF FF FF FF FF FF FF FF FF FF FF FF FF FF FF FF FF FF FF FF FF FF FF FF FF FF FF FF FF
08:51:07.745 设备发送:07 03 04 04 00 01 C4 9D
08:51:10.736 设备接收:FF FF FF FF FF FF FF FF FF FF FF FF FF FF FF FF FF FF FF FF FF FF FF FF FF FF FF FF FF FF FF FF FF FF FF FF FF FF FF FF FF FF FF FF FF FF FF FF FF FF FF FF FF FF FF FF FF FF FF FF FF FF FF FF FF FF FF FF FF FF FF FF FF FF FF FF FF FF FF FF FF FF FF FF FF FF FF FF FF FF FF FF FF FF FF FF FF FF FF FF FF FF FF FF FF FF FF FF FF FF FF FF FF FF FF FF FF FF FF FF FF FF FF FF FF FF FF FF FF FF FF FF FF FF FF FF FF FF FF FF FF FF FF FF FF FF FF FF FF FF
08:51:10.752 设备发送:08 03 04 84 00 04 05 89
08:51:13.764 设备接收:FF FF FF FF FF FF FF FF FF FF FF FF FF FF FF FF FF FF FF FF FF FF FF FF FF FF FF FF FF FF FF FF FF FF FF FF FF FF FF FF FF FF FF FF FF FF FF FF FF FF FF FF FF FF FF FF FF FF FF FF FF FF FF FF FF FF FF FF FF FF FF FF FF FF FF FF FF FF FF FF FF FF FF FF FF FF FF FF FF FF FF FF FF FF FF FF FF FF FF FF FF FF FF FF FF FF FF FF FF FF FF FF FF FF FF FF FF FF FF FF FF FF FF FF FF FF FF FF FF FF FF FF FF FF FF FF FF FF FF FF FF FF FF FF FF FF FF FF FF FF
08:51:13.778 设备发送:08 03 04 8D 00 21 14 50
08:51:16.773 设备接收:FF FF FF FF FF FF FF FF FF FF FF FF FF FF FF FF FF FF FF FF FF FF FF FF FF FF FF FF FF FF FF FF FF FF FF FF FF FF FF FF FF FF FF FF FF FF FF FF FF FF FF FF FF FF FF FF FF FF FF FF FF FF FF FF FF FF FF FF FF FF FF FF FF FF FF FF FF FF FF FF FF FF FF FF FF FF FF FF FF FF FF FF FF FF FF FF FF FF FF FF FF FF FF FF FF FF FF FF FF FF FF FF FF FF FF FF FF FF FF FF FF FF FF FF FF FF FF FF FF FF FF FF FF FF FF FF FF FF FF FF FF FF FF FF FF FF FF FF FF FF
08:51:16.803 设备发送:08 03 06 84 00 04 04 31
08:51:19.798 设备接收:FF FF FF FF FF FF FF FF FF FF FF FF FF FF FF FF FF FF FF FF FF FF FF FF FF FF FF FF FF FF FF FF FF FF FF FF FF FF FF FF FF FF FF FF FF FF FF FF FF FF FF FF FF FF FF FF FF FF FF FF FF FF FF FF FF FF FF FF FF FF FF FF FF FF FF FF FF FF FF FF FF FF FF FF FF FF FF FF FF FF FF FF FF FF FF FF FF FF FF FF FF FF FF FF FF FF FF FF FF FF FF FF FF FF FF FF FF FF FF FF FF FF FF FF FF FF FF FF FF FF FF FF FF FF FF FF FF FF FF FF FF FF FF FF FF FF FF FF FF FF
08:51:19.813 设备发送:08 03 04 04 00 01 C4 62
08:51:22.828 设备接收:FF FF FF FF FF FF FF FF FF FF FF FF FF FF FF FF FF FF FF FF FF FF FF FF FF FF FF FF FF FF FF FF FF FF FF FF FF FF FF FF FF FF FF FF FF FF FF FF FF FF FF FF FF FF FF FF FF FF FF FF FF FF FF FF FF FF FF FF FF FF FF FF FF FF FF FF FF FF FF FF FF FF FF FF FF FF FF FF FF FF FF FF FF FF FF FF FF FF FF FF FF FF FF FF FF FF FF FF FF FF FF FF FF FF FF FF FF FF FF FF FF FF FF FF FF FF FF FF FF FF FF FF FF FF FF FF FF FF FF FF FF FF FF FF FF FF FF FF FF FF
08:51:22.842 设备发送:09 03 04 84 00 04 04 58
08:51:25.823 设备接收:FF FF FF FF FF FF FF FF FF FF FF FF FF FF FF FF FF FF FF FF FF FF FF FF FF FF FF FF FF FF FF FF FF FF FF FF FF FF FF FF FF FF FF FF FF FF FF FF FF FF FF FF FF FF FF FF FF FF FF FF FF FF FF FF FF FF FF FF FF FF FF FF FF FF FF FF FF FF FF FF FF FF FF FF FF FF FF FF FF FF FF FF FF FF FF FF FF FF FF FF FF FF FF FF FF FF FF FF FF FF FF FF FF FF FF FF FF FF FF FF FF FF FF FF FF FF FF FF FF FF FF FF FF FF FF FF FF FF FF FF FF FF FF FF FF FF FF FF FF FF
08:51:25.870 设备发送:09 03 04 8D 00 21 15 81
08:51:28.852 设备接收:FF FF FF FF FF FF FF FF FF FF FF FF FF FF FF FF FF FF FF FF FF FF FF FF FF FF FF FF FF FF FF FF FF FF FF FF FF FF FF FF FF FF FF FF FF FF FF FF FF FF FF FF FF FF FF FF FF FF FF FF FF FF FF FF FF FF FF FF FF FF FF FF FF FF FF FF FF FF FF FF FF FF FF FF FF FF FF FF FF FF FF FF FF FF FF FF FF FF FF FF FF FF FF FF FF FF FF FF FF FF FF FF FF FF FF FF FF FF FF FF FF FF FF FF FF FF FF FF FF FF FF FF FF FF FF FF FF FF FF FF FF FF FF FF FF FF FF FF FF FF
08:51:28.866 设备发送:09 03 06 84 00 04 05 E0
08:51:31.886 设备接收:FF FF FF FF FF FF FF FF FF FF FF FF FF FF FF FF FF FF FF FF FF FF FF FF FF FF FF FF FF FF FF FF FF FF FF FF FF FF FF FF FF FF FF FF FF FF FF FF FF FF FF FF FF FF FF FF FF FF FF FF FF FF FF FF FF FF FF FF FF FF FF FF FF FF FF FF FF FF FF FF FF FF FF FF FF FF FF FF FF FF FF FF FF FF FF FF FF FF FF FF FF FF FF FF FF FF FF FF FF FF FF FF FF FF FF FF FF FF FF FF FF FF FF FF FF FF FF FF FF FF FF FF FF FF FF FF FF FF FF FF FF FF FF FF FF FF FF FF FF FF
08:51:31.902 设备发送:09 03 04 04 00 01 C5 B3
08:51:34.911 设备接收:FF FF FF FF FF FF FF FF FF FF FF FF FF FF FF FF FF FF FF FF FF FF FF FF FF FF FF FF FF FF FF FF FF FF FF FF FF FF FF FF FF FF FF FF FF FF FF FF FF FF FF FF FF FF FF FF FF FF FF FF FF FF FF FF FF FF FF FF FF FF FF FF FF FF FF FF FF FF FF FF FF FF FF FF FF FF FF FF FF FF FF FF FF FF FF FF FF FF FF FF FF FF FF FF FF FF FF FF FF FF FF FF FF FF FF FF FF FF FF FF FF FF FF FF FF FF FF FF FF FF FF FF FF FF FF FF FF FF FF FF FF FF FF FF FF FF FF FF FF FF
08:51:34.925 设备发送:0A 03 04 84 00 04 04 6B
08:51:37.907 设备接收:FF FF FF FF FF FF FF FF FF FF FF FF FF FF FF FF FF FF FF FF FF FF FF FF FF FF FF FF FF FF FF FF FF FF FF FF FF FF FF FF FF FF FF FF FF FF FF FF FF FF FF FF FF FF FF FF FF FF FF FF FF FF FF FF FF FF FF FF FF FF FF FF FF FF FF FF FF FF FF FF FF FF FF FF FF FF FF FF FF FF FF FF FF FF FF FF FF FF FF FF FF FF FF FF FF FF FF FF FF FF FF FF FF FF FF FF FF FF FF FF FF FF FF FF FF FF FF FF FF FF FF FF FF FF FF FF FF FF FF FF FF FF FF FF FF FF FF FF FF FF
08:51:37.937 设备发送:0A 03 04 8D 00 21 15 B2
08:51:40.947 设备接收:FF FF FF FF FF FF FF FF FF FF FF FF FF FF FF FF FF FF FF FF FF FF FF FF FF FF FF FF FF FF FF FF FF FF FF FF FF FF FF FF FF FF FF FF FF FF FF FF FF FF FF FF FF FF FF FF FF FF FF FF FF FF FF FF FF FF FF FF FF FF FF FF FF FF FF FF FF FF FF FF FF FF FF FF FF FF FF FF FF FF FF FF FF FF FF FF FF FF FF FF FF FF FF FF FF FF FF FF FF FF FF FF FF FF FF FF FF FF FF FF FF FF FF FF FF FF FF FF FF FF FF FF FF FF FF FF FF FF FF FF FF FF FF FF FF FF FF FF FF FF
08:51:40.977 设备发送:0A 03 06 84 00 04 05 D3
08:51:43.958 设备接收:FF FF FF FF FF FF FF FF FF FF FF FF FF FF FF FF FF FF FF FF FF FF FF FF FF FF FF FF FF FF FF FF FF FF FF FF FF FF FF FF FF FF FF FF FF FF FF FF FF FF FF FF FF FF FF FF FF FF FF FF FF FF FF FF FF FF FF FF FF FF FF FF FF FF FF FF FF FF FF FF FF FF FF FF FF FF FF FF FF FF FF FF FF FF FF FF FF FF FF FF FF FF FF FF FF FF FF FF FF FF FF FF FF FF FF FF FF FF FF FF FF FF FF FF FF FF FF FF FF FF FF FF FF FF FF FF FF FF FF FF FF FF FF FF FF FF FF FF FF FF
08:51:43.973 设备发送:0A 03 04 04 00 01 C5 80
08:51:46.979 设备接收:FF FF FF FF FF FF FF FF FF FF FF FF FF FF FF FF FF FF FF FF FF FF FF FF FF FF FF FF FF FF FF FF FF FF FF FF FF FF FF FF FF FF FF FF FF FF FF FF FF FF FF FF FF FF FF FF FF FF FF FF FF FF FF FF FF FF FF FF FF FF FF FF FF FF FF FF FF FF FF FF FF FF FF FF FF FF FF FF FF FF FF FF FF FF FF FF FF FF FF FF FF FF FF FF FF FF FF FF FF FF FF FF FF FF FF FF FF FF FF FF FF FF FF FF FF FF FF FF FF FF FF FF FF FF FF FF FF FF FF FF FF FF FF FF FF FF FF FF FF FF
08:51:47.011 设备发送:01 03 04 84 00 04 05 10
08:51:49.989 设备接收:FF FF FF FF FF FF FF FF FF FF FF FF FF FF FF FF FF FF FF FF FF FF FF FF FF FF FF FF FF FF FF FF FF FF FF FF FF FF FF FF FF FF FF FF FF FF FF FF FF FF FF FF FF FF FF FF FF FF FF FF FF FF FF FF FF FF FF FF FF FF FF FF FF FF FF FF FF FF FF FF FF FF FF FF FF FF FF FF FF FF FF FF FF FF FF FF FF FF FF FF FF FF FF FF FF FF FF FF FF FF FF FF FF FF FF FF FF FF FF FF FF FF FF FF FF FF FF FF FF FF FF FF FF FF FF FF FF FF FF FF FF FF FF FF FF FF FF FF FF FF
08:51:50.004 设备发送:01 03 04 8D 00 21 14 C9
08:51:53.025 设备接收:FF FF FF FF FF FF FF FF FF FF FF FF FF FF FF FF FF FF FF FF FF FF FF FF FF FF FF FF FF FF FF FF FF FF FF FF FF FF FF FF FF FF FF FF FF FF FF FF FF FF FF FF FF FF FF FF FF FF FF FF FF FF FF FF FF FF FF FF FF FF FF FF FF FF FF FF FF FF FF FF FF FF FF FF FF FF FF FF FF FF FF FF FF FF FF FF FF FF FF FF FF FF FF FF FF FF FF FF FF FF FF FF FF FF FF FF FF FF FF FF FF FF FF FF FF FF FF FF FF FF FF FF FF FF FF FF FF FF FF FF FF FF FF FF FF FF FF FF FF FF
08:51:53.303 设备发送:01 03 06 84 00 04 04 A8
08:51:56.031 设备接收:FF FF FF FF FF FF FF FF FF FF FF FF FF FF FF FF FF FF FF FF FF FF FF FF FF FF FF FF FF FF FF FF FF FF FF FF FF FF FF FF FF FF FF FF FF FF FF FF FF FF FF FF FF FF FF FF FF FF FF FF FF FF FF FF FF FF FF FF FF FF FF FF FF FF FF FF FF FF FF FF FF FF FF FF FF FF FF FF FF FF FF FF FF FF FF FF FF FF FF FF FF FF FF FF FF FF FF FF FF FF FF FF FF FF FF FF FF FF FF FF FF FF FF FF FF FF FF FF FF FF FF FF FF FF FF FF FF FF FF FF FF FF FF FF FF FF FF FF FF FF
08:51:56.062 设备发送:01 03 04 04 00 01 C4 FB
