10:56:53.35400
10:56:53.35700
10:56:53.36000
10:56:53.36300
10:56:53.37500
10:56:56.335 设备接收:01 03 1E 20 A3 05 A5 04 B7 1F 3E 06 29 04 ED 20 A8 05 8B 04 A2 1F 1B 06 25 04 E4 16 F9 03 29 01 DB 95 EF
10:56:56.351 设备发送:01 03 05 93 00 0F F5 2F
10:57:01.363 设备接收:01 03 1E 00 00 00 00 00 00 1A 26 06 71 04 50 1B A5 03 33 02 43 1B EB 03 3B 02 4F 00 00 00 05 00 00 AF 2C
10:57:01.378 设备发送:01 03 05 A2 00 0F A4 E0
10:57:06.385 设备接收:01 03 1E 00 00 00 00 00 00 00 00 00 00 00 00 00 00 00 00 00 00 00 00 00 00 00 00 00 00 00 00 00 00 D8 BA
10:57:06.401 设备发送:01 03 05 B1 00 03 55 20
10:57:11.430 设备接收:01 03 06 00 00 00 00 00 00 21 75
10:57:11.446 设备发送:01 03 04 2B 00 01 F5 32
10:57:16.434 设备接收:01 03 02 02 CE 38 B0
10:57:16.449 设备发送:01 03 04 20 00 01 84 F0
10:57:21.480 设备接收:01 03 02 00 1D 78 4D
10:57:21.496 设备发送:01 03 04 05 00 01 95 3B
10:57:26.486 设备接收:01 03 02 00 00 B8 44
10:57:26.517 设备发送:02 03 04 84 00 04 05 23
10:57:31.523 设备接收:02 03 08 13 8A 1C 03 FF C4 1C 04 CE F4
10:57:31.539 设备发送:02 03 04 8D 00 05 14 E1
10:57:36.557 设备接收:02 03 0A 09 22 27 AD 00 00 00 00 00 00 4E CF
10:57:36.573 设备发送:02 03 04 98 00 05 05 25
10:57:41.574 设备接收:02 03 0A 09 48 27 C5 00 00 00 00 00 00 71 AB
10:57:41.605 设备发送:02 03 04 A3 00 05 74 E8
10:57:46.594 设备接收:02 03 0A 09 35 27 EA 00 00 00 00 00 00 92 3B
10:57:46.610 设备发送:02 03 06 84 00 04 04 9B
10:57:51.635 设备接收:02 03 08 00 00 2A 9F 00 13 77 F2 5E F5
10:57:51.651 设备发送:02 03 04 04 00 01 C4 C8
10:57:56.651 设备接收:02 03 02 00 02 7D 85
10:57:56.666 设备发送:02 03 05 84 00 0F 45 18
10:58:01.666 设备接收:02 03 1E 1F 46 03 06 02 6C 1F 16 03 03 02 66 1F 05 03 0F 02 6E 1F 64 05 FC 04 CF 1E EB 03 05 02 64 30 04
10:58:01.712 设备发送:02 03 05 93 00 0F F5 1C
10:58:06.712 设备接收:02 03 1E 1F 0E 02 FD 02 60 1F 15 03 0D 02 6E 1E EA 06 39 04 EC 1E DD 03 1A 02 73 1F 16 03 29 02 84 18 25
10:58:06.727 设备发送:02 03 05 A2 00 0F A4 D3
10:58:11.719 设备接收:02 03 1E 00 00 00 04 00 00 00 00 00 00 00 00 00 00 00 00 00 00 00 00 00 00 00 00 00 00 00 00 00 00 92 31
10:58:11.767 设备发送:02 03 05 B1 00 03 55 13
10:58:16.758 设备接收:02 03 06 00 00 00 00 00 00 35 85
10:58:16.773 设备发送:02 03 04 2B 00 01 F5 01
10:58:21.800 设备接收:02 03 02 02 C9 3D 72
10:58:21.816 设备发送:02 03 04 20 00 01 84 C3
10:58:26.837 设备接收:02 03 02 00 40 FD B4
10:58:26.852 设备发送:02 03 04 05 00 01 95 08
10:58:31.862 设备接收:02 03 02 00 00 FC 44
10:58:31.940 设备发送:03 03 04 84 00 04 04 F2
10:58:36.883 设备接收:03 03 08 13 8A 1E 7A 00 37 1E 7A 17 47
10:58:36.898 设备发送:03 03 04 8D 00 05 15 30
10:58:41.906 设备发送:03 03 04 8D 00 05 15 30
10:58:46.948 设备发送:03 03 04 8D 00 05 15 30
10:58:51.991 设备发送:03 03 04 98 00 05 04 F4
10:58:56.989 设备发送:03 03 04 98 00 05 04 F4
10:59:02.039 设备发送:03 03 04 98 00 05 04 F4
10:59:07.035 设备接收:03 03 0A 09 4E 2B 29 00 00 00 00 00 00 75 11
10:59:07.066 设备发送:03 03 04 A3 00 05 75 39
10:59:12.073 设备接收:03 03 0A 09 3C 2B 35 00 00 00 00 00 00 D4 72
10:59:12.105 设备发送:03 03 06 84 00 04 05 4A
10:59:17.117 设备接收:03 03 08 00 00 32 6A 00 14 02 6D 02 FD
10:59:17.148 设备发送:03 03 04 04 00 01 C5 19
10:59:22.117 设备接收:03 03 02 00 02 40 45
10:59:22.133 设备发送:03 03 05 84 00 0F 44 C9
10:59:27.148 设备接收:03 03 1E 1E EF 06 A5 05 43 1E CE 06 A5 05 3E 1E 9A 06 96 05 29 1E C8 06 90 05 2C 16 D6 06 9F 03 DE C7 1E
10:59:27.179 设备发送:03 03 05 93 00 0F F4 CD
10:59:32.174 设备接收:03 03 1E 05 16 00 00 00 00 13 8A 04 91 02 49 1B 4D 03 5F 02 5B 1B 87 03 56 02 59 05 19 00 00 00 00 E3 2B
10:59:32.190 设备发送:03 03 05 A2 00 0F A5 02
10:59:37.212 设备接收:03 03 1E 00 0D 00 00 00 00 00 00 00 00 00 00 00 00 00 00 00 00 00 00 00 00 00 00 00 00 00 00 00 00 C1 72
10:59:37.228 设备发送:03 03 05 B1 00 03 54 C2
10:59:42.236 设备接收:03 03 06 00 00 00 00 00 00 38 15
10:59:42.252 设备发送:03 03 04 2B 00 01 F4 D0
10:59:47.266 设备接收:03 03 02 02 D1 00 B8
10:59:47.282 设备发送:03 03 04 20 00 01 85 12
10:59:52.289 设备接收:03 03 02 00 20 C0 5C
10:59:52.305 设备发送:03 03 04 05 00 01 94 D9
10:59:57.320 设备接收:03 03 02 00 00 C1 84
10:59:57.335 设备发送:01 03 04 84 00 04 05 10
11:00:02.326 设备接收:01 03 08 13 8A 1D 49 00 30 1D 49 E9 EC
11:00:02.374 设备发送:01 03 04 8D 00 05 14 D2
11:00:07.381 设备接收:01 03 0A 09 2A 29 5E 00 00 00 00 00 00 6E 4F
11:00:07.398 设备发送:01 03 04 98 00 05 05 16
11:00:12.390 设备接收:01 03 0A 09 46 29 62 00 00 00 00 00 00 6F 4E
11:00:12.452 设备发送:01 03 04 A3 00 05 74 DB
11:00:17.425 设备接收:01 03 0A 09 39 29 8A 00 00 00 00 00 00 23 72
11:00:17.471 设备发送:01 03 06 84 00 04 04 A8
11:00:22.479 设备接收:01 03 08 00 00 2E 13 00 13 2F DE 7B F7
11:00:22.495 设备发送:01 03 04 04 00 01 C4 FB
11:00:27.516 设备接收:01 03 02 00 02 39 85
11:00:27.531 设备发送:01 03 05 84 00 0F 45 2B
11:00:32.523 设备接收:01 03 1E 20 A8 05 B6 04 C6 1F 16 06 4A 05 01 20 AC 05 A4 04 B8 1F 1B 06 4C 05 04 16 FA 03 37 01 E4 64 25
11:00:32.570 设备发送:01 03 05 93 00 0F F5 2F
11:00:37.559 设备接收:01 03 1E 00 00 00 00 00 00 19 FF 06 A0 04 68 1B A6 03 3F 02 4C 1B EC 03 42 02 54 00 00 00 04 00 00 09 44
11:00:37.589 设备发送:01 03 05 A2 00 0F A4 E0
11:00:42.584 设备接收:01 03 1E 00 00 00 00 00 00 00 00 00 00 00 00 00 00 00 00 00 00 00 00 00 00 00 00 00 00 00 00 00 00 D8 BA
11:00:42.630 设备发送:01 03 05 B1 00 03 55 20
11:00:47.641 设备接收:01 03 06 00 00 00 00 00 00 21 75
11:00:47.719 设备发送:01 03 04 2B 00 01 F5 32
11:00:52.632 设备接收:01 03 02 02 CE 38 B0
11:00:52.679 设备发送:01 03 04 20 00 01 84 F0
11:00:57.663 设备接收:01 03 02 00 1E 38 4C
11:00:57.678 设备发送:01 03 04 05 00 01 95 3B
11:01:02.735 设备发送:01 03 04 05 00 01 95 3B
11:01:07.748 设备发送:01 03 04 05 00 01 95 3B
11:01:12.796 设备发送:02 03 04 84 00 04 05 23
11:01:17.791 设备发送:02 03 04 84 00 04 05 23
11:01:22.822 设备发送:02 03 04 84 00 04 05 23
11:01:27.859 设备发送:02 03 04 8D 00 05 14 E1
11:01:32.853 设备发送:02 03 04 8D 00 05 14 E1
11:01:37.909 设备发送:02 03 04 8D 00 05 14 E1
11:01:42.936 设备发送:02 03 04 98 00 05 05 25
11:01:47.966 设备发送:02 03 04 98 00 05 05 25
11:01:52.990 设备发送:02 03 04 98 00 05 05 25
11:01:58.029 设备发送:02 03 04 A3 00 05 74 E8
11:02:03.032 设备发送:02 03 04 A3 00 05 74 E8
11:02:08.070 设备发送:02 03 04 A3 00 05 74 E8
11:02:13.081 设备发送:02 03 06 84 00 04 04 9B
11:02:18.108 设备发送:02 03 06 84 00 04 04 9B
11:02:23.133 设备发送:02 03 06 84 00 04 04 9B
11:02:28.167 设备发送:02 03 04 04 00 01 C4 C8
11:02:33.203 设备发送:02 03 04 04 00 01 C4 C8
11:02:38.216 设备发送:02 03 04 04 00 01 C4 C8
11:02:43.280 设备发送:02 03 05 84 00 0F 45 18
11:02:48.271 设备发送:02 03 05 84 00 0F 45 18
11:02:53.315 设备发送:02 03 05 84 00 0F 45 18
11:02:58.344 设备发送:02 03 05 93 00 0F F5 1C
11:03:03.355 设备发送:02 03 05 93 00 0F F5 1C
11:03:08.409 设备发送:02 03 05 93 00 0F F5 1C
11:03:13.417 设备发送:02 03 05 A2 00 0F A4 D3
11:03:18.445 设备发送:02 03 05 A2 00 0F A4 D3
11:03:23.469 设备发送:02 03 05 A2 00 0F A4 D3
11:03:28.474 设备发送:02 03 05 B1 00 03 55 13
11:03:33.509 设备发送:02 03 05 B1 00 03 55 13
11:03:38.527 设备发送:02 03 05 B1 00 03 55 13
11:03:43.550 设备发送:02 03 04 2B 00 01 F5 01
11:03:48.557 设备接收:02 03 02 02 C9 3D 72
11:03:48.604 设备发送:02 03 04 20 00 01 84 C3
11:03:53.588 设备接收:02 03 02 00 40 FD B4
11:03:53.603 设备发送:02 03 04 05 00 01 95 08
11:03:58.617 设备接收:02 03 02 00 00 FC 44
11:03:58.632 设备发送:03 03 04 84 00 04 04 F2
11:04:03.645 设备接收:03 03 08 13 86 1E F7 00 34 1E F7 C7 3D
11:04:03.661 设备发送:03 03 04 8D 00 05 15 30
11:04:08.664 设备接收:03 03 0A 09 22 2B BB 00 00 00 00 00 00 3B DA
11:04:08.710 设备发送:03 03 04 98 00 05 04 F4
11:04:13.687 设备接收:03 03 0A 09 4D 2B B4 00 00 00 00 00 00 2D 28
11:04:13.734 设备发送:03 03 04 A3 00 05 75 39
11:04:18.745 设备接收:03 03 0A 09 3B 2B AA 00 00 00 00 00 00 9D 4B
11:04:18.760 设备发送:03 03 06 84 00 04 05 4A
11:04:23.752 设备接收:03 03 08 00 00 35 04 00 14 02 B0 2A DA
11:04:23.767 设备发送:03 03 04 04 00 01 C5 19
11:04:28.771 设备接收:03 03 02 00 02 40 45
11:04:28.802 设备发送:03 03 05 84 00 0F 44 C9
11:04:33.798 设备接收:03 03 1E 1F 3B 06 B5 05 5D 1E F5 06 B6 05 52 1E BF 06 A5 05 3B 1E 9E 06 AD 05 3C 16 AC 06 C6 03 EE BB C7
11:04:33.814 设备发送:03 03 05 93 00 0F F4 CD
11:04:38.843 设备接收:03 03 1E 05 19 00 00 00 00 13 91 04 81 02 42 1B 77 03 68 02 65 1B 60 03 67 02 62 05 1B 00 00 00 00 1C 3B
11:04:38.858 设备发送:03 03 05 A2 00 0F A5 02
11:04:43.893 设备接收:03 03 1E 00 0D 00 00 00 00 00 00 00 00 00 00 00 00 00 00 00 00 00 00 00 00 00 00 00 00 00 00 00 00 C1 72
11:04:43.908 设备发送:03 03 05 B1 00 03 54 C2
11:04:48.891 设备接收:03 03 06 00 00 00 00 00 00 38 15
11:04:48.923 设备发送:03 03 04 2B 00 01 F4 D0
11:04:53.925 设备接收:03 03 02 02 D1 00 B8
11:04:53.941 设备发送:03 03 04 20 00 01 85 12
11:04:58.937 设备接收:03 03 02 00 20 C0 5C
11:04:58.968 设备发送:03 03 04 05 00 01 94 D9
11:05:03.975 设备接收:03 03 02 00 00 C1 84
11:05:03.991 设备发送:01 03 04 84 00 04 05 10
11:05:08.989 设备接收:01 03 08 13 8A 1E 4C FF C1 1E 4C 84 CB
11:05:09.036 设备发送:01 03 04 8D 00 05 14 D2
11:05:14.031 设备接收:01 03 0A 09 29 2A BA 00 00 00 00 00 00 9E A4
11:05:14.047 设备发送:01 03 04 98 00 05 05 16
11:05:19.057 设备接收:01 03 0A 09 4B 2A B1 00 00 00 00 00 00 95 06
11:05:19.073 设备发送:01 03 04 A3 00 05 74 DB
11:05:24.103 设备接收:01 03 0A 09 3C 2A BB 00 00 00 00 00 00 7C F4
11:05:24.119 设备发送:01 03 06 84 00 04 04 A8
11:05:29.114 设备接收:01 03 08 00 00 30 A5 00 13 30 20 38 23
11:05:29.130 设备发送:01 03 04 04 00 01 C4 FB
11:05:34.142 设备接收:01 03 02 00 02 39 85
11:05:34.158 设备发送:01 03 05 84 00 0F 45 2B
11:05:39.160 设备接收:01 03 1E 1F 63 06 50 05 13 1E EE 06 72 05 1A 1F 15 06 55 05 0A 1F 19 06 63 05 16 16 F8 03 46 01 EC D5 80
11:05:39.207 设备发送:01 03 05 93 00 0F F5 2F
11:05:44.196 设备接收:01 03 1E 00 00 00 00 00 00 1A 25 06 A8 04 74 1B CD 03 4B 02 58 1C 14 03 50 02 62 00 00 00 05 00 00 C8 33
11:05:44.227 设备发送:01 03 05 A2 00 0F A4 E0
11:05:49.242 设备接收:01 03 1E 00 00 00 00 00 00 00 00 00 00 00 00 00 00 00 00 00 00 00 00 00 00 00 00 00 00 00 00 00 00 D8 BA
11:05:49.257 设备发送:01 03 05 B1 00 03 55 20
11:05:54.258 设备接收:01 03 06 00 00 00 00 00 00 21 75
11:05:54.289 设备发送:01 03 04 2B 00 01 F5 32
11:05:59.297 设备接收:01 03 02 02 CE 38 B0
11:05:59.312 设备发送:01 03 04 20 00 01 84 F0
11:06:04.299 设备接收:01 03 02 00 1F F9 8C
11:06:04.315 设备发送:01 03 04 05 00 01 95 3B
11:06:09.315 设备接收:01 03 02 00 00 B8 44
11:06:09.331 设备发送:02 03 04 84 00 04 05 23
11:06:14.377 设备接收:02 03 08 13 85 1C B2 FF 58 1C B4 8C 74
11:06:14.393 设备发送:02 03 04 8D 00 05 14 E1
11:06:19.387 设备接收:02 03 0A 09 28 28 8B 00 00 00 00 00 00 37 ED
11:06:19.403 设备发送:02 03 04 98 00 05 05 25
11:06:24.428 设备接收:02 03 0A 09 4F 28 8F 00 00 00 00 00 00 FC 1F
11:06:24.443 设备发送:02 03 04 A3 00 05 74 E8
11:06:29.467 设备接收:02 03 0A 09 37 28 95 00 00 00 00 00 00 45 DC
11:06:29.514 设备发送:02 03 06 84 00 04 04 9B
11:06:34.554 设备发送:02 03 06 84 00 04 04 9B
11:06:39.575 设备发送:02 03 06 84 00 04 04 9B
11:06:44.615 设备发送:02 03 04 04 00 01 C4 C8
11:06:49.641 设备发送:02 03 04 04 00 01 C4 C8
11:06:54.686 设备发送:02 03 04 04 00 01 C4 C8
11:06:59.730 设备发送:02 03 05 84 00 0F 45 18
11:07:04.769 设备发送:02 03 05 84 00 0F 45 18
11:07:09.783 设备发送:02 03 05 84 00 0F 45 18
11:07:14.832 设备发送:02 03 05 93 00 0F F5 1C
11:07:19.850 设备发送:02 03 05 93 00 0F F5 1C
11:07:24.866 设备发送:02 03 05 93 00 0F F5 1C
11:07:29.924 设备发送:02 03 05 A2 00 0F A4 D3
11:07:34.938 设备发送:02 03 05 A2 00 0F A4 D3
11:07:39.965 设备发送:02 03 05 A2 00 0F A4 D3
11:07:44.982 设备发送:02 03 05 B1 00 03 55 13
11:07:50.040 设备发送:02 03 05 B1 00 03 55 13
11:07:55.054 设备发送:02 03 05 B1 00 03 55 13
11:08:00.058 设备发送:02 03 04 2B 00 01 F5 01
11:08:05.102 设备发送:02 03 04 2B 00 01 F5 01
11:08:10.134 设备发送:02 03 04 2B 00 01 F5 01
11:08:15.133 设备发送:02 03 04 20 00 01 84 C3
11:08:20.193 设备发送:02 03 04 20 00 01 84 C3
11:08:25.206 设备发送:02 03 04 20 00 01 84 C3
11:08:30.242 设备发送:02 03 04 05 00 01 95 08
11:08:35.252 设备接收:02 03 02 00 00 FC 44
11:08:35.268 设备发送:03 03 04 84 00 04 04 F2
11:08:40.271 设备接收:03 03 08 13 87 1F 37 00 38 1F 37 17 FE
11:08:40.287 设备发送:03 03 04 8D 00 05 15 30
11:08:45.289 设备接收:03 03 0A 09 24 2B FB 00 00 00 00 00 00 51 BE
11:08:45.321 设备发送:03 03 04 98 00 05 04 F4
11:08:50.328 设备接收:03 03 0A 09 50 2B E6 00 00 00 00 00 00 CB BD
11:08:50.343 设备发送:03 03 04 A3 00 05 75 39
11:08:55.350 设备接收:03 03 0A 09 3B 2B E8 00 00 00 00 00 00 FF 4F
11:08:55.381 设备发送:03 03 06 84 00 04 05 4A
11:09:00.379 设备接收:03 03 08 00 00 37 68 00 14 02 ED 7A C8
11:09:00.395 设备发送:03 03 04 04 00 01 C5 19
11:09:05.416 设备接收:03 03 02 00 02 40 45
11:09:05.431 设备发送:03 03 05 84 00 0F 44 C9
11:09:10.416 设备接收:03 03 1E 1E C6 06 CE 05 5C 1E F4 06 BC 05 56 1E 98 06 B5 05 41 1E 9F 06 B7 05 44 16 D0 06 C0 03 F1 1A 9E
11:09:10.463 设备发送:03 03 05 93 00 0F F4 CD
11:09:15.484 设备接收:03 03 1E 05 16 00 00 00 00 13 B0 04 2F 02 1C 1B 9C 03 67 02 68 1B 5E 03 6C 02 65 05 1B 00 00 00 00 4B 41
11:09:15.499 设备发送:03 03 05 A2 00 0F A5 02
11:09:20.503 设备接收:03 03 1E 00 0E 00 00 00 00 00 00 00 00 00 00 00 00 00 00 00 00 00 00 00 00 00 00 00 00 00 00 00 00 81 70
11:09:20.519 设备发送:03 03 05 B1 00 03 54 C2
11:09:25.527 设备接收:03 03 06 00 00 00 00 00 00 38 15
11:09:25.543 设备发送:03 03 04 2B 00 01 F4 D0
11:09:30.555 设备接收:03 03 02 02 D1 00 B8
11:09:30.570 设备发送:03 03 04 20 00 01 85 12
11:09:35.587 设备接收:03 03 02 00 20 C0 5C
11:09:35.603 设备发送:03 03 04 05 00 01 94 D9
11:09:40.611 设备接收:03 03 02 00 00 C1 84
11:09:40.627 设备发送:01 03 04 84 00 04 05 10
11:09:45.636 设备接收:01 03 08 13 8C 1E 57 FF C2 1E 57 36 C2
11:09:45.684 设备发送:01 03 04 8D 00 05 14 D2
11:09:50.696 设备接收:01 03 0A 09 2B 2A BF 00 00 00 00 00 00 D2 C4
11:09:50.712 设备发送:01 03 04 98 00 05 05 16
11:09:55.695 设备接收:01 03 0A 09 4D 2A C2 00 00 00 00 00 00 FC 61
11:09:55.742 设备发送:01 03 04 A3 00 05 74 DB
11:10:00.730 设备接收:01 03 0A 09 41 2A BE 00 00 00 00 00 00 14 A6
11:10:00.762 设备发送:01 03 06 84 00 04 04 A8
11:10:05.775 设备接收:01 03 08 00 00 32 F7 00 13 30 5B C0 2E
11:10:05.807 设备发送:01 03 04 04 00 01 C4 FB
11:10:10.811 设备接收:01 03 02 00 02 39 85
11:10:10.827 设备发送:01 03 05 84 00 0F 45 2B
11:10:15.831 设备接收:01 03 1E 1F 3B 06 5E 05 17 1F 14 06 6D 05 1D 1E F0 06 66 05 11 1F 19 06 6C 05 1D 16 A9 03 51 01 ED A5 23
11:10:15.862 设备发送:01 03 05 93 00 0F F5 2F
11:10:20.857 设备接收:01 03 1E 00 00 00 00 00 00 19 D8 06 C9 04 7D 1B CD 03 51 02 5C 1B EC 03 59 02 64 00 00 00 05 00 00 5D D8
11:10:20.936 设备发送:01 03 05 A2 00 0F A4 E0
11:10:25.891 设备接收:01 03 1E 00 00 00 00 00 00 00 00 00 00 00 00 00 00 00 00 00 00 00 00 00 00 00 00 00 00 00 00 00 00 D8 BA
11:10:25.906 设备发送:01 03 05 B1 00 03 55 20
11:10:30.919 设备接收:01 03 06 00 00 00 00 00 00 21 75
11:10:30.950 设备发送:01 03 04 2B 00 01 F5 32
11:10:35.967 设备接收:01 03 02 02 CE 38 B0
11:10:35.982 设备发送:01 03 04 20 00 01 84 F0
11:10:40.978 设备接收:01 03 02 00 1F F9 8C
11:10:41.010 设备发送:01 03 04 05 00 01 95 3B
11:10:46.025 设备接收:01 03 02 00 00 B8 44
11:10:46.040 设备发送:02 03 04 84 00 04 05 23
11:10:51.042 设备接收:02 03 08 13 89 1D 29 FF C2 1D 29 C4 6F
11:10:51.058 设备发送:02 03 04 8D 00 05 14 E1
11:10:56.053 设备接收:02 03 0A 09 28 29 2E 00 00 00 00 00 00 03 2B
11:10:56.085 设备发送:02 03 04 98 00 05 05 25
11:11:01.104 设备接收:02 03 0A 09 4F 29 3F 00 00 00 00 00 00 8C 18
11:11:01.120 设备发送:02 03 04 A3 00 05 74 E8
11:11:06.128 设备接收:02 03 0A 09 38 29 31 00 00 00 00 00 00 20 2A
11:11:06.175 设备发送:02 03 06 84 00 04 04 9B
11:11:11.186 设备发送:02 03 04 04 00 01 C4 C8
11:11:11.201 设备接收:02 03 08 00 00 30 F5 00 13 78 94 C1 1C
11:11:16.208 设备接收:02 03 02 00 02 7D 85
11:11:16.239 设备发送:02 03 05 84 00 0F 45 18
11:11:21.249 设备接收:02 03 1E 1E CD 03 31 02 84 1E C5 03 2C 02 7F 1E DC 03 2F 02 84 1E C4 06 55 04 FD 1E C2 03 24 02 79 F3 0A
11:11:21.265 设备发送:02 03 05 93 00 0F F5 1C
11:11:26.300 设备接收:02 03 1E 1E E2 03 1F 02 78 1E 9B 03 33 02 82 1E BE 06 7D 05 1B 1E DC 03 38 02 8B 1F 3B 03 41 02 9A 40 C0
11:11:26.316 设备发送:02 03 05 A2 00 0F A4 D3
11:11:31.311 设备接收:02 03 1E 00 00 00 04 00 00 00 00 00 00 00 00 00 00 00 00 00 00 00 00 00 00 00 00 00 00 00 00 00 00 92 31
11:11:31.327 设备发送:02 03 05 B1 00 03 55 13
11:11:36.339 设备接收:02 03 06 00 00 00 00 00 00 35 85
11:11:36.355 设备发送:02 03 04 2B 00 01 F5 01
11:11:41.393 设备接收:02 03 02 02 C9 3D 72
11:11:41.408 设备发送:02 03 04 20 00 01 84 C3
11:11:46.406 设备接收:02 03 02 00 41 3C 74
11:11:46.422 设备发送:02 03 04 05 00 01 95 08
11:11:51.434 设备接收:02 03 02 00 00 FC 44
11:11:51.465 设备发送:03 03 04 84 00 04 04 F2
11:11:56.466 设备接收:03 03 08 13 8B 1F 54 FF BF 1F 54 DF E2
11:11:56.480 设备发送:03 03 04 8D 00 05 15 30
11:12:01.480 设备接收:03 03 0A 09 24 2C 2E 00 00 00 00 00 00 94 95
11:12:01.528 设备发送:03 03 04 98 00 05 04 F4
11:12:06.517 设备接收:03 03 0A 09 52 2C 20 00 00 00 00 00 00 35 37
11:12:06.532 设备发送:03 03 04 A3 00 05 75 39
11:12:11.561 设备接收:03 03 0A 09 3D 2C 2C 00 00 00 00 00 00 10 C5
11:12:11.576 设备发送:03 03 06 84 00 04 05 4A
11:12:16.580 设备接收:03 03 08 00 00 39 19 00 14 03 18 C6 3A
11:12:16.658 设备发送:03 03 04 04 00 01 C5 19
11:12:21.607 设备接收:03 03 02 00 02 40 45
11:12:21.638 设备发送:03 03 05 84 00 0F 44 C9
11:12:26.634 设备接收:03 03 1E 1E EC 06 DA 05 6D 1E D1 06 DC 05 6A 1E E7 06 AF 05 49 1E A0 06 C9 05 51 16 AD 06 E5 04 00 E8 65
11:12:26.681 设备发送:03 03 05 93 00 0F F4 CD
11:12:31.673 设备接收:03 03 1E 05 15 00 00 00 00 13 84 04 93 02 49 1B 26 03 7F 02 6E 1B B0 03 6C 02 6D 05 18 00 00 00 00 F9 F0
11:12:31.721 设备发送:03 03 05 A2 00 0F A5 02
11:12:36.710 设备接收:03 03 1E 00 0D 00 00 00 00 00 00 00 00 00 00 00 00 00 00 00 00 00 00 00 00 00 00 00 00 00 00 00 00 C1 72
11:12:36.726 设备发送:03 03 05 B1 00 03 54 C2
11:12:41.731 设备接收:03 03 06 00 00 00 00 00 00 38 15
11:12:41.762 设备发送:03 03 04 2B 00 01 F4 D0
11:12:46.765 设备接收:03 03 02 02 D1 00 B8
11:12:46.796 设备发送:03 03 04 20 00 01 85 12
11:12:51.789 设备接收:03 03 02 00 21 01 9C
11:12:51.804 设备发送:03 03 04 05 00 01 94 D9
11:12:56.821 设备接收:03 03 02 00 00 C1 84
11:12:56.837 设备发送:01 03 04 84 00 04 05 10
11:13:01.830 设备接收:01 03 08 13 8B 1E CA FF BF 1E CA FC 6F
11:13:01.876 设备发送:01 03 04 8D 00 05 14 D2
11:13:06.892 设备接收:01 03 0A 09 2C 2B 6E 00 00 00 00 00 00 F4 35
11:13:06.908 设备发送:01 03 04 98 00 05 05 16
11:13:11.897 设备接收:01 03 0A 09 50 2B 6C 00 00 00 00 00 00 E7 37
11:13:11.944 设备发送:01 03 04 A3 00 05 74 DB
11:13:16.953 设备接收:01 03 0A 09 43 2B 75 00 00 00 00 00 00 B6 C6
11:13:16.969 设备发送:01 03 06 84 00 04 04 A8
11:13:22.001 设备接收:01 03 08 00 00 34 A2 00 13 30 86 0C 1D
11:13:22.016 设备发送:01 03 04 04 00 01 C4 FB
11:13:27.007 设备接收:01 03 02 00 02 39 85
11:13:27.022 设备发送:01 03 05 84 00 0F 45 2B
11:13:32.054 设备接收:01 03 1E 1F 3C 06 7C 05 2F 1E F2 06 93 05 35 1E F4 06 81 05 27 1E CE 06 8F 05 2C 16 D3 03 5E 01 F7 95 D1
11:13:32.072 设备发送:01 03 05 93 00 0F F5 2F
11:13:37.072 设备接收:01 03 1E 00 00 00 00 00 00 1A 02 06 D3 04 8B 1B A6 03 62 02 65 1B EC 03 66 02 6E 00 00 00 07 00 00 FB 36
11:13:37.119 设备发送:01 03 05 A2 00 0F A4 E0
11:13:42.114 设备接收:01 03 1E 00 00 00 00 00 00 00 00 00 00 00 00 00 00 00 00 00 00 00 00 00 00 00 00 00 00 00 00 00 00 D8 BA
11:13:42.162 设备发送:01 03 05 B1 00 03 55 20
11:13:47.187 设备接收:01 03 06 00 00 00 00 00 00 21 75
11:13:47.203 设备发送:01 03 04 2B 00 01 F5 32
11:13:52.215 设备接收:01 03 02 02 CE 38 B0
11:13:52.231 设备发送:01 03 04 20 00 01 84 F0
11:13:57.226 设备接收:01 03 02 00 1F F9 8C
11:13:57.274 设备发送:01 03 04 05 00 01 95 3B
11:14:02.277 设备接收:01 03 02 00 00 B8 44
11:14:02.293 设备发送:02 03 04 84 00 04 05 23
11:14:07.297 设备接收:02 03 08 13 8C 1D 67 FF C3 1D 67 28 95
11:14:07.312 设备发送:02 03 04 8D 00 05 14 E1
11:14:12.332 设备接收:02 03 0A 09 2B 29 6E 00 00 00 00 00 00 56 1F
11:14:12.348 设备发送:02 03 04 98 00 05 05 25
11:14:17.325 设备接收:02 03 0A 09 53 29 98 00 00 00 00 00 00 C2 12
11:14:17.373 设备发送:02 03 04 A3 00 05 74 E8
11:14:22.399 设备接收:02 03 0A 09 3C 29 76 00 00 00 00 00 00 25 EE
11:14:22.415 设备发送:02 03 06 84 00 04 04 9B
11:14:27.431 设备接收:02 03 08 00 00 32 8F 00 13 78 BD D8 EA
11:14:27.446 设备发送:02 03 04 04 00 01 C4 C8
11:14:32.437 设备接收:02 03 02 00 02 7D 85
11:14:32.453 设备发送:02 03 05 84 00 0F 45 18
11:14:37.458 设备接收:02 03 1E 1E F4 03 31 02 88 1E C4 03 2C 02 7F 1E DB 03 33 02 86 1E C2 06 5B 05 01 1E EA 03 25 02 7D 37 86
11:14:37.505 设备发送:02 03 05 93 00 0F F5 1C
11:14:42.507 设备接收:02 03 1E 1E E7 03 21 02 79 1E EF 03 2F 02 85 1E 9B 06 89 05 1E 1E B5 03 3E 02 8C 1E F1 03 4D 02 9D 76 CE
11:14:42.579 设备发送:02 03 05 A2 00 0F A4 D3
11:14:47.528 设备接收:02 03 1E 00 00 00 04 00 00 00 00 00 00 00 00 00 00 00 00 00 00 00 00 00 00 00 00 00 00 00 00 00 00 92 31
11:14:47.575 设备发送:02 03 05 B1 00 03 55 13
11:14:52.573 设备接收:02 03 06 00 00 00 00 00 00 35 85
11:14:52.604 设备发送:02 03 04 2B 00 01 F5 01
11:14:57.596 设备接收:02 03 02 02 C9 3D 72
11:14:57.611 设备发送:02 03 04 20 00 01 84 C3
11:15:02.609 设备接收:02 03 02 00 42 7C 75
11:15:02.624 设备发送:02 03 04 05 00 01 95 08
11:15:07.635 设备接收:02 03 02 00 00 FC 44
11:15:07.666 设备发送:03 03 04 84 00 04 04 F2
11:15:12.655 设备接收:03 03 08 13 87 1F AF FF C1 1F AF D7 AD
11:15:12.702 设备发送:03 03 04 8D 00 05 15 30
11:15:17.700 设备接收:03 03 0A 09 27 2C B5 00 00 00 00 00 00 AA AC
11:15:17.732 设备发送:03 03 04 98 00 05 04 F4
11:15:22.752 设备接收:03 03 0A 09 56 2C BB 00 00 00 00 00 00 2D 3E
11:15:22.815 设备发送:03 03 04 A3 00 05 75 39
11:15:27.795 设备接收:03 03 0A 09 41 2C BC 00 00 00 00 00 00 B0 0E
11:15:27.842 设备发送:03 03 06 84 00 04 05 4A
11:15:32.831 设备接收:03 03 08 00 00 3A D2 00 14 03 44 63 E0
11:15:32.847 设备发送:03 03 04 04 00 01 C5 19
11:15:37.882 设备接收:03 03 02 00 02 40 45
11:15:37.898 设备发送:03 03 05 84 00 0F 44 C9
11:15:42.883 设备接收:03 03 1E 1E C6 06 F8 05 7E 1E F6 06 E4 05 76 1E 98 06 D5 05 5A 1E C8 06 D3 05 60 16 AD 06 F4 04 09 52 6B
11:15:42.945 设备发送:03 03 05 93 00 0F F4 CD
11:15:47.948 设备接收:03 03 1E 05 15 00 00 00 00 13 9A 04 77 02 3D 1B BF 03 76 02 75 1B 3E 03 81 02 71 05 17 00 00 00 00 32 1D
11:15:47.994 设备发送:03 03 05 A2 00 0F A5 02
11:15:52.984 设备接收:03 03 1E 00 0E 00 00 00 00 00 00 00 00 00 00 00 00 00 00 00 00 00 00 00 00 00 00 00 00 00 00 00 00 81 70
11:15:53.032 设备发送:03 03 05 B1 00 03 54 C2
11:15:58.036 设备接收:03 03 06 00 00 00 00 00 00 38 15
11:15:58.051 设备发送:03 03 04 2B 00 01 F4 D0
11:16:03.080 设备接收:03 03 02 02 D1 00 B8
11:16:03.095 设备发送:03 03 04 20 00 01 85 12
11:16:08.086 设备接收:03 03 02 00 21 01 9C
11:16:08.117 设备发送:03 03 04 05 00 01 94 D9
11:16:13.134 设备接收:03 03 02 00 00 C1 84
11:16:13.150 设备发送:01 03 04 84 00 04 05 10
11:16:18.179 设备接收:01 03 08 13 88 1F 38 FF 46 1F 3B E7 4E
11:16:18.211 设备发送:01 03 04 8D 00 05 14 D2
11:16:23.224 设备接收:01 03 0A 09 28 2C 0D 00 00 00 00 00 00 D4 15
11:16:23.273 设备发送:01 03 04 98 00 05 05 16
11:16:28.280 设备接收:01 03 0A 09 4D 2C 01 00 00 00 00 00 00 8F 47
11:16:28.296 设备发送:01 03 04 A3 00 05 74 DB
11:16:33.290 设备接收:01 03 0A 09 3F 2B FA 00 00 00 00 00 00 F8 CC
11:16:33.305 设备发送:01 03 06 84 00 04 04 A8
11:16:38.298 设备接收:01 03 08 00 00 36 55 00 13 30 B1 B9 FC
11:16:38.314 设备发送:01 03 04 04 00 01 C4 FB
11:16:43.351 设备接收:01 03 02 00 02 39 85
11:16:43.366 设备发送:01 03 05 84 00 0F 45 2B
11:16:48.360 设备接收:01 03 1E 1F 13 06 8E 05 36 1F 14 06 96 05 3E 1E F0 06 92 05 35 1E F2 06 9F 05 3F 16 D0 03 65 01 FB 72 D5
11:16:48.423 设备发送:01 03 05 93 00 0F F5 2F
11:16:53.437 设备接收:01 03 1E 00 00 00 00 00 00 1A 01 06 E8 04 99 1B 7D 03 72 02 6C 1B C4 03 73 02 74 00 00 00 05 00 00 D3 1F
11:16:53.454 设备发送:01 03 05 A2 00 0F A4 E0
11:16:58.446 设备接收:01 03 1E 00 00 00 00 00 00 00 00 00 00 00 00 00 00 00 00 00 00 00 00 00 00 00 00 00 00 00 00 00 00 D8 BA
11:16:58.494 设备发送:01 03 05 B1 00 03 55 20
11:17:03.479 设备接收:01 03 06 00 00 00 00 00 00 21 75
11:17:03.526 设备发送:01 03 04 2B 00 01 F5 32
11:17:08.517 设备接收:01 03 02 02 CE 38 B0
11:17:08.532 设备发送:01 03 04 20 00 01 84 F0
11:17:13.549 设备接收:01 03 02 00 1F F9 8C
11:17:13.565 设备发送:01 03 04 05 00 01 95 3B
11:17:18.559 设备接收:01 03 02 00 00 B8 44
11:17:18.606 设备发送:02 03 04 84 00 04 05 23
11:17:23.601 设备接收:02 03 08 13 8C 1D A1 FF C3 1D A1 20 D6
11:17:23.632 设备发送:02 03 04 8D 00 05 14 E1
11:17:28.633 设备接收:02 03 0A 09 2A 29 C6 00 00 00 00 00 00 72 45
11:17:28.712 设备发送:02 03 04 98 00 05 05 25
11:17:33.700 设备接收:02 03 0A 09 4E 29 D4 00 00 00 00 00 00 DA 86
11:17:33.716 设备发送:02 03 04 A3 00 05 74 E8
11:17:38.735 设备接收:02 03 0A 09 37 29 D9 00 00 00 00 00 00 09 D4
11:17:38.782 设备发送:02 03 06 84 00 04 04 9B
11:17:43.787 设备接收:02 03 08 00 00 34 2B 00 13 78 E6 E8 AE
11:17:43.834 设备发送:02 03 04 04 00 01 C4 C8
11:17:48.830 设备接收:02 03 02 00 02 7D 85
11:17:48.846 设备发送:02 03 05 84 00 0F 45 18
11:17:53.856 设备接收:02 03 1E 1F 1D 03 34 02 8D 1E 9E 03 3A 02 87 1E DB 03 3B 02 8E 1F 12 06 5C 05 0F 1F 13 03 29 02 83 42 3F
11:17:53.872 设备发送:02 03 05 93 00 0F F5 1C
11:17:58.876 设备接收:02 03 1E 1E E8 03 27 02 7F 1E C6 03 39 02 8A 1F 12 06 7F 05 2B 1E B6 03 45 02 92 1E F0 03 54 02 A3 8D C8
11:17:58.907 设备发送:02 03 05 A2 00 0F A4 D3
11:18:03.929 设备接收:02 03 1E 00 00 00 04 00 00 00 00 00 00 00 00 00 00 00 00 00 00 00 00 00 00 00 00 00 00 00 00 00 00 92 31
11:18:03.945 设备发送:02 03 05 B1 00 03 55 13
11:18:08.956 设备接收:02 03 06 00 00 00 00 00 00 35 85
11:18:08.978 设备发送:02 03 04 2B 00 01 F5 01
11:18:13.962 设备接收:02 03 02 02 C9 3D 72
11:18:14.008 设备发送:02 03 04 20 00 01 84 C3
11:18:19.018 设备接收:02 03 02 00 43 BD B5
11:18:19.065 设备发送:02 03 04 05 00 01 95 08
11:18:24.089 设备接收:02 03 02 00 00 FC 44
11:18:24.135 设备发送:03 03 04 84 00 04 04 F2
11:18:29.134 设备接收:03 03 08 13 8A 1F CF FF C0 1F CF DA 8D
11:18:29.150 设备发送:03 03 04 8D 00 05 15 30
11:18:34.158 设备接收:03 03 0A 09 2B 2C DB 00 00 00 00 00 00 70 6A
11:18:34.236 设备发送:03 03 04 98 00 05 04 F4
11:18:39.209 设备接收:03 03 0A 09 55 2C D1 00 00 00 00 00 00 F3 C8
11:18:39.272 设备发送:03 03 04 A3 00 05 75 39
11:18:44.274 设备接收:03 03 0A 09 41 2C D3 00 00 00 00 00 00 2F 08
11:18:44.289 设备发送:03 03 06 84 00 04 05 4A
11:18:49.297 设备接收:03 03 08 00 00 3C 8F 00 14 03 71 4E 5C
11:18:49.313 设备发送:03 03 04 04 00 01 C5 19
11:18:54.306 设备接收:03 03 02 00 02 40 45
11:18:54.322 设备发送:03 03 05 84 00 0F 44 C9
11:18:59.338 设备接收:03 03 1E 1E EC 06 F4 05 81 1E D0 06 F6 05 7E 1E 70 06 E7 05 61 1E C9 06 E1 05 6C 16 AD 06 FE 04 0F 35 20
11:18:59.369 设备发送:03 03 05 93 00 0F F4 CD
11:19:04.377 设备接收:03 03 1E 05 15 00 00 00 00 13 8C 04 98 02 4C 1B 9F 03 7D 02 77 1B 62 03 84 02 77 05 19 00 00 00 00 61 72
11:19:04.408 设备发送:03 03 05 A2 00 0F A5 02
11:19:09.417 设备接收:03 03 1E 00 0D 00 00 00 00 00 00 00 00 00 00 00 00 00 00 00 00 00 00 00 00 00 00 00 00 00 00 00 00 C1 72
11:19:09.432 设备发送:03 03 05 B1 00 03 54 C2
11:19:14.435 设备接收:03 03 06 00 00 00 00 00 00 38 15
11:19:14.466 设备发送:03 03 04 2B 00 01 F4 D0
11:19:19.465 设备接收:03 03 02 02 D1 00 B8
11:19:19.480 设备发送:03 03 04 20 00 01 85 12
11:19:24.496 设备发送:03 03 04 05 00 01 94 D9
11:19:24.574 设备接收:03 03 02 00 21 01 9C
11:19:29.505 设备接收:03 03 02 00 00 C1 84
11:19:29.521 设备发送:01 03 04 84 00 04 05 10
11:19:34.526 设备接收:01 03 08 13 8B 1F 5D FF 4A 1F 5F 59 AE
11:19:34.541 设备发送:01 03 04 8D 00 05 14 D2
11:19:39.564 设备接收:01 03 0A 09 2A 2C 37 00 00 00 00 00 00 57 76
11:19:39.586 设备发送:01 03 04 98 00 05 05 16
11:19:44.598 设备接收:01 03 0A 09 53 2C 3A 00 00 00 00 00 00 84 24
11:19:44.614 设备发送:01 03 04 A3 00 05 74 DB
11:19:49.610 设备接收:01 03 0A 09 43 2C 35 00 00 00 00 00 00 B6 E4
11:19:49.658 设备发送:01 03 06 84 00 04 04 A8
11:19:54.669 设备接收:01 03 08 00 00 38 08 00 13 30 DD 55 32
11:19:54.684 设备发送:01 03 04 04 00 01 C4 FB
11:19:59.686 设备接收:01 03 02 00 02 39 85
11:19:59.702 设备发送:01 03 05 84 00 0F 45 2B
11:20:04.702 设备接收:01 03 1E 1F 15 06 98 05 3F 1E EF 06 AA 05 47 1E F0 06 97 05 38 1E F3 06 AB 05 49 16 D1 03 67 01 FD 55 4A
11:20:04.734 设备发送:01 03 05 93 00 0F F5 2F
11:20:09.724 设备接收:01 03 1E 00 00 00 00 00 00 19 D6 06 F4 04 99 1B F6 03 62 02 6C 1B C4 03 72 02 72 00 00 00 05 00 00 73 B4
11:20:09.770 设备发送:01 03 05 A2 00 0F A4 E0
11:20:14.769 设备接收:01 03 1E 00 00 00 00 00 00 00 00 00 00 00 00 00 00 00 00 00 00 00 00 00 00 00 00 00 00 00 00 00 00 D8 BA
11:20:14.785 设备发送:01 03 05 B1 00 03 55 20
11:20:19.779 设备接收:01 03 06 00 00 00 00 00 00 21 75
11:20:19.795 设备发送:01 03 04 2B 00 01 F5 32
11:20:24.818 设备接收:01 03 02 02 CE 38 B0
11:20:24.834 设备发送:01 03 04 20 00 01 84 F0
11:20:29.854 设备接收:01 03 02 00 1F F9 8C
11:20:29.869 设备发送:01 03 04 05 00 01 95 3B
11:20:34.883 设备接收:01 03 02 00 00 B8 44
11:20:34.904 设备发送:02 03 04 84 00 04 05 23
11:20:39.923 设备接收:02 03 08 13 8B 1D D1 00 33 1D D2 66 1F
11:20:39.942 设备发送:02 03 04 8D 00 05 14 E1
11:20:44.944 设备接收:02 03 0A 09 2C 29 EB 00 00 00 00 00 00 A4 E7
11:20:44.960 设备发送:02 03 04 98 00 05 05 25
11:20:49.967 设备接收:02 03 0A 09 55 2A 01 00 00 00 00 00 00 A0 AE
11:20:49.982 设备发送:02 03 04 A3 00 05 74 E8
11:20:54.997 设备接收:02 03 0A 09 3F 29 FF 00 00 00 00 00 00 29 D6
11:20:55.044 设备发送:02 03 06 84 00 04 04 9B
11:21:00.048 设备接收:02 03 08 00 00 35 CB 00 13 79 10 E9 7F
11:21:00.064 设备发送:02 03 04 04 00 01 C4 C8
11:21:05.062 设备接收:02 03 02 00 02 7D 85
11:21:05.109 设备发送:02 03 05 84 00 0F 45 18
11:21:10.103 设备接收:02 03 1E 1F 1B 03 3A 02 92 1E ED 03 38 02 8C 1E B1 03 46 02 92 1F 10 06 67 05 18 1E C1 03 37 02 88 95 5C
11:21:10.135 设备发送:02 03 05 93 00 0F F5 1C
11:21:15.138 设备接收:02 03 1E 1E 94 03 37 02 84 1E 9B 03 44 02 8F 1E C0 06 9E 05 36 1E DD 03 48 02 97 1E EE 03 5A 02 A7 95 AC
11:21:15.154 设备发送:02 03 05 A2 00 0F A4 D3
11:21:20.170 设备接收:02 03 1E 00 00 00 04 00 00 00 00 00 00 00 00 00 00 00 00 00 00 00 00 00 00 00 00 00 00 00 00 00 00 92 31
11:21:20.186 设备发送:02 03 05 B1 00 03 55 13
11:21:25.222 设备接收:02 03 06 00 00 00 00 00 00 35 85
11:21:25.238 设备发送:02 03 04 2B 00 01 F5 01
11:21:30.238 设备接收:02 03 02 02 C9 3D 72
11:21:30.270 设备发送:02 03 04 20 00 01 84 C3
11:21:35.294 设备接收:02 03 02 00 43 BD B5
11:21:35.310 设备发送:02 03 04 05 00 01 95 08
11:21:40.318 设备接收:02 03 02 00 00 FC 44
11:21:40.365 设备发送:03 03 04 84 00 04 04 F2
11:21:45.363 设备接收:03 03 08 13 8B 1F DF FF BD 1F E0 DA 4A
11:21:45.378 设备发送:03 03 04 8D 00 05 15 30
11:21:50.410 设备接收:03 03 0A 09 2B 2C DB 00 00 00 00 00 00 70 6A
11:21:50.426 设备发送:03 03 04 98 00 05 04 F4
11:21:55.414 设备接收:03 03 0A 09 5B 2C D1 00 00 00 00 00 00 BF A8
11:21:55.478 设备发送:03 03 04 A3 00 05 75 39
11:22:00.460 设备接收:03 03 0A 09 46 2C E8 00 00 00 00 00 00 83 FB
11:22:00.491 设备发送:03 03 06 84 00 04 05 4A
11:22:05.488 设备接收:03 03 08 00 00 3E 4B 00 14 03 9D BF E2
11:22:05.503 设备发送:03 03 04 04 00 01 C5 19
11:22:10.544 设备接收:03 03 02 00 02 40 45
11:22:10.559 设备发送:03 03 05 84 00 0F 44 C9
11:22:15.570 设备接收:03 03 1E 1E ED 06 F8 05 84 1E D1 06 FC 05 83 1E 9A 06 E8 05 69 1E A2 06 F0 05 71 16 86 07 11 04 13 33 05
11:22:15.602 设备发送:03 03 05 93 00 0F F4 CD
11:22:20.594 设备接收:03 03 1E 05 15 00 00 00 00 13 8B 04 A0 02 50 1B 74 03 87 02 7A 1B AF 03 7A 02 77 05 18 00 00 00 00 89 8C
11:22:20.657 设备发送:03 03 05 A2 00 0F A5 02
11:22:25.670 设备接收:03 03 1E 00 0D 00 00 00 00 00 00 00 00 00 00 00 00 00 00 00 00 00 00 00 00 00 00 00 00 00 00 00 00 C1 72
11:22:25.686 设备发送:03 03 05 B1 00 03 54 C2
11:22:30.690 设备接收:03 03 06 00 00 00 00 00 00 38 15
11:22:30.736 设备发送:03 03 04 2B 00 01 F4 D0
11:22:35.728 设备接收:03 03 02 02 D1 00 B8
11:22:35.743 设备发送:03 03 04 20 00 01 85 12
11:22:40.771 设备发送:03 03 04 20 00 01 85 12
11:22:45.781 设备接收:03 03 02 00 21 01 9C
11:22:45.812 设备发送:03 03 04 05 00 01 94 D9
11:22:50.798 设备接收:03 03 02 00 00 C1 84
11:22:50.845 设备发送:01 03 04 84 00 04 05 10
11:22:55.835 设备接收:01 03 08 13 8B 1F 97 FF 44 1F 99 20 2F
11:22:55.866 设备发送:01 03 04 8D 00 05 14 D2
11:23:00.873 设备接收:01 03 0A 09 2C 2C 75 00 00 00 00 00 00 1E D2
11:23:00.889 设备发送:01 03 04 98 00 05 05 16
11:23:05.893 设备接收:01 03 0A 09 56 2C 72 00 00 00 00 00 00 73 70
11:23:05.909 设备发送:01 03 04 A3 00 05 74 DB
11:23:10.927 设备接收:01 03 0A 09 45 2C 67 00 00 00 00 00 00 EE 81
11:23:10.959 设备发送:01 03 06 84 00 04 04 A8
11:23:15.984 设备接收:01 03 08 00 00 39 C7 00 13 31 0A 41 3D
11:23:15.999 设备发送:01 03 04 04 00 01 C4 FB
11:23:21.003 设备接收:01 03 02 00 02 39 85
11:23:21.034 设备发送:01 03 05 84 00 0F 45 2B
11:23:26.038 设备接收:01 03 1E 1F 17 06 A5 05 49 1F 3C 06 A9 05 53 1E EF 06 A5 05 43 1E F2 06 B5 05 50 16 AA 03 73 02 00 A5 89
11:23:26.069 设备发送:01 03 05 93 00 0F F5 2F
11:23:31.069 设备接收:01 03 1E 00 00 00 00 00 00 19 FF 06 FB 04 A5 1B A6 03 77 02 74 1B C4 03 7E 02 7B 00 00 00 04 00 00 B5 3B
11:23:31.100 设备发送:01 03 05 A2 00 0F A4 E0
11:23:36.095 设备接收:01 03 1E 00 00 00 00 00 00 00 00 00 00 00 00 00 00 00 00 00 00 00 00 00 00 00 00 00 00 00 00 00 00 D8 BA
11:23:36.127 设备发送:01 03 05 B1 00 03 55 20
11:23:41.132 设备接收:01 03 06 00 00 00 00 00 00 21 75
11:23:41.148 设备发送:01 03 04 2B 00 01 F5 32
11:23:46.147 设备接收:01 03 02 02 CE 38 B0
11:23:46.163 设备发送:01 03 04 20 00 01 84 F0
11:23:51.161 设备接收:01 03 02 00 20 B9 9C
11:23:51.224 设备发送:01 03 04 05 00 01 95 3B
11:23:56.204 设备接收:01 03 02 00 00 B8 44
11:23:56.220 设备发送:02 03 04 84 00 04 05 23
11:24:01.214 设备接收:02 03 08 13 89 1E 0B FF C3 1E 0B ED 72
11:24:01.261 设备发送:02 03 04 8D 00 05 14 E1
11:24:06.260 设备接收:02 03 0A 09 2B 2A 40 00 00 00 00 00 00 D8 08
11:24:06.308 设备发送:02 03 04 98 00 05 05 25
11:24:11.314 设备接收:02 03 0A 09 54 2A 62 00 00 00 00 00 00 FE 38
11:24:11.393 设备发送:02 03 04 A3 00 05 74 E8
11:24:16.370 设备接收:02 03 0A 09 41 2A 64 00 00 00 00 00 00 6A A8
11:24:16.417 设备发送:02 03 06 84 00 04 04 9B
11:24:21.419 设备接收:02 03 08 00 00 37 79 00 13 79 3B 90 98
11:24:21.435 设备发送:02 03 04 04 00 01 C4 C8
11:24:26.437 设备接收:02 03 02 00 02 7D 85
11:24:26.452 设备发送:02 03 05 84 00 0F 45 18
11:24:31.471 设备接收:02 03 1E 1F 1D 03 40 02 97 1F 15 03 3A 02 91 1E B4 03 4C 02 97 1F 11 06 74 05 22 1E EA 03 3A 02 8D B4 BC
11:24:31.487 设备发送:02 03 05 93 00 0F F5 1C
11:24:36.505 设备接收:02 03 1E 1E E5 03 34 02 88 1E C4 03 47 02 95 1F 10 06 99 05 3F 1E B5 03 52 02 9C 1E EE 03 60 02 AC D5 32
11:24:36.527 设备发送:02 03 05 A2 00 0F A4 D3
11:24:41.547 设备接收:02 03 1E 00 00 00 04 00 00 00 00 00 00 00 00 00 00 00 00 00 00 00 00 00 00 00 00 00 00 00 00 00 00 92 31
11:24:41.563 设备发送:02 03 05 B1 00 03 55 13
11:24:46.572 设备接收:02 03 06 00 00 00 00 00 00 35 85
11:24:46.588 设备发送:02 03 04 2B 00 01 F5 01
11:24:51.605 设备接收:02 03 02 02 C9 3D 72
11:24:51.621 设备发送:02 03 04 20 00 01 84 C3
11:24:56.620 设备接收:02 03 02 00 44 FC 77
11:24:56.636 设备发送:02 03 04 05 00 01 95 08
11:35:22.76500

