
14:19:54.458 设备接收:03 03 42 08 FC 27 44 00 00 00 00 00 00 00 00 00 00 00 00 00 00 00 00 00 00 09 22 27 36 00 00 00 00 00 00 00 00 00 00 00 00 00 00 00 00 00 00 09 11 27 47 00 00 00 00 00 00 00 00 00 00 00 00 00 00 00 00 00 00 CB A5
14:19:54.461 设备发送:03 03 06 84 00 04 05 4A
14:19:55.952 设备接收:03 03 08 00 00 81 A7 00 13 F9 CC 06 67
14:19:55.983 设备发送:03 03 04 04 00 01 C5 19
14:19:57.467 设备接收:03 03 02 00 02 40 45
14:19:57.483 设备发送:03 03 05 84 00 0F 44 C9
14:19:58.998 设备接收:03 03 1E 1E D5 05 E8 04 A9 1F 10 05 E5 04 B0 1F 57 05 BD 04 9A 1E DD 05 D5 04 9C 17 2E 05 CA 03 6F 16 2F
14:19:59.014 设备发送:03 03 05 93 00 0F F4 CD
14:20:00.499 设备接收:03 03 1E 05 1E 00 00 00 00 13 8E 04 45 02 23 1B 8D 02 FD 02 1C 1B 83 02 FE 02 1B 05 24 00 00 00 00 C0 BF
14:20:00.531 设备发送:03 03 05 A2 00 0F A5 02
14:20:02.035 设备接收:03 03 1E 00 0F 00 00 00 00 00 00 00 00 00 00 00 00 00 00 00 00 00 00 00 00 00 00 00 00 00 00 00 00 41 71
14:20:02.051 设备发送:03 03 05 B1 00 03 54 C2
14:20:03.564 设备接收:03 03 06 00 00 00 00 00 00 38 15
14:20:03.579 设备发送:03 03 04 2B 00 01 F4 D0
14:20:05.054 设备接收:03 03 02 02 E2 40 AD
14:20:05.107 设备发送:03 03 04 20 00 01 85 12
14:20:06.591 设备接收:03 03 02 00 31 00 50
14:20:06.607 设备发送:03 03 04 05 00 01 94 D9
14:20:08.122 设备发送:03 03 04 05 00 01 94 D9
14:20:09.658 设备接收:03 03 02 00 00 C1 84
14:20:09.672 设备发送:01 03 04 84 00 04 05 10
14:20:11.158 设备接收:01 03 08 13 8C 1A 46 FF C8 1A 46 29 8B
14:20:11.172 设备发送:01 03 04 8D 00 21 14 C9
14:20:12.661 设备接收:01 03 42 08 FC 25 BA 00 00 00 00 00 00 00 00 00 00 00 00 00 00 00 00 00 00 09 1B 25 CF 00 00 00 00 00 00 00 00 00 00 00 00 00 00 00 00 00 00 09 10 25 CC 00 00 00 00 00 00 00 00 00 00 00 00 00 00 00 00 00 00 E2 98
14:20:12.692 设备发送:01 03 06 84 00 04 04 A8
14:20:14.181 设备接收:01 03 08 00 00 7D 98 00 13 28 2A D0 3C
14:20:14.196 设备发送:01 03 04 04 00 01 C4 FB
14:20:15.713 设备接收:01 03 02 00 02 39 85
14:20:15.729 设备发送:01 03 05 84 00 0F 45 2B
14:20:17.233 设备接收:01 03 1E 1F 81 05 73 04 65 1F 54 05 84 04 6D 1F 1D 05 75 04 58 1F BE 05 76 04 70 16 F8 02 D3 01 A9 90 52
14:20:17.277 设备发送:01 03 05 93 00 0F F5 2F
14:20:18.779 设备接收:01 03 1E 00 00 00 00 00 00 1A 29 05 D5 03 E8 1C 2E 02 D5 02 0B 1B F4 02 DC 02 0C 00 00 00 07 00 01 38 77
14:20:18.792 设备发送:01 03 05 A2 00 0F A4 E0
14:20:20.307 设备接收:01 03 1E 00 00 00 00 00 00 00 00 00 00 00 00 00 00 00 00 00 00 00 00 00 00 00 00 00 00 00 00 00 00 D8 BA
14:20:20.323 设备发送:01 03 05 B1 00 03 55 20
14:20:21.791 设备接收:01 03 06 00 00 00 00 00 00 21 75
14:20:21.822 设备发送:01 03 04 2B 00 01 F5 32
14:20:23.335 设备接收:01 03 02 02 E1 79 6C
14:20:23.350 设备发送:01 03 04 20 00 01 84 F0
14:20:24.848 设备接收:01 03 02 00 2C B9 99
14:20:24.863 设备发送:01 03 04 05 00 01 95 3B
14:20:26.365 设备接收:01 03 02 00 00 B8 44
14:20:26.396 设备发送:02 03 04 84 00 04 05 23
14:20:27.878 设备接收:02 03 08 13 89 19 32 FF CC 19 32 82 E1
14:20:27.896 设备发送:02 03 04 8D 00 21 14 FA
14:20:29.409 设备接收:02 03 42 08 F9 24 38 00 00 00 00 00 00 00 00 00 00 00 00 00 00 00 00 00 00 09 19 24 4D 00 00 00 00 00 00 00 00 00 00 00 00 00 00 00 00 00 00 09 0A 24 59 00 00 00 00 00 00 00 00 00 00 00 00 00 00 00 00 00 00 45 A8
14:20:29.424 设备发送:02 03 06 84 00 04 04 9B
14:20:30.939 设备接收:02 03 08 00 00 78 86 00 13 70 B3 8C 85
14:20:30.955 设备发送:02 03 04 04 00 01 C4 C8
14:20:32.452 设备接收:02 03 02 00 02 7D 85
14:20:32.467 设备发送:02 03 05 84 00 0F 45 18
14:20:33.976 设备接收:02 03 1E 1F 7B 02 A9 02 25 1F 6B 02 AB 02 25 1F 84 02 AF 02 2A 1F C7 05 4C 04 4F 1F 68 02 A7 02 22 6E 81
14:20:33.992 设备发送:02 03 05 93 00 0F F5 1C
14:20:35.488 设备接收:02 03 1E 1F 77 02 A3 02 20 1F 82 02 B6 02 30 1F 65 05 79 04 66 1F B9 02 B5 02 32 1F 28 02 E6 02 50 9D C7
14:20:35.519 设备发送:02 03 05 A2 00 0F A4 D3
14:20:37.033 设备接收:02 03 1E 00 00 00 04 00 00 00 00 00 00 00 00 00 00 00 00 00 00 00 00 00 00 00 00 00 00 00 00 00 00 92 31
14:20:37.049 设备发送:02 03 05 B1 00 03 55 13
14:20:38.556 设备接收:02 03 06 00 00 00 00 00 00 35 85
14:20:38.571 设备发送:02 03 04 2B 00 01 F5 01
14:20:40.055 设备接收:02 03 02 02 E2 7D 6D
14:20:40.086 设备发送:02 03 04 20 00 01 84 C3
14:20:41.612 设备发送:02 03 04 20 00 01 84 C3
14:20:43.117 设备接收:02 03 02 00 3F BC 54
14:20:43.142 设备发送:02 03 04 05 00 01 95 08
14:20:44.642 设备接收:02 03 02 00 00 FC 44
14:20:44.657 设备发送:03 03 04 84 00 04 04 F2
14:20:46.145 设备接收:03 03 08 13 87 1B 3A 00 2F 1B 3A 48 BA
14:20:46.161 设备发送:03 03 04 8D 00 21 15 2B
14:20:47.675 设备接收:03 03 42 08 F9 27 34 00 00 00 00 00 00 00 00 00 00 00 00 00 00 00 00 00 00 09 1F 27 1E 00 00 00 00 00 00 00 00 00 00 00 00 00 00 00 00 00 00 09 0F 27 32 00 00 00 00 00 00 00 00 00 00 00 00 00 00 00 00 00 00 6D 75
14:20:47.695 设备发送:03 03 06 84 00 04 05 4A
14:20:49.175 设备接收:03 03 08 00 00 82 0F 00 13 F9 D6 E6 47
14:20:49.206 设备发送:03 03 04 04 00 01 C5 19
14:20:50.722 设备接收:03 03 02 00 02 40 45
14:20:50.736 设备发送:03 03 05 84 00 0F 44 C9
14:20:52.262 设备接收:03 03 1E 1E D7 05 E4 04 A7 1E EA 05 E4 04 A9 1F 32 05 B9 04 92 1E DE 05 CB 04 94 17 08 05 CE 03 6C 4F 8F
14:20:52.278 设备发送:03 03 05 93 00 0F F4 CD
14:20:53.750 设备接收:03 03 1E 05 1E 00 00 00 00 13 7D 04 59 02 2B 1B 8A 02 FB 02 1A 1B A9 02 F5 02 18 05 26 00 00 00 00 2D 3B
14:20:53.794 设备发送:03 03 05 A2 00 0F A5 02
14:20:55.279 设备接收:03 03 1E 00 0E 00 00 00 00 00 00 00 00 00 00 00 00 00 00 00 00 00 00 00 00 00 00 00 00 00 00 00 00 81 70
14:20:55.294 设备发送:03 03 05 B1 00 03 54 C2
14:20:56.809 设备接收:03 03 06 00 00 00 00 00 00 38 15
14:20:56.825 设备发送:03 03 04 2B 00 01 F4 D0
14:20:58.354 设备发送:03 03 04 2B 00 01 F4 D0
14:20:59.840 设备接收:03 03 02 02 E2 40 AD
14:20:59.854 设备发送:03 03 04 20 00 01 85 12
14:21:01.391 设备接收:03 03 02 00 37 80 52
14:21:01.460 设备发送:03 03 04 05 00 01 94 D9
14:21:02.884 设备接收:03 03 02 00 00 C1 84
14:21:02.900 设备发送:01 03 04 84 00 04 05 10
14:21:04.399 设备接收:01 03 08 13 86 1A 24 FF 65 1A 25 AB 8B
14:21:04.414 设备发送:01 03 04 8D 00 21 14 C9
14:21:05.928 设备接收:01 03 42 08 FA 25 A7 00 00 00 00 00 00 00 00 00 00 00 00 00 00 00 00 00 00 09 19 25 AD 00 00 00 00 00 00 00 00 00 00 00 00 00 00 00 00 00 00 09 0F 25 B3 00 00 00 00 00 00 00 00 00 00 00 00 00 00 00 00 00 00 0A 97
14:21:05.962 设备发送:01 03 06 84 00 04 04 A8
14:21:07.439 设备接收:01 03 08 00 00 7D FB 00 13 28 34 94 3C
14:21:07.455 设备发送:01 03 04 04 00 01 C4 FB
14:21:08.988 设备发送:01 03 04 04 00 01 C4 FB
14:21:10.484 设备接收:01 03 02 00 02 39 85
14:21:10.500 设备发送:01 03 05 84 00 0F 45 2B
14:21:12.004 设备接收:01 03 1E 1F 35 05 7B 04 61 1F 58 05 81 04 6A 1F 46 05 68 04 54 1F C2 05 70 04 6C 17 22 02 CA 01 A7 63 80
14:21:12.034 设备发送:01 03 05 93 00 0F F5 2F
14:21:13.536 设备接收:01 03 1E 00 00 00 00 00 00 1A 2D 05 D1 03 E6 1B DF 02 DB 02 09 1B F5 02 DA 02 0A 00 00 00 05 00 00 21 25
14:21:13.552 设备发送:01 03 05 A2 00 0F A4 E0
14:21:15.057 设备接收:01 03 1E 00 00 00 00 00 00 00 00 00 00 00 00 00 00 00 00 00 00 00 00 00 00 00 00 00 00 00 00 00 00 D8 BA
14:21:15.073 设备发送:01 03 05 B1 00 03 55 20
14:21:16.584 设备发送:01 03 05 B1 00 03 55 20
14:21:18.084 设备接收:01 03 06 00 00 00 00 00 00 21 75
14:21:18.099 设备发送:01 03 04 2B 00 01 F5 32
14:21:19.606 设备接收:01 03 02 02 E1 79 6C
14:21:19.622 设备发送:01 03 04 20 00 01 84 F0
14:21:21.123 设备接收:01 03 02 00 31 79 90
14:21:21.139 设备发送:01 03 04 05 00 01 95 3B
14:21:22.642 设备接收:01 03 02 00 00 B8 44
14:21:22.657 设备发送:02 03 04 84 00 04 05 23
14:21:24.171 设备接收:02 03 08 13 85 19 18 00 29 19 18 F7 1B
14:21:24.187 设备发送:02 03 04 8D 00 21 14 FA
14:21:25.668 设备接收:02 03 42 08 FA 24 18 00 00 00 00 00 00 00 00 00 00 00 00 00 00 00 00 00 00 09 1A 24 33 00 00 00 00 00 00 00 00 00 00 00 00 00 00 00 00 00 00 09 0A 24 26 00 00 00 00 00 00 00 00 00 00 00 00 00 00 00 00 00 00 48 1B
14:21:25.731 设备发送:02 03 06 84 00 04 04 9B
14:21:27.211 设备接收:02 03 08 00 00 78 E9 00 13 70 BD D9 48
14:21:27.227 设备发送:02 03 04 04 00 01 C4 C8
14:21:28.742 设备接收:02 03 02 00 02 7D 85
14:21:28.757 设备发送:02 03 05 84 00 0F 45 18
14:21:30.257 设备接收:02 03 1E 1F A5 02 A2 02 22 1F 93 02 A1 02 20 1F 87 02 AB 02 27 1F A0 05 48 04 47 1F 93 02 A1 02 20 8C A6
14:21:30.272 设备发送:02 03 05 93 00 0F F5 1C
14:21:31.760 设备接收:02 03 1E 1F 9D 02 9C 02 1C 1F 82 02 B2 02 2C 1F 8B 05 69 04 5E 1F 68 02 B9 02 30 1F 4D 02 DD 02 4B 4A 5F
14:21:31.775 设备发送:02 03 05 A2 00 0F A4 D3
14:21:33.295 设备接收:02 03 1E 00 00 00 04 00 00 00 00 00 00 00 00 00 00 00 00 00 00 00 00 00 00 00 00 00 00 00 00 00 00 92 31
14:21:33.311 设备发送:02 03 05 B1 00 03 55 13
14:21:34.791 设备接收:02 03 06 00 00 00 00 00 00 35 85
14:21:34.838 设备发送:02 03 04 2B 00 01 F5 01
14:21:36.345 设备接收:02 03 02 02 E2 7D 6D
14:21:36.351 设备发送:02 03 04 20 00 01 84 C3
14:21:37.867 设备接收:02 03 02 00 40 FD B4
14:21:37.882 设备发送:02 03 04 05 00 01 95 08
14:21:39.388 设备接收:02 03 02 00 00 FC 44
14:21:39.404 设备发送:03 03 04 84 00 04 04 F2
14:21:40.884 设备接收:03 03 08 13 87 1B 10 FF 5E 1B 12 31 6D
14:21:40.899 设备发送:03 03 04 8D 00 21 15 2B
14:21:42.419 设备接收:03 03 42 08 F8 26 E8 00 00 00 00 00 00 00 00 00 00 00 00 00 00 00 00 00 00 09 1F 26 D5 00 00 00 00 00 00 00 00 00 00 00 00 00 00 00 00 00 00 09 11 26 E3 00 00 00 00 00 00 00 00 00 00 00 00 00 00 00 00 00 00 7A 0D
14:21:42.434 设备发送:03 03 06 84 00 04 05 4A
14:21:43.940 设备接收:03 03 08 00 00 82 7A 00 13 F9 E1 2A 5A
14:21:43.955 设备发送:03 03 04 04 00 01 C5 19
14:21:45.474 设备接收:03 03 02 00 02 40 45
14:21:45.550 设备发送:03 03 05 84 00 0F 44 C9
14:21:47.001 设备接收:03 03 1E 1E AF 05 E6 04 A2 1F 13 05 D5 04 A3 1F 32 05 B5 04 8F 1F 06 05 BC 04 8E 16 E0 05 D1 03 68 04 10
14:21:47.017 设备发送:03 03 05 93 00 0F F4 CD
14:21:48.512 设备接收:03 03 1E 05 1F 00 00 00 00 13 8C 04 3D 02 1E 1B B4 02 EF 02 14 1B 5C 02 F9 02 15 05 21 00 00 00 00 D8 2E
14:21:48.528 设备发送:03 03 05 A2 00 0F A5 02
14:21:50.024 设备接收:03 03 1E 00 0D 00 00 00 00 00 00 00 00 00 00 00 00 00 00 00 00 00 00 00 00 00 00 00 00 00 00 00 00 C1 72
14:21:50.039 设备发送:03 03 05 B1 00 03 54 C2
14:21:51.551 设备接收:03 03 06 00 00 00 00 00 00 38 15
14:21:51.566 设备发送:03 03 04 2B 00 01 F4 D0
14:21:53.065 设备接收:03 03 02 02 E2 40 AD
14:21:53.097 设备发送:03 03 04 20 00 01 85 12
14:21:54.590 设备接收:03 03 02 00 38 C0 56
14:21:54.604 设备发送:03 03 04 05 00 01 94 D9
14:21:56.113 设备接收:03 03 02 00 00 C1 84
14:21:56.129 设备发送:01 03 04 84 00 04 05 10
14:21:57.633 设备接收:01 03 08 13 89 19 F8 FF C8 19 F8 D4 23
14:21:57.649 设备发送:01 03 04 8D 00 21 14 C9
14:21:59.163 设备接收:01 03 42 08 F8 25 5D 00 00 00 00 00 00 00 00 00 00 00 00 00 00 00 00 00 00 09 19 25 6B 00 00 00 00 00 00 00 00 00 00 00 00 00 00 00 00 00 00 09 0F 25 6C 00 00 00 00 00 00 00 00 00 00 00 00 00 00 00 00 00 00 54 42
14:21:59.193 设备发送:01 03 06 84 00 04 04 A8
14:22:00.661 设备接收:01 03 08 00 00 7E 60 00 13 28 3E 71 D4
14:22:00.692 设备发送:01 03 04 04 00 01 C4 FB
14:22:02.195 设备接收:01 03 02 00 02 39 85
14:22:02.211 设备发送:01 03 05 84 00 0F 45 2B
14:22:03.725 设备接收:01 03 1E 1F 59 05 6B 04 59 1F 7B 05 6E 04 61 1F 45 05 5F 04 4D 1F 6F 05 72 04 62 17 22 02 C7 01 A5 D2 20
14:22:03.741 设备发送:01 03 05 93 00 0F F5 2F
14:22:05.239 设备接收:01 03 1E 00 00 00 00 00 00 1A 2B 05 C6 03 DE 1C 2E 02 CE 02 06 1B CD 02 D9 02 07 00 00 00 08 00 01 6B 69
14:22:05.254 设备发送:01 03 05 A2 00 0F A4 E0
14:22:06.722 设备接收:01 03 1E 00 00 00 00 00 00 00 00 00 00 00 00 00 00 00 00 00 00 00 00 00 00 00 00 00 00 00 00 00 00 D8 BA
14:22:06.753 设备发送:01 03 05 B1 00 03 55 20
14:22:08.264 设备接收:01 03 06 00 00 00 00 00 00 21 75
14:22:08.280 设备发送:01 03 04 2B 00 01 F5 32
14:22:09.782 设备接收:01 03 02 02 E1 79 6C
14:22:09.797 设备发送:01 03 04 20 00 01 84 F0
14:22:11.317 设备发送:01 03 04 20 00 01 84 F0
14:22:12.851 设备发送:01 03 04 20 00 01 84 F0
14:22:14.346 设备接收:01 03 02 00 36 38 52
14:22:14.361 设备发送:01 03 04 05 00 01 95 3B
14:22:15.872 设备接收:01 03 02 00 00 B8 44
14:22:15.887 设备发送:02 03 04 84 00 04 05 23
14:22:17.382 设备接收:02 03 08 13 87 18 A5 00 28 18 A5 29 30
14:22:17.398 设备发送:02 03 04 8D 00 21 14 FA
14:22:18.897 设备接收:02 03 42 08 F8 23 80 00 00 00 00 00 00 00 00 00 00 00 00 00 00 00 00 00 00 09 19 23 99 00 00 00 00 00 00 00 00 00 00 00 00 00 00 00 00 00 00 09 08 23 8E 00 00 00 00 00 00 00 00 00 00 00 00 00 00 00 00 00 00 28 9D
14:22:18.944 设备发送:02 03 06 84 00 04 04 9B
14:22:20.440 设备接收:02 03 08 00 00 79 48 00 13 70 C6 25 63
14:22:20.471 设备发送:02 03 04 04 00 01 C4 C8
14:22:21.988 设备发送:02 03 04 04 00 01 C4 C8
14:22:23.490 设备接收:02 03 02 00 02 7D 85
14:22:23.505 设备发送:02 03 05 84 00 0F 45 18
14:22:24.989 设备接收:02 03 1E 1F 54 02 A1 02 1C 1F 6B 02 9C 02 19 1F 83 02 A2 02 20 1F EE 05 2A 04 39 1F 91 02 99 02 1A 45 B5
14:22:25.005 设备发送:02 03 05 93 00 0F F5 1C
14:22:26.498 设备接收:02 03 1E 1F 75 02 94 02 14 1F AA 02 A3 02 23 1F 65 05 61 04 53 1F 90 02 AE 02 2A 1F 25 02 D8 02 44 C9 4E
14:22:26.511 设备发送:02 03 05 A2 00 0F A4 D3
14:22:28.044 设备接收:02 03 1E 00 00 00 04 00 00 00 00 00 00 00 00 00 00 00 00 00 00 00 00 00 00 00 00 00 00 00 00 00 00 92 31
14:22:28.059 设备发送:02 03 05 B1 00 03 55 13
14:22:29.557 设备接收:02 03 06 00 00 00 00 00 00 35 85
14:22:29.572 设备发送:02 03 04 2B 00 01 F5 01
14:22:31.069 设备接收:02 03 02 02 E2 7D 6D
14:22:31.085 设备发送:02 03 04 20 00 01 84 C3
14:22:32.615 设备发送:02 03 04 20 00 01 84 C3
14:22:34.109 设备接收:02 03 02 00 40 FD B4
14:22:34.125 设备发送:02 03 04 05 00 01 95 08
14:22:35.637 设备接收:02 03 02 00 00 FC 44
14:22:35.653 设备发送:03 03 04 84 00 04 04 F2
14:22:37.159 设备接收:03 03 08 13 88 1A D3 FF C6 1A D3 CA 42
14:22:37.175 设备发送:03 03 04 8D 00 21 15 2B
14:22:38.676 设备接收:03 03 42 08 F9 26 96 00 00 00 00 00 00 00 00 00 00 00 00 00 00 00 00 00 00 09 20 26 8C 00 00 00 00 00 00 00 00 00 00 00 00 00 00 00 00 00 00 09 10 26 91 00 00 00 00 00 00 00 00 00 00 00 00 00 00 00 00 00 00 5E CB
14:22:38.707 设备发送:03 03 06 84 00 04 05 4A
14:22:40.195 设备接收:03 03 08 00 00 82 E4 00 13 F9 EB 03 81
14:22:40.266 设备发送:03 03 04 04 00 01 C5 19
14:22:41.719 设备接收:03 03 02 00 02 40 45
14:22:41.734 设备发送:03 03 05 84 00 0F 44 C9
14:22:43.234 设备接收:03 03 1E 1E D8 05 D5 04 9B 1E C4 05 DA 04 9C 1F 0C 05 AF 04 85 1F 08 05 B3 04 87 17 30 05 AF 03 5F F7 F6
14:22:43.250 设备发送:03 03 05 93 00 0F F4 CD
14:22:44.749 设备接收:03 03 1E 05 1E 00 00 00 00 13 83 04 45 02 22 1B DB 02 E6 02 11 1B AB 02 EE 02 13 05 20 00 00 00 00 C6 1C
14:22:44.764 设备发送:03 03 05 A2 00 0F A5 02
14:22:46.294 设备接收:03 03 1E 00 10 00 00 00 00 00 00 00 00 00 00 00 00 00 00 00 00 00 00 00 00 00 00 00 00 00 00 00 00 01 66
14:22:46.310 设备发送:03 03 05 B1 00 03 54 C2
14:22:47.801 设备接收:03 03 06 00 00 00 00 00 00 38 15
14:22:47.815 设备发送:03 03 04 2B 00 01 F4 D0
14:22:49.311 设备接收:03 03 02 02 E2 40 AD
14:22:49.326 设备发送:03 03 04 20 00 01 85 12
14:22:50.842 设备接收:03 03 02 00 32 40 51
14:22:50.857 设备发送:03 03 04 05 00 01 94 D9
14:22:52.361 设备接收:03 03 02 00 00 C1 84
14:22:52.373 设备发送:01 03 04 84 00 04 05 10
14:22:53.856 设备接收:01 03 08 13 88 19 C5 00 2A 19 C5 F8 D5
14:22:53.903 设备发送:01 03 04 8D 00 21 14 C9
14:22:55.386 设备接收:01 03 42 08 F8 25 16 00 00 00 00 00 00 00 00 00 00 00 00 00 00 00 00 00 00 09 19 25 1B 00 00 00 00 00 00 00 00 00 00 00 00 00 00 00 00 00 00 09 0E 25 21 00 00 00 00 00 00 00 00 00 00 00 00 00 00 00 00 00 00 E0 D2
14:22:55.402 设备发送:01 03 06 84 00 04 04 A8
14:22:56.900 设备接收:01 03 08 00 00 7E C7 00 13 28 48 C5 EB
14:22:56.913 设备发送:01 03 04 04 00 01 C4 FB
14:22:58.438 设备接收:01 03 02 00 02 39 85
14:22:58.468 设备发送:01 03 05 84 00 0F 45 2B
14:22:59.952 设备接收:01 03 1E 1F 59 05 65 04 54 1F 55 05 70 04 5D 1F 6B 05 51 04 47 1F BD 05 61 04 5F 17 20 02 C2 01 A2 25 DC
14:22:59.968 设备发送:01 03 05 93 00 0F F5 2F
14:23:01.481 设备接收:01 03 1E 00 00 00 01 00 00 1A 03 05 C9 03 DA 1C 06 02 D1 02 05 1B F4 02 D3 02 05 00 00 00 06 00 00 8E A7
14:23:01.497 设备发送:01 03 05 A2 00 0F A4 E0
14:23:03.004 设备接收:01 03 1E 00 00 00 00 00 00 00 00 00 00 00 00 00 00 00 00 00 00 00 00 00 00 00 00 00 00 00 00 00 00 D8 BA
14:23:03.018 设备发送:01 03 05 B1 00 03 55 20
14:23:04.514 设备接收:01 03 06 00 00 00 00 00 00 21 75
14:23:04.548 设备发送:01 03 04 2B 00 01 F5 32
14:23:06.046 设备接收:01 03 02 02 E1 79 6C
14:23:06.061 设备发送:01 03 04 20 00 01 84 F0
14:23:07.559 设备接收:01 03 02 00 35 78 53
14:23:07.574 设备发送:01 03 04 05 00 01 95 3B
14:23:09.064 设备接收:01 03 02 00 00 B8 44
14:23:09.111 设备发送:02 03 04 84 00 04 05 23
14:23:10.593 设备接收:02 03 08 13 85 18 AF 00 28 18 AF 12 F6
14:23:10.627 设备发送:02 03 04 8D 00 21 14 FA
14:23:12.127 设备接收:02 03 42 08 F9 23 89 00 00 00 00 00 00 00 00 00 00 00 00 00 00 00 00 00 00 09 1A 23 A4 00 00 00 00 00 00 00 00 00 00 00 00 00 00 00 00 00 00 09 09 23 A7 00 00 00 00 00 00 00 00 00 00 00 00 00 00 00 00 00 00 C5 97
14:23:12.142 设备发送:02 03 06 84 00 04 04 9B
14:23:13.629 设备接收:02 03 08 00 00 79 A6 00 13 70 D0 4C BA
14:23:13.644 设备发送:02 03 04 04 00 01 C4 C8
14:23:15.166 设备接收:02 03 02 00 02 7D 85
14:23:15.182 设备发送:02 03 05 84 00 0F 45 18
14:23:16.702 设备接收:02 03 1E 1F A4 02 92 02 15 1F 93 02 93 02 14 1F 5D 02 A1 02 1C 1F EF 05 26 04 35 1F 69 02 96 02 14 A1 39
14:23:16.744 设备发送:02 03 05 93 00 0F F5 1C
14:23:18.219 设备接收:02 03 1E 1F 77 02 94 02 13 1F AB 02 A5 02 24 1F 66 05 58 04 4C 1F 92 02 AB 02 28 1F 28 02 D9 02 45 74 39
14:23:18.234 设备发送:02 03 05 A2 00 0F A4 D3
14:23:19.734 设备接收:02 03 1E 00 00 00 03 00 00 00 00 00 00 00 00 00 00 00 00 00 00 00 00 00 00 00 00 00 00 00 00 00 00 6D 7D
14:23:19.750 设备发送:02 03 05 B1 00 03 55 13
14:23:21.248 设备接收:02 03 06 00 00 00 00 00 00 35 85
14:23:21.264 设备发送:02 03 04 2B 00 01 F5 01
14:23:22.749 设备接收:02 03 02 02 E2 7D 6D
14:23:22.795 设备发送:02 03 04 20 00 01 84 C3
14:23:24.280 设备接收:02 03 02 00 40 FD B4
14:23:24.296 设备发送:02 03 04 05 00 01 95 08
14:23:25.802 设备接收:02 03 02 00 00 FC 44
14:23:25.820 设备发送:03 03 04 84 00 04 04 F2
14:23:27.323 设备接收:03 03 08 13 86 1A BF 00 2C 1A BF A4 46
14:23:27.339 设备发送:03 03 04 8D 00 21 15 2B
14:23:28.841 设备接收:03 03 42 08 F7 26 8B 00 00 00 00 00 00 00 00 00 00 00 00 00 00 00 00 00 00 09 1D 26 74 00 00 00 00 00 00 00 00 00 00 00 00 00 00 00 00 00 00 09 0E 26 87 00 00 00 00 00 00 00 00 00 00 00 00 00 00 00 00 00 00 4F 2F
14:23:28.856 设备发送:03 03 06 84 00 04 05 4A
14:23:30.376 设备接收:03 03 08 00 00 83 43 00 13 F9 F5 B7 81
14:23:30.391 设备发送:03 03 04 04 00 01 C5 19
14:23:31.890 设备接收:03 03 02 00 02 40 45
14:23:31.905 设备发送:03 03 05 84 00 0F 44 C9
14:23:33.387 设备接收:03 03 1E 1E FC 05 C4 04 93 1E C3 05 D1 04 94 1F 7E 05 8E 04 7B 1E DC 05 AF 04 7E 16 E1 05 B7 03 59 1C 47
14:23:33.436 设备发送:03 03 05 93 00 0F F4 CD
14:23:34.934 设备接收:03 03 1E 05 20 00 00 00 00 13 9A 04 17 02 0D 1B B3 02 E6 02 0E 1B D2 02 E4 02 0F 05 22 00 00 00 00 59 DE
14:23:34.949 设备发送:03 03 05 A2 00 0F A5 02
14:23:36.449 设备接收:03 03 1E 00 0F 00 00 00 00 00 00 00 00 00 00 00 00 00 00 00 00 00 00 00 00 00 00 00 00 00 00 00 00 41 71
14:23:36.464 设备发送:03 03 05 B1 00 03 54 C2
14:23:37.990 设备接收:03 03 06 00 00 00 00 00 00 38 15
14:23:38.005 设备发送:03 03 04 2B 00 01 F4 D0
14:23:39.505 设备发送:03 03 04 2B 00 01 F4 D0
14:23:41.016 设备接收:03 03 02 02 E2 40 AD
14:23:41.032 设备发送:03 03 04 20 00 01 85 12
14:23:42.549 设备接收:03 03 02 00 2D 01 99
14:23:42.564 设备发送:03 03 04 05 00 01 94 D9
14:23:44.052 设备接收:03 03 02 00 00 C1 84
14:23:44.084 设备发送:01 03 04 84 00 04 05 10
14:23:45.581 设备接收:01 03 08 13 87 19 87 FF 68 19 89 EE 2F
14:23:45.597 设备发送:01 03 04 8D 00 21 14 C9
14:23:47.102 设备接收:01 03 42 08 F7 24 B5 00 00 00 00 00 00 00 00 00 00 00 00 00 00 00 00 00 00 09 1C 24 CD 00 00 00 00 00 00 00 00 00 00 00 00 00 00 00 00 00 00 09 11 24 D5 00 00 00 00 00 00 00 00 00 00 00 00 00 00 00 00 00 00 B1 79
14:23:47.133 设备发送:01 03 06 84 00 04 04 A8
14:23:48.641 设备接收:01 03 08 00 00 7F 24 00 13 28 51 C0 26
14:23:48.662 设备发送:01 03 04 04 00 01 C4 FB
14:23:50.157 设备接收:01 03 02 00 02 39 85
14:23:50.173 设备发送:01 03 05 84 00 0F 45 2B
14:23:51.655 设备接收:01 03 1E 1F 34 05 5F 04 4A 1F 54 05 61 04 50 1F 70 05 44 04 3D 1F 99 05 57 04 52 16 D3 02 C6 01 9F 95 80
14:23:51.687 设备发送:01 03 05 93 00 0F F5 2F
14:23:53.186 设备接收:01 03 1E 00 00 00 00 00 00 1A 2B 05 B0 03 CF 1B DE 02 CC 01 FF 1B CD 02 D0 02 00 00 00 00 08 00 01 BA EB
14:23:53.202 设备发送:01 03 05 A2 00 0F A4 E0
14:23:54.719 设备接收:01 03 1E 00 00 00 00 00 00 00 00 00 00 00 00 00 00 00 00 00 00 00 00 00 00 00 00 00 00 00 00 00 00 D8 BA
14:23:54.735 设备发送:01 03 05 B1 00 03 55 20
14:23:56.232 设备接收:01 03 06 00 00 00 00 00 00 21 75
14:23:56.248 设备发送:01 03 04 2B 00 01 F5 32
14:23:57.756 设备接收:01 03 02 02 E1 79 6C
14:23:57.772 设备发送:01 03 04 20 00 01 84 F0
14:23:59.253 设备接收:01 03 02 00 2F F9 98
14:23:59.300 设备发送:01 03 04 05 00 01 95 3B
14:24:00.786 设备接收:01 03 02 00 00 B8 44
14:24:00.801 设备发送:02 03 04 84 00 04 05 23
14:24:02.300 设备接收:02 03 08 13 87 18 67 FF 6D 18 69 71 75
14:24:02.316 设备发送:02 03 04 8D 00 21 14 FA
14:24:03.819 设备接收:02 03 42 08 F9 23 23 00 00 00 00 00 00 00 00 00 00 00 00 00 00 00 00 00 00 09 1C 23 45 00 00 00 00 00 00 00 00 00 00 00 00 00 00 00 00 00 00 09 09 23 3B 00 00 00 00 00 00 00 00 00 00 00 00 00 00 00 00 00 00 B1 EA
14:24:03.867 设备发送:02 03 06 84 00 04 04 9B
14:24:05.351 设备接收:02 03 08 00 00 79 FF 00 13 70 D9 90 B1
14:24:05.367 设备发送:02 03 04 04 00 01 C4 C8
14:24:06.873 设备接收:02 03 02 00 02 7D 85
14:24:06.890 设备发送:02 03 05 84 00 0F 45 18
14:24:08.390 设备接收:02 03 1E 1F 7A 02 93 02 13 1F 69 02 93 02 12 1F 84 02 9A 02 19 1F ED 05 19 04 2B 1F 8F 02 92 02 13 49 9D
14:24:08.406 设备发送:02 03 05 93 00 0F F5 1C
14:24:09.905 设备接收:02 03 1E 1F 50 02 91 02 0F 1F AB 02 9C 02 1E 1F 3E 05 57 04 45 1F 91 02 A7 02 24 1F 4E 02 CC 02 3E C1 F5
14:24:09.921 设备发送:02 03 05 A2 00 0F A4 D3
14:24:11.422 设备接收:02 03 1E 00 00 00 04 00 00 00 00 00 00 00 00 00 00 00 00 00 00 00 00 00 00 00 00 00 00 00 00 00 00 92 31
14:24:11.437 设备发送:02 03 05 B1 00 03 55 13
14:24:12.965 设备接收:02 03 06 00 00 00 00 00 00 35 85
14:24:12.981 设备发送:02 03 04 2B 00 01 F5 01
14:24:14.480 设备接收:02 03 02 02 E2 7D 6D
14:24:14.496 设备发送:02 03 04 20 00 01 84 C3
14:24:15.992 设备接收:02 03 02 00 40 FD B4
14:24:16.009 设备发送:02 03 04 05 00 01 95 08
14:24:17.509 设备接收:02 03 02 00 00 FC 44
14:24:17.540 设备发送:03 03 04 84 00 04 04 F2
14:24:19.014 设备接收:03 03 08 13 8A 1A 76 FF 60 1A 78 04 07
14:24:19.061 设备发送:03 03 04 8D 00 21 15 2B
14:24:20.561 设备接收:03 03 42 08 F9 26 1B 00 00 00 00 00 00 00 00 00 00 00 00 00 00 00 00 00 00 09 20 26 0C 00 00 00 00 00 00 00 00 00 00 00 00 00 00 00 00 00 00 09 10 26 1C 00 00 00 00 00 00 00 00 00 00 00 00 00 00 00 00 00 00 C3 58
14:24:20.576 设备发送:03 03 06 84 00 04 05 4A
14:24:22.075 设备接收:03 03 08 00 00 83 A5 00 13 F9 FF 3E 50
14:24:22.090 设备发送:03 03 04 04 00 01 C5 19
14:24:23.578 设备接收:03 03 02 00 02 40 45
14:24:23.641 设备发送:03 03 05 84 00 0F 44 C9
14:24:25.115 设备接收:03 03 1E 1E D9 05 BE 04 89 1E C5 05 C4 04 8A 1F 0C 05 9B 04 74 1E E1 05 A6 04 77 16 E4 05 AE 03 54 9A A8
14:24:25.131 设备发送:03 03 05 93 00 0F F4 CD
14:24:26.661 设备接收:03 03 1E 05 1E 00 00 00 00 13 80 04 3E 02 1E 1C 05 02 D4 02 07 1B 84 02 E7 02 0B 05 25 00 00 00 00 A7 C9
14:24:26.676 设备发送:03 03 05 A2 00 0F A5 02
14:24:28.146 设备接收:03 03 1E 00 0F 00 00 00 00 00 00 00 00 00 00 00 00 00 00 00 00 00 00 00 00 00 00 00 00 00 00 00 00 41 71
14:24:28.177 设备发送:03 03 05 B1 00 03 54 C2
14:24:29.673 设备接收:03 03 06 00 00 00 00 00 00 38 15
14:24:29.689 设备发送:03 03 04 2B 00 01 F4 D0
14:24:31.188 设备接收:03 03 02 02 E2 40 AD
14:24:31.204 设备发送:03 03 04 20 00 01 85 12
14:24:32.720 设备接收:03 03 02 00 29 00 5A
14:24:32.736 设备发送:03 03 04 05 00 01 94 D9
14:24:34.222 设备接收:03 03 02 00 00 C1 84
14:24:34.253 设备发送:01 03 04 84 00 04 05 10
14:24:35.770 设备接收:01 03 08 13 8B 19 69 00 29 19 69 AB B0
14:24:35.785 设备发送:01 03 04 8D 00 21 14 C9
14:24:37.259 设备接收:01 03 42 08 FA 24 85 00 00 00 00 00 00 00 00 00 00 00 00 00 00 00 00 00 00 09 1C 24 90 00 00 00 00 00 00 00 00 00 00 00 00 00 00 00 00 00 00 09 11 24 94 00 00 00 00 00 00 00 00 00 00 00 00 00 00 00 00 00 00 35 A7
14:24:37.306 设备发送:01 03 06 84 00 04 04 A8
14:24:38.804 设备接收:01 03 08 00 00 7F 81 00 13 28 5B 0C 38
14:24:38.820 设备发送:01 03 04 04 00 01 C4 FB
14:24:40.324 设备发送:01 03 05 84 00 0F 45 2B
14:24:40.340 设备接收:01 03 02 00 02 39 85
14:24:41.850 设备接收:01 03 1E 1F 34 05 55 04 42 1F 2E 05 5D 04 48 1F 44 05 40 04 34 1F BD 05 47 04 4A 16 F8 02 BE 01 9C 3D 97
14:24:41.866 设备发送:01 03 05 93 00 0F F5 2F
14:24:43.380 设备接收:01 03 1E 00 00 00 01 00 00 1A 02 05 AD 03 C8 1C 06 02 C5 01 FD 1B F4 02 C6 01 FC 00 00 00 07 00 00 10 9D
14:24:43.396 设备发送:01 03 05 A2 00 0F A4 E0
14:24:44.884 设备接收:01 03 1E 00 00 00 00 00 00 00 00 00 00 00 00 00 00 00 00 00 00 00 00 00 00 00 00 00 00 00 00 00 00 D8 BA
14:24:44.899 设备发送:01 03 05 B1 00 03 55 20
14:24:46.389 设备接收:01 03 06 00 00 00 00 00 00 21 75
14:24:46.411 设备发送:01 03 04 2B 00 01 F5 32
14:24:47.907 设备接收:01 03 02 02 E1 79 6C
14:24:47.923 设备发送:01 03 04 20 00 01 84 F0
14:24:49.437 设备接收:01 03 02 00 2A 39 9B
14:24:49.454 设备发送:01 03 04 05 00 01 95 3B
14:24:50.949 设备接收:01 03 02 00 00 B8 44
14:24:50.965 设备发送:02 03 04 84 00 04 05 23
14:24:52.479 设备接收:02 03 08 13 8B 18 4E 00 2A 18 4F E1 68
14:24:52.495 设备发送:02 03 04 8D 00 21 14 FA
14:24:54.001 设备接收:02 03 42 08 F5 23 05 00 00 00 00 00 00 00 00 00 00 00 00 00 00 00 00 00 00 09 17 23 2A 00 00 00 00 00 00 00 00 00 00 00 00 00 00 00 00 00 00 09 05 23 28 00 00 00 00 00 00 00 00 00 00 00 00 00 00 00 00 00 00 14 9F
14:24:54.017 设备发送:02 03 06 84 00 04 04 9B
14:24:55.537 设备接收:02 03 08 00 00 7A 56 00 13 70 E1 CD 48
14:24:55.553 设备发送:02 03 04 04 00 01 C4 C8
14:24:57.051 设备发送:02 03 04 04 00 01 C4 C8
14:24:58.565 设备接收:02 03 02 00 02 7D 85
14:24:58.582 设备发送:02 03 05 84 00 0F 45 18
14:25:00.067 设备接收:02 03 1E 1F 58 02 94 02 12 1F 70 02 91 02 10 1F 89 02 98 02 18 1F F0 05 13 04 26 1F 92 02 8C 02 0F 0B AD
14:25:00.099 设备发送:02 03 05 93 00 0F F5 1C
14:25:01.610 设备接收:02 03 1E 1F 78 02 8A 02 0B 1F 83 02 A0 02 1E 1F 66 05 49 04 3F 1F 68 02 A5 02 21 1F 26 02 CF 02 3D A2 8F
14:25:01.641 设备发送:02 03 05 A2 00 0F A4 D3
14:25:03.132 设备接收:02 03 1E 00 00 00 04 00 00 00 00 00 00 00 00 00 00 00 00 00 00 00 00 00 00 00 00 00 00 00 00 00 00 92 31
14:25:03.148 设备发送:02 03 05 B1 00 03 55 13
14:25:04.662 设备接收:02 03 06 00 00 00 00 00 00 35 85
14:25:04.678 设备发送:02 03 04 2B 00 01 F5 01
14:25:06.176 设备接收:02 03 02 02 E2 7D 6D
14:25:06.192 设备发送:02 03 04 20 00 01 84 C3
14:25:07.676 设备接收:02 03 02 00 3F BC 54
14:25:07.724 设备发送:02 03 04 05 00 01 95 08
14:25:09.217 设备接收:02 03 02 00 00 FC 44
14:25:09.232 设备发送:03 03 04 84 00 04 04 F2
14:25:10.721 设备接收:03 03 08 13 8B 1A 59 FF 60 1A 5B 80 D8
14:25:10.753 设备发送:03 03 04 8D 00 21 15 2B
14:25:12.270 设备接收:03 03 42 08 F8 25 D6 00 00 00 00 00 00 00 00 00 00 00 00 00 00 00 00 00 00 09 1F 25 C9 00 00 00 00 00 00 00 00 00 00 00 00 00 00 00 00 00 00 09 10 25 D6 00 00 00 00 00 00 00 00 00 00 00 00 00 00 00 00 00 00 10 B2
14:25:12.286 设备发送:03 03 06 84 00 04 05 4A
14:25:13.750 设备接收:03 03 08 00 00 84 06 00 13 FA 08 BA 88
14:25:13.797 设备发送:03 03 04 04 00 01 C5 19
14:25:15.281 设备接收:03 03 02 00 02 40 45
14:25:15.296 设备发送:03 03 05 84 00 0F 44 C9
14:25:16.808 设备接收:03 03 1E 1E FF 05 AE 04 82 1E C1 05 BB 04 83 1F 33 05 8E 04 70 1E DE 05 9B 04 6E 16 E0 05 A3 03 4D C8 66
14:25:16.839 设备发送:03 03 05 93 00 0F F4 CD
14:25:18.356 设备接收:03 03 1E 05 1F 00 00 00 00 13 85 04 2C 02 16 1B 8D 02 DF 02 07 1B AB 02 DC 02 07 05 26 00 00 00 00 63 08
14:25:18.372 设备发送:03 03 05 A2 00 0F A5 02
14:25:19.873 设备接收:03 03 1E 00 10 00 00 00 00 00 00 00 00 00 00 00 00 00 00 00 00 00 00 00 00 00 00 00 00 00 00 00 00 01 66
14:25:19.888 设备发送:03 03 05 B1 00 03 54 C2
14:25:21.373 设备接收:03 03 06 00 00 00 00 00 00 38 15
14:25:21.388 设备发送:03 03 04 2B 00 01 F4 D0
14:25:22.904 设备接收:03 03 02 02 E2 40 AD
14:25:22.935 设备发送:03 03 04 20 00 01 85 12
14:25:24.437 设备接收:03 03 02 00 2B 81 9B
14:25:24.453 设备发送:03 03 04 05 00 01 94 D9
14:25:25.944 设备接收:03 03 02 00 00 C1 84
14:25:25.959 设备发送:01 03 04 84 00 04 05 10
14:25:27.463 设备接收:01 03 08 13 8A 19 39 FF CA 19 39 BA A2
14:25:27.542 设备发送:01 03 04 8D 00 21 14 C9
14:25:28.976 设备接收:01 03 42 08 FC 24 5B 00 00 00 00 00 00 00 00 00 00 00 00 00 00 00 00 00 00 09 18 24 4F 00 00 00 00 00 00 00 00 00 00 00 00 00 00 00 00 00 00 09 0E 24 5D 00 00 00 00 00 00 00 00 00 00 00 00 00 00 00 00 00 00 7F 1C
14:25:28.992 设备发送:01 03 06 84 00 04 04 A8
14:25:30.490 设备接收:01 03 08 00 00 7F DC 00 13 28 64 A1 E5
14:25:30.506 设备发送:01 03 04 04 00 01 C4 FB
14:25:32.019 设备接收:01 03 02 00 02 39 85
14:25:32.034 设备发送:01 03 05 84 00 0F 45 2B
14:25:33.548 设备接收:01 03 1E 1F 34 05 4B 04 3A 1F 55 05 4D 04 41 1F 1D 05 3F 04 2E 1F 97 05 46 04 43 16 FA 02 BA 01 9A F6 DA
14:25:33.564 设备发送:01 03 05 93 00 0F F5 2F
14:25:35.048 设备接收:01 03 1E 00 00 00 00 00 00 1A 2D 05 9C 03 C2 1C 2F 02 B9 01 F6 1B F6 02 C1 01 F9 00 00 00 06 00 00 4B 37
14:25:35.095 设备发送:01 03 05 A2 00 0F A4 E0
14:25:36.593 设备接收:01 03 1E 00 00 00 00 00 00 00 00 00 00 00 00 00 00 00 00 00 00 00 00 00 00 00 00 00 00 00 00 00 00 D8 BA
14:25:36.624 设备发送:01 03 05 B1 00 03 55 20
14:25:38.097 设备接收:01 03 06 00 00 00 00 00 00 21 75
14:25:38.113 设备发送:01 03 04 2B 00 01 F5 32
14:25:39.640 设备接收:01 03 02 02 E1 79 6C
14:25:39.656 设备发送:01 03 04 20 00 01 84 F0
14:25:41.155 设备接收:01 03 02 00 29 79 9A
14:25:41.170 设备发送:01 03 04 05 00 01 95 3B
14:25:42.676 设备接收:01 03 02 00 00 B8 44
14:25:42.692 设备发送:02 03 04 84 00 04 05 23
14:25:44.204 设备接收:02 03 08 13 88 18 13 FF CC 18 13 EE 7F
14:25:44.219 设备发送:02 03 04 8D 00 21 14 FA
14:25:45.722 设备接收:02 03 42 08 FE 22 B2 00 00 00 00 00 00 00 00 00 00 00 00 00 00 00 00 00 00 09 1A 22 AC 00 00 00 00 00 00 00 00 00 00 00 00 00 00 00 00 00 00 09 0B 22 BD 00 00 00 00 00 00 00 00 00 00 00 00 00 00 00 00 00 00 E5 9A
14:25:45.752 设备发送:02 03 06 84 00 04 04 9B
14:25:47.231 设备接收:02 03 08 00 00 7A AF 00 13 70 EA 10 9B
14:25:47.246 设备发送:02 03 04 04 00 01 C4 C8
14:25:48.779 设备发送:02 03 04 04 00 01 C4 C8
14:25:50.296 设备发送:02 03 04 04 00 01 C4 C8
14:25:51.820 设备发送:02 03 05 84 00 0F 45 18
14:25:53.328 设备接收:02 03 1E 1F 54 02 8E 02 0C 1F BB 02 84 02 0B 1F 87 02 92 02 13 1F C8 05 10 04 1F 1F 6A 02 8A 02 0B 63 0F
14:25:53.344 设备发送:02 03 05 93 00 0F F5 1C
14:25:54.846 设备接收:02 03 1E 1F 77 02 88 02 0A 1F AB 02 96 02 18 1F 66 05 3E 04 37 1F 92 02 9D 02 1D 1F 27 02 C7 02 37 96 E8
14:25:54.862 设备发送:02 03 05 A2 00 0F A4 D3
14:25:56.351 设备接收:02 03 1E 00 00 00 04 00 00 00 00 00 00 00 00 00 00 00 00 00 00 00 00 00 00 00 00 00 00 00 00 00 00 92 31
14:25:56.367 设备发送:02 03 05 B1 00 03 55 13
14:25:57.887 设备接收:02 03 06 00 00 00 00 00 00 35 85
14:25:57.902 设备发送:02 03 04 2B 00 01 F5 01
14:25:59.402 设备接收:02 03 02 02 E2 7D 6D
14:25:59.416 设备发送:02 03 04 20 00 01 84 C3
14:26:00.901 设备接收:02 03 02 00 3F BC 54
14:26:00.915 设备发送:02 03 04 05 00 01 95 08
14:26:02.419 设备接收:02 03 02 00 00 FC 44
14:26:02.466 设备发送:03 03 04 84 00 04 04 F2
14:26:03.956 设备接收:03 03 08 13 87 1A 23 FF CA 1A 23 B5 10
14:26:03.966 设备发送:03 03 04 8D 00 21 15 2B
14:26:05.470 设备接收:03 03 42 08 FA 25 AC 00 00 00 00 00 00 00 00 00 00 00 00 00 00 00 00 00 00 09 1F 25 98 00 00 00 00 00 00 00 00 00 00 00 00 00 00 00 00 00 00 09 11 25 B0 00 00 00 00 00 00 00 00 00 00 00 00 00 00 00 00 00 00 4A B1
14:26:05.501 设备发送:03 03 06 84 00 04 05 4A
14:26:07.000 设备接收:03 03 08 00 00 84 6A 00 13 FA 12 AB 4A
14:26:07.015 设备发送:03 03 04 04 00 01 C5 19
14:26:08.506 设备接收:03 03 02 00 02 40 45
14:26:08.518 设备发送:03 03 05 84 00 0F 44 C9
14:26:10.025 设备接收:03 03 1E 1E FF 05 A4 04 7A 1E EB 05 AA 04 7C 1F 0C 05 89 04 66 1E DF 05 91 04 66 17 07 05 8E 03 46 60 45
14:26:10.041 设备发送:03 03 05 93 00 0F F4 CD
14:26:11.538 设备接收:03 03 1E 05 1E 00 00 00 00 13 79 04 31 02 17 1B B4 02 D8 02 04 1B AB 02 D9 02 04 05 22 00 00 00 00 73 60
14:26:11.569 设备发送:03 03 05 A2 00 0F A5 02
14:26:13.074 设备接收:03 03 1E 00 10 00 00 00 00 00 00 00 00 00 00 00 00 00 00 00 00 00 00 00 00 00 00 00 00 00 00 00 00 01 66
14:26:13.089 设备发送:03 03 05 B1 00 03 54 C2
14:26:14.604 设备接收:03 03 06 00 00 00 00 00 00 38 15
14:26:14.620 设备发送:03 03 04 2B 00 01 F4 D0
14:26:16.112 设备接收:03 03 02 02 E2 40 AD
14:26:16.128 设备发送:03 03 04 20 00 01 85 12
14:26:17.649 设备接收:03 03 02 00 30 C1 90
14:26:17.664 设备发送:03 03 04 05 00 01 94 D9
14:26:19.185 设备发送:03 03 04 05 00 01 94 D9
14:26:20.662 设备接收:03 03 02 00 00 C1 84
14:26:20.694 设备发送:01 03 04 84 00 04 05 10
14:26:22.193 设备接收:01 03 08 13 86 19 0A 00 2A 19 0A 03 51
14:26:22.224 设备发送:01 03 04 8D 00 21 14 C9
14:26:23.703 设备接收:01 03 42 08 FA 24 11 00 00 00 00 00 00 00 00 00 00 00 00 00 00 00 00 00 00 09 18 24 11 00 00 00 00 00 00 00 00 00 00 00 00 00 00 00 00 00 00 09 0E 24 1A 00 00 00 00 00 00 00 00 00 00 00 00 00 00 00 00 00 00 55 22
14:26:23.733 设备发送:01 03 06 84 00 04 04 A8
14:26:25.235 设备接收:01 03 08 00 00 80 3E 00 13 28 6E CD FB
14:26:25.266 设备发送:01 03 04 04 00 01 C4 FB
14:26:26.766 设备接收:01 03 02 00 02 39 85
14:26:26.782 设备发送:01 03 05 84 00 0F 45 2B
14:26:28.267 设备接收:01 03 1E 1F 0A 05 42 04 2E 1F 2D 05 4B 04 39 1F 6D 05 28 04 26 1F 97 05 3E 04 3D 16 F8 02 B2 01 96 A5 42
14:26:28.298 设备发送:01 03 05 93 00 0F F5 2F
14:26:29.816 设备接收:01 03 1E 00 00 00 01 00 00 1A 02 05 9D 03 BD 1B DB 02 BD 01 F4 1B CB 02 C0 01 F5 00 00 00 05 00 00 72 E9
14:26:29.847 设备发送:01 03 05 A2 00 0F A4 E0
14:26:31.333 设备接收:01 03 1E 00 00 00 00 00 00 00 00 00 00 00 00 00 00 00 00 00 00 00 00 00 00 00 00 00 00 00 00 00 00 D8 BA
14:26:31.348 设备发送:01 03 05 B1 00 03 55 20
14:26:32.856 设备接收:01 03 06 00 00 00 00 00 00 21 75
14:26:32.872 设备发送:01 03 04 2B 00 01 F5 32
14:26:34.375 设备接收:01 03 02 02 E1 79 6C
14:26:34.390 设备发送:01 03 04 20 00 01 84 F0
14:26:35.888 设备发送:01 03 04 20 00 01 84 F0
14:26:37.423 设备发送:01 03 04 20 00 01 84 F0
14:26:38.960 设备发送:01 03 04 05 00 01 95 3B
14:26:40.454 设备接收:01 03 02 00 00 B8 44
14:26:40.468 设备发送:02 03 04 84 00 04 05 23
14:26:41.984 设备接收:02 03 08 13 85 18 0C FF 6F 18 0E 97 56
14:26:42.001 设备发送:02 03 04 8D 00 21 14 FA
14:26:43.499 设备接收:02 03 42 08 F5 22 A9 00 00 00 00 00 00 00 00 00 00 00 00 00 00 00 00 00 00 09 17 22 D1 00 00 00 00 00 00 00 00 00 00 00 00 00 00 00 00 00 00 09 08 22 D9 00 00 00 00 00 00 00 00 00 00 00 00 00 00 00 00 00 00 57 3E
14:26:43.520 设备发送:02 03 06 84 00 04 04 9B
14:26:45.021 设备接收:02 03 08 00 00 7B 13 00 13 70 F4 C0 99
14:26:45.037 设备发送:02 03 04 04 00 01 C4 C8
14:26:46.537 设备接收:02 03 02 00 02 7D 85
14:26:46.553 设备发送:02 03 05 84 00 0F 45 18
14:26:48.069 设备接收:02 03 1E 1F 53 02 8C 02 0B 1F 6A 02 89 02 09 1F 84 02 8F 02 11 1F C6 05 10 04 1E 1F 3E 02 8A 02 07 B0 1B
14:26:48.085 设备发送:02 03 05 93 00 0F F5 1C
14:26:49.558 设备接收:02 03 1E 1F 4F 02 88 02 07 1F AA 02 94 02 17 1F 3C 05 41 04 33 1F 40 02 A2 02 1B 1F 26 02 C7 02 37 42 62
14:26:49.605 设备发送:02 03 05 A2 00 0F A4 D3
14:26:51.109 设备接收:02 03 1E 00 00 00 04 00 00 00 00 00 00 00 00 00 00 00 00 00 00 00 00 00 00 00 00 00 00 00 00 00 00 92 31
14:26:51.125 设备发送:02 03 05 B1 00 03 55 13
14:26:52.623 设备接收:02 03 06 00 00 00 00 00 00 35 85
14:26:52.643 设备发送:02 03 04 2B 00 01 F5 01
14:26:54.154 设备接收:02 03 02 02 E2 7D 6D
14:26:54.168 设备发送:02 03 04 20 00 01 84 C3
14:26:55.653 设备接收:02 03 02 00 3F BC 54
14:26:55.669 设备发送:02 03 04 05 00 01 95 08
14:26:57.185 设备发送:02 03 04 05 00 01 95 08
14:26:58.685 设备接收:02 03 02 00 00 FC 44
14:26:58.700 设备发送:03 03 04 84 00 04 04 F2
14:27:00.207 设备接收:03 03 08 13 86 1A 1B FF C9 1A 1B F5 C7
14:27:00.223 设备发送:03 03 04 8D 00 21 15 2B
14:27:01.726 设备接收:03 03 42 08 F9 25 A7 00 00 00 00 00 00 00 00 00 00 00 00 00 00 00 00 00 00 09 1D 25 90 00 00 00 00 00 00 00 00 00 00 00 00 00 00 00 00 00 00 09 0F 25 A5 00 00 00 00 00 00 00 00 00 00 00 00 00 00 00 00 00 00 95 58
14:27:01.757 设备发送:03 03 06 84 00 04 05 4A
14:27:03.257 设备接收:03 03 08 00 00 84 D4 00 13 FA 1D C3 55
14:27:03.273 设备发送:03 03 04 04 00 01 C5 19
14:27:04.787 设备发送:03 03 04 04 00 01 C5 19
14:27:06.312 设备接收:03 03 02 00 02 40 45
14:27:06.328 设备发送:03 03 05 84 00 0F 44 C9
14:27:07.818 设备接收:03 03 1E 1E D8 05 A6 04 75 1E C4 05 A9 04 75 1F 5B 05 79 04 64 1F 2F 05 83 04 66 16 E3 05 93 03 44 9B 58
14:27:07.849 设备发送:03 03 05 93 00 0F F4 CD
14:27:09.330 设备接收:03 03 1E 05 1E 00 00 00 00 13 8B 04 1A 02 0D 1B B4 02 D5 02 02 1B AC 02 D9 02 04 05 24 00 00 00 00 75 ED
14:27:09.361 设备发送:03 03 05 A2 00 0F A5 02
14:27:10.865 设备接收:03 03 1E 00 0F 00 00 00 00 00 00 00 00 00 00 00 00 00 00 00 00 00 00 00 00 00 00 00 00 00 00 00 00 41 71
14:27:10.881 设备发送:03 03 05 B1 00 03 54 C2
14:27:12.377 设备接收:03 03 06 00 00 00 00 00 00 38 15
14:27:12.393 设备发送:03 03 04 2B 00 01 F4 D0
14:27:13.905 设备接收:03 03 02 02 E2 40 AD
14:27:13.921 设备发送:03 03 04 20 00 01 85 12
14:27:15.423 设备接收:03 03 02 00 36 41 92
14:27:15.454 设备发送:03 03 04 05 00 01 94 D9
14:27:16.937 设备接收:03 03 02 00 00 C1 84
14:27:16.969 设备发送:01 03 04 84 00 04 05 10
14:27:18.471 设备接收:01 03 08 13 8A 19 0A FF 6D 19 0C CF 52
14:27:18.486 设备发送:01 03 04 8D 00 21 14 C9
14:27:19.992 设备接收:01 03 42 08 FC 23 FF 00 00 00 00 00 00 00 00 00 00 00 00 00 00 00 00 00 00 09 1A 24 06 00 00 00 00 00 00 00 00 00 00 00 00 00 00 00 00 00 00 09 12 24 0D 00 00 00 00 00 00 00 00 00 00 00 00 00 00 00 00 00 00 89 E1
14:27:20.008 设备发送:01 03 06 84 00 04 04 A8
14:27:21.511 设备接收:01 03 08 00 00 80 A2 00 13 28 78 9C 29
14:27:21.542 设备发送:01 03 04 04 00 01 C4 FB
14:27:23.032 设备接收:01 03 02 00 02 39 85
14:27:23.048 设备发送:01 03 05 84 00 0F 45 2B
14:27:24.545 设备接收:01 03 1E 1F 59 05 39 04 31 1F 2D 05 48 04 37 1F 44 05 2B 04 23 1F BD 05 31 04 38 17 21 02 AE 01 96 2A E8
14:27:24.561 设备发送:01 03 05 93 00 0F F5 2F
14:27:26.073 设备接收:01 03 1E 00 00 00 00 00 00 1A 02 05 96 03 B8 1B DE 02 BC 01 F3 1B A5 02 C0 01 F2 00 00 00 06 00 00 6F E3
14:27:26.089 设备发送:01 03 05 A2 00 0F A4 E0
14:27:27.596 设备接收:01 03 1E 00 00 00 00 00 00 00 00 00 00 00 00 00 00 00 00 00 00 00 00 00 00 00 00 00 00 00 00 00 00 D8 BA
14:27:27.628 设备发送:01 03 05 B1 00 03 55 20
14:27:29.096 设备接收:01 03 06 00 00 00 00 00 00 21 75
14:27:29.144 设备发送:01 03 04 2B 00 01 F5 32
14:27:30.628 设备接收:01 03 02 02 E1 79 6C
14:27:30.644 设备发送:01 03 04 20 00 01 84 F0
14:27:32.143 设备接收:01 03 02 00 31 79 90
14:27:32.158 设备发送:01 03 04 05 00 01 95 3B
14:27:33.666 设备接收:01 03 02 00 00 B8 44
14:27:33.681 设备发送:02 03 04 84 00 04 05 23
14:27:35.214 设备接收:02 03 08 13 8B 17 F8 FF CD 17 F8 ED E8
14:27:35.230 设备发送:02 03 04 8D 00 21 14 FA
14:27:36.701 设备接收:02 03 42 08 FB 22 97 00 00 00 00 00 00 00 00 00 00 00 00 00 00 00 00 00 00 09 14 22 A1 00 00 00 00 00 00 00 00 00 00 00 00 00 00 00 00 00 00 09 07 22 AC 00 00 00 00 00 00 00 00 00 00 00 00 00 00 00 00 00 00 F7 9B
14:27:36.732 设备发送:02 03 06 84 00 04 04 9B
14:27:38.238 设备接收:02 03 08 00 00 7B 6E 00 13 70 FD 6C 95
14:27:38.270 设备发送:02 03 04 04 00 01 C4 C8
14:27:38.47100

