
16:06:54.283 设备发送:03 03 04 84 00 04 04 F2
16:06:55.104 设备发送:03 03 04 84 00 04 04 F2
16:06:55.921 设备发送:03 03 04 84 00 04 04 F2
16:06:56.747 设备发送:03 03 04 8D 00 21 15 2B
16:06:57.563 设备发送:03 03 04 8D 00 21 15 2B
16:06:58.375 设备发送:03 03 04 8D 00 21 15 2B
16:06:59.188 设备发送:03 03 06 84 00 04 05 4A
16:07:00.014 设备发送:03 03 06 84 00 04 05 4A
16:07:00.826 设备发送:03 03 06 84 00 04 05 4A
16:07:01.653 设备发送:03 03 04 04 00 01 C5 19
16:07:02.469 设备发送:03 03 04 04 00 01 C5 19
16:07:03.278 设备发送:03 03 04 04 00 01 C5 19
16:07:04.119 设备发送:04 03 04 84 00 04 05 45
16:07:04.929 设备接收:04 03 08 13 88 04 DE FF ED 04 DF 87 E4
16:07:04.945 设备发送:04 03 04 8D 00 21 14 9C
16:07:05.728 设备接收:04 03 42 08 E2 07 37 00 00 00 00 00 00 00 00 00 00 00 00 00 00 00 00 00 00 08 DA 07 31 00 00 00 00 00 00 00 00 00 00 00 00 00 00 00 00 00 00 08 E9 07 4F 00 00 00 00 00 00 00 00 00 00 00 00 00 00 00 00 00 00 7B CF
16:07:05.774 设备发送:04 03 06 84 00 04 04 FD
16:07:06.561 设备接收:04 03 08 00 00 93 BB 00 10 A0 D6 85 38
16:07:06.592 设备发送:04 03 04 04 00 01 C4 AE
16:07:07.405 设备接收:04 03 02 00 02 F5 85
16:07:07.421 设备发送:05 03 04 84 00 04 04 94
16:07:08.204 设备接收:05 03 08 13 88 03 F9 FF FA 03 F9 85 46
16:07:08.219 设备发送:05 03 04 8D 00 21 15 4D
16:07:09.030 设备接收:05 03 42 08 DF 05 E8 00 00 00 00 00 00 00 00 00 00 00 00 00 00 00 00 00 00 08 DF 05 DE 00 00 00 00 00 00 00 00 00 00 00 00 00 00 00 00 00 00 08 E8 06 08 00 00 00 00 00 00 00 00 00 00 00 00 00 00 00 00 00 00 39 DD
16:07:09.061 设备发送:05 03 06 84 00 04 05 2C
16:07:09.876 设备接收:05 03 08 00 00 7B 53 00 0E 0A 0A E9 C4
16:07:09.891 设备发送:05 03 04 04 00 01 C5 7F
16:07:10.670 设备接收:05 03 02 00 02 C8 45
16:07:10.688 设备发送:06 03 04 84 00 04 04 A7
16:07:11.508 设备接收:06 03 08 13 88 02 7C 00 01 02 7C C7 DB
16:07:11.524 设备发送:06 03 04 8D 00 21 15 7E
16:07:12.337 设备接收:06 03 42 08 E0 03 D1 00 00 00 00 00 00 00 00 00 00 00 00 00 00 00 00 00 00 08 DC 03 D9 00 00 00 00 00 00 00 00 00 00 00 00 00 00 00 00 00 00 08 E6 04 0D 00 00 00 00 00 00 00 00 00 00 00 00 00 00 00 00 00 00 D2 89
16:07:12.353 设备发送:06 03 06 84 00 04 05 1F
16:07:13.132 设备接收:06 03 08 00 00 75 F1 00 0D FE D8 28 EA
16:07:13.147 设备发送:06 03 04 04 00 01 C5 4C
16:07:13.976 设备接收:06 03 02 00 02 8C 45
16:07:13.992 设备发送:07 03 04 84 00 04 05 76
16:07:14.803 设备发送:07 03 04 84 00 04 05 76
16:07:15.612 设备发送:07 03 04 84 00 04 05 76
16:07:16.439 设备发送:07 03 04 8D 00 21 14 AF
16:07:17.253 设备发送:07 03 04 8D 00 21 14 AF
16:07:18.095 设备发送:07 03 04 8D 00 21 14 AF
16:07:18.904 设备发送:07 03 06 84 00 04 04 CE
16:07:19.722 设备发送:07 03 06 84 00 04 04 CE
16:07:20.544 设备发送:07 03 06 84 00 04 04 CE
16:07:21.357 设备发送:07 03 04 04 00 01 C4 9D
16:07:22.183 设备发送:07 03 04 04 00 01 C4 9D
16:07:22.994 设备发送:07 03 04 04 00 01 C4 9D
16:07:23.804 设备发送:08 03 04 84 00 04 05 89
16:07:24.632 设备发送:08 03 04 84 00 04 05 89
16:07:25.458 设备发送:08 03 04 84 00 04 05 89
16:07:26.265 设备发送:08 03 04 8D 00 21 14 50
16:07:27.108 设备发送:08 03 04 8D 00 21 14 50
16:07:27.918 设备发送:08 03 04 8D 00 21 14 50
16:07:28.746 设备发送:08 03 06 84 00 04 04 31
16:07:29.559 设备发送:08 03 06 84 00 04 04 31
16:07:30.371 设备发送:08 03 06 84 00 04 04 31
16:07:31.180 设备发送:08 03 04 04 00 01 C4 62
16:07:32.021 设备发送:08 03 04 04 00 01 C4 62
16:07:32.833 设备发送:08 03 04 04 00 01 C4 62
16:07:33.662 设备发送:09 03 04 84 00 04 04 58
16:07:34.472 设备发送:09 03 04 84 00 04 04 58
16:07:35.281 设备发送:09 03 04 84 00 04 04 58
16:07:36.108 设备发送:09 03 04 8D 00 21 15 81
16:07:36.919 设备发送:09 03 04 8D 00 21 15 81
16:07:37.749 设备发送:09 03 04 8D 00 21 15 81
16:07:38.575 设备发送:09 03 06 84 00 04 05 E0
16:07:39.400 设备发送:09 03 06 84 00 04 05 E0
16:07:40.210 设备发送:09 03 06 84 00 04 05 E0
16:07:41.024 设备发送:09 03 04 04 00 01 C5 B3
16:07:41.849 设备发送:09 03 04 04 00 01 C5 B3
16:07:42.675 设备发送:09 03 04 04 00 01 C5 B3
16:07:43.487 设备发送:0A 03 04 84 00 04 04 6B
16:07:44.312 设备发送:0A 03 04 84 00 04 04 6B
16:07:45.136 设备发送:0A 03 04 84 00 04 04 6B
16:07:45.962 设备发送:0A 03 04 8D 00 21 15 B2
16:07:46.773 设备发送:0A 03 04 8D 00 21 15 B2
16:07:47.614 设备发送:0A 03 04 8D 00 21 15 B2
16:07:48.423 设备发送:0A 03 06 84 00 04 05 D3
16:07:49.235 设备发送:0A 03 06 84 00 04 05 D3
16:07:50.045 设备发送:0A 03 06 84 00 04 05 D3
16:07:50.871 设备发送:0A 03 04 04 00 01 C5 80
16:07:51.700 设备发送:0A 03 04 04 00 01 C5 80
16:07:52.530 设备发送:0A 03 04 04 00 01 C5 80
16:07:53.341 设备发送:01 03 04 84 00 04 05 10
16:07:54.153 设备发送:01 03 04 84 00 04 05 10
16:07:54.981 设备发送:01 03 04 84 00 04 05 10
16:07:55.792 设备发送:01 03 04 8D 00 21 14 C9
16:07:56.620 设备发送:01 03 04 8D 00 21 14 C9
16:07:57.430 设备发送:01 03 04 8D 00 21 14 C9
16:07:58.243 设备发送:01 03 06 84 00 04 04 A8
16:07:59.081 设备发送:01 03 06 84 00 04 04 A8
16:07:59.909 设备发送:01 03 06 84 00 04 04 A8
16:08:00.721 设备发送:01 03 04 04 00 01 C4 FB
16:08:01.534 设备发送:01 03 04 04 00 01 C4 FB
16:08:02.350 设备发送:01 03 04 04 00 01 C4 FB
16:08:03.162 设备发送:02 03 04 84 00 04 05 23
16:08:03.990 设备发送:02 03 04 84 00 04 05 23
16:08:04.815 设备发送:02 03 04 84 00 04 05 23
16:08:05.628 设备发送:02 03 04 8D 00 21 14 FA
16:08:06.454 设备发送:02 03 04 8D 00 21 14 FA
16:08:07.284 设备发送:02 03 04 8D 00 21 14 FA
16:08:08.096 设备发送:02 03 06 84 00 04 04 9B
16:08:08.909 设备发送:02 03 06 84 00 04 04 9B
16:08:09.718 设备发送:02 03 06 84 00 04 04 9B
16:08:10.546 设备发送:02 03 04 04 00 01 C4 C8
16:08:11.376 设备发送:02 03 04 04 00 01 C4 C8
16:08:12.189 设备发送:02 03 04 04 00 01 C4 C8
16:08:13.017 设备发送:03 03 04 84 00 04 04 F2
16:08:13.828 设备发送:03 03 04 84 00 04 04 F2
16:08:14.671 设备发送:03 03 04 84 00 04 04 F2
16:08:15.486 设备发送:03 03 04 8D 00 21 15 2B
16:08:16.298 设备发送:03 03 04 8D 00 21 15 2B
16:08:17.112 设备发送:03 03 04 8D 00 21 15 2B
16:08:17.925 设备发送:03 03 06 84 00 04 05 4A
16:08:18.765 设备发送:03 03 06 84 00 04 05 4A
16:08:19.576 设备发送:03 03 06 84 00 04 05 4A
16:08:20.386 设备发送:03 03 04 04 00 01 C5 19
16:08:21.243 设备发送:03 03 04 04 00 01 C5 19
16:08:22.054 设备发送:03 03 04 04 00 01 C5 19
16:08:22.837 设备发送:04 03 04 84 00 04 05 45
16:08:23.646 设备接收:04 03 08 13 87 04 B0 00 08 04 B0 F0 E2
16:08:23.678 设备发送:04 03 04 8D 00 21 14 9C
16:08:24.475 设备接收:04 03 42 08 E0 06 FE 00 00 00 00 00 00 00 00 00 00 00 00 00 00 00 00 00 00 08 DA 06 F2 00 00 00 00 00 00 00 00 00 00 00 00 00 00 00 00 00 00 08 EA 07 16 00 00 00 00 00 00 00 00 00 00 00 00 00 00 00 00 00 00 64 88
16:08:24.490 设备发送:04 03 06 84 00 04 04 FD
16:08:25.317 设备发送:04 03 06 84 00 04 04 FD
16:08:26.125 设备发送:04 03 06 84 00 04 04 FD
16:08:26.936 设备接收:04 03 08 00 00 93 D7 00 10 A0 D9 55 35
16:08:26.951 设备发送:04 03 04 04 00 01 C4 AE
16:08:27.777 设备发送:04 03 04 04 00 01 C4 AE
16:08:28.593 设备发送:04 03 04 04 00 01 C4 AE
16:08:29.407 设备发送:05 03 04 84 00 04 04 94
16:08:30.218 设备接收:05 03 08 13 87 03 DE FF F8 03 DE AF 9B
16:08:30.234 设备发送:05 03 04 8D 00 21 15 4D
16:08:31.061 设备接收:05 03 42 08 DD 05 CC 00 00 00 00 00 00 00 00 00 00 00 00 00 00 00 00 00 00 08 DE 05 BF 00 00 00 00 00 00 00 00 00 00 00 00 00 00 00 00 00 00 08 E8 05 E8 00 00 00 00 00 00 00 00 00 00 00 00 00 00 00 00 00 00 35 0C
16:08:31.077 设备发送:05 03 06 84 00 04 05 2C
16:08:31.828 设备接收:05 03 08 00 00 7B 6A 00 0E 0A 0C F5 C3
16:08:31.874 设备发送:05 03 04 04 00 01 C5 7F
16:08:32.684 设备接收:05 03 02 00 02 C8 45
16:08:32.699 设备发送:06 03 04 84 00 04 04 A7
16:08:33.478 设备接收:06 03 08 13 88 02 6F FF E7 02 70 93 FE
16:08:33.494 设备发送:06 03 04 8D 00 21 15 7E
16:08:34.322 设备接收:06 03 42 08 DD 03 C3 00 00 00 00 00 00 00 00 00 00 00 00 00 00 00 00 00 00 08 D9 03 CB 00 00 00 00 00 00 00 00 00 00 00 00 00 00 00 00 00 00 08 E3 03 F7 00 00 00 00 00 00 00 00 00 00 00 00 00 00 00 00 00 00 87 9B
16:08:34.337 设备发送:06 03 06 84 00 04 05 1F
16:08:35.134 设备接收:06 03 08 00 00 76 00 00 0D FE D9 94 CC
16:08:35.149 设备发送:06 03 04 04 00 01 C5 4C
16:08:35.953 设备接收:06 03 02 00 02 8C 45
16:08:36.027 设备发送:07 03 04 84 00 04 05 76
16:08:36.790 设备发送:07 03 04 84 00 04 05 76
16:08:37.616 设备发送:07 03 04 84 00 04 05 76
16:08:38.432 设备发送:07 03 04 8D 00 21 14 AF
16:08:39.256 设备发送:07 03 04 8D 00 21 14 AF
16:08:40.067 设备发送:07 03 04 8D 00 21 14 AF
16:08:40.877 设备发送:07 03 06 84 00 04 04 CE
16:08:41.706 设备发送:07 03 06 84 00 04 04 CE
16:08:42.517 设备发送:07 03 06 84 00 04 04 CE
16:08:43.346 设备发送:07 03 04 04 00 01 C4 9D
16:08:44.176 设备发送:07 03 04 04 00 01 C4 9D
16:08:44.987 设备发送:07 03 04 04 00 01 C4 9D
16:08:45.811 设备发送:08 03 04 84 00 04 05 89
16:08:46.621 设备发送:08 03 04 84 00 04 05 89
16:08:47.453 设备发送:08 03 04 84 00 04 05 89
16:08:48.264 设备发送:08 03 04 8D 00 21 14 50
16:08:49.107 设备发送:08 03 04 8D 00 21 14 50
16:08:49.920 设备发送:08 03 04 8D 00 21 14 50
16:08:50.727 设备发送:08 03 06 84 00 04 04 31
16:08:51.552 设备发送:08 03 06 84 00 04 04 31
16:08:52.380 设备发送:08 03 06 84 00 04 04 31
16:08:53.203 设备发送:08 03 04 04 00 01 C4 62
16:08:54.010 设备发送:08 03 04 04 00 01 C4 62
16:08:54.838 设备发送:08 03 04 04 00 01 C4 62
16:08:55.650 设备发送:09 03 04 84 00 04 04 58
16:08:56.478 设备发送:09 03 04 84 00 04 04 58
16:08:57.289 设备发送:09 03 04 84 00 04 04 58
16:08:58.118 设备发送:09 03 04 8D 00 21 15 81
16:08:58.929 设备发送:09 03 04 8D 00 21 15 81
16:08:59.770 设备发送:09 03 04 8D 00 21 15 81
16:09:00.554 设备发送:09 03 06 84 00 04 05 E0
16:09:01.398 设备发送:09 03 06 84 00 04 05 E0
16:09:02.208 设备发送:09 03 06 84 00 04 05 E0
16:09:03.018 设备发送:09 03 04 04 00 01 C5 B3
16:09:03.860 设备发送:09 03 04 04 00 01 C5 B3
16:09:04.690 设备发送:09 03 04 04 00 01 C5 B3
16:09:05.502 设备发送:0A 03 04 84 00 04 04 6B
16:09:06.313 设备发送:0A 03 04 84 00 04 04 6B
16:09:07.124 设备发送:0A 03 04 84 00 04 04 6B
16:09:07.954 设备发送:0A 03 04 8D 00 21 15 B2
16:09:08.768 设备发送:0A 03 04 8D 00 21 15 B2
16:09:09.599 设备发送:0A 03 04 8D 00 21 15 B2
16:09:10.413 设备发送:0A 03 06 84 00 04 05 D3
16:09:11.227 设备发送:0A 03 06 84 00 04 05 D3
16:09:12.037 设备发送:0A 03 06 84 00 04 05 D3
16:09:12.878 设备发送:0A 03 04 04 00 01 C5 80
16:09:13.688 设备发送:0A 03 04 04 00 01 C5 80
16:09:14.501 设备发送:0A 03 04 04 00 01 C5 80
16:09:15.342 设备发送:01 03 04 84 00 04 05 10
16:09:16.165 设备发送:01 03 04 84 00 04 05 10
16:09:16.977 设备发送:01 03 04 84 00 04 05 10
16:09:17.789 设备发送:01 03 04 8D 00 21 14 C9
16:09:18.616 设备发送:01 03 04 8D 00 21 14 C9
16:09:19.427 设备发送:01 03 04 8D 00 21 14 C9
16:09:20.254 设备发送:01 03 06 84 00 04 04 A8
16:09:21.064 设备发送:01 03 06 84 00 04 04 A8
16:09:21.910 设备发送:01 03 06 84 00 04 04 A8
16:09:22.723 设备发送:01 03 04 04 00 01 C4 FB
16:09:23.532 设备发送:01 03 04 04 00 01 C4 FB
16:09:24.358 设备发送:01 03 04 04 00 01 C4 FB
16:09:25.184 设备发送:02 03 04 84 00 04 05 23
16:09:25.994 设备发送:02 03 04 84 00 04 05 23
16:09:26.821 设备发送:02 03 04 84 00 04 05 23
16:09:27.631 设备发送:02 03 04 8D 00 21 14 FA
16:09:28.441 设备发送:02 03 04 8D 00 21 14 FA
16:09:29.286 设备发送:02 03 04 8D 00 21 14 FA
16:09:30.101 设备发送:02 03 06 84 00 04 04 9B
16:09:30.912 设备发送:02 03 06 84 00 04 04 9B
16:09:31.739 设备发送:02 03 06 84 00 04 04 9B
16:09:32.568 设备发送:02 03 04 04 00 01 C4 C8
16:09:33.380 设备发送:02 03 04 04 00 01 C4 C8
16:09:34.212 设备发送:02 03 04 04 00 01 C4 C8
16:09:35.025 设备发送:03 03 04 84 00 04 04 F2
16:09:35.838 设备发送:03 03 04 84 00 04 04 F2
16:09:36.649 设备发送:03 03 04 84 00 04 04 F2
16:09:37.460 设备发送:03 03 04 8D 00 21 15 2B
16:09:38.286 设备发送:03 03 04 8D 00 21 15 2B
16:09:39.112 设备发送:03 03 04 8D 00 21 15 2B
16:09:39.925 设备发送:03 03 06 84 00 04 05 4A
16:09:40.733 设备发送:03 03 06 84 00 04 05 4A
16:09:41.579 设备发送:03 03 06 84 00 04 05 4A
16:09:42.392 设备发送:03 03 04 04 00 01 C5 19
16:09:43.202 设备发送:03 03 04 04 00 01 C5 19
16:09:44.029 设备发送:03 03 04 04 00 01 C5 19
16:09:44.842 设备发送:04 03 04 84 00 04 05 45
16:09:45.670 设备接收:04 03 08 13 89 04 80 00 04 04 80 9F 31
16:09:45.685 设备发送:04 03 04 8D 00 21 14 9C
16:09:46.478 设备接收:04 03 42 08 DD 06 B7 00 00 00 00 00 00 00 00 00 00 00 00 00 00 00 00 00 00 08 D5 06 AB 00 00 00 00 00 00 00 00 00 00 00 00 00 00 00 00 00 00 08 E7 06 CC 00 00 00 00 00 00 00 00 00 00 00 00 00 00 00 00 00 00 27 06
16:09:46.494 设备发送:04 03 06 84 00 04 04 FD
16:09:47.311 设备接收:04 03 08 00 00 93 F1 00 10 A0 DC 9C F1
16:09:47.326 设备发送:04 03 04 04 00 01 C4 AE
16:09:48.122 设备发送:04 03 04 04 00 01 C4 AE
16:09:48.946 设备发送:05 03 04 84 00 04 04 94
16:09:48.962 设备接收:04 03 02 00 02 F5 85
16:09:49.743 设备接收:05 03 08 13 8A 03 B5 FF F8 03 B5 17 7D
16:09:49.760 设备发送:05 03 04 8D 00 21 15 4D
16:09:50.588 设备接收:05 03 42 08 DE 05 92 00 00 00 00 00 00 00 00 00 00 00 00 00 00 00 00 00 00 08 DE 05 83 00 00 00 00 00 00 00 00 00 00 00 00 00 00 00 00 00 00 08 E9 05 AE 00 00 00 00 00 00 00 00 00 00 00 00 00 00 00 00 00 00 A7 D1
16:09:50.605 设备发送:05 03 06 84 00 04 05 2C
16:09:51.411 设备接收:05 03 08 00 00 7B 7F 00 0E 0A 0E 79 C1
16:09:51.430 设备发送:05 03 04 04 00 01 C5 7F
16:09:52.226 设备接收:05 03 02 00 02 C8 45
16:09:52.257 设备发送:06 03 04 84 00 04 04 A7
16:09:53.025 设备接收:06 03 08 13 8B 02 5A 00 1A 02 5B CD 01
16:09:53.055 设备发送:06 03 04 8D 00 21 15 7E
16:09:53.897 设备接收:06 03 42 08 E2 03 9E 00 00 00 00 00 00 00 00 00 00 00 00 00 00 00 00 00 00 08 D8 03 AC 00 00 00 00 00 00 00 00 00 00 00 00 00 00 00 00 00 00 08 E6 03 D8 00 00 00 00 00 00 00 00 00 00 00 00 00 00 00 00 00 00 BE 2C
16:09:53.913 设备发送:06 03 06 84 00 04 05 1F
16:09:54.676 设备接收:06 03 08 00 00 76 0D 00 0D FE DB 38 CC
16:09:54.754 设备发送:06 03 04 04 00 01 C5 4C
16:09:55.503 设备接收:06 03 02 00 02 8C 45
16:09:55.518 设备发送:07 03 04 84 00 04 05 76
16:09:56.361 设备发送:07 03 04 84 00 04 05 76
16:09:57.172 设备发送:07 03 04 84 00 04 05 76
16:09:57.983 设备发送:07 03 04 8D 00 21 14 AF
16:09:58.797 设备发送:07 03 04 8D 00 21 14 AF
16:09:59.637 设备发送:07 03 04 8D 00 21 14 AF
16:10:00.444 设备发送:07 03 06 84 00 04 04 CE
16:10:01.256 设备发送:07 03 06 84 00 04 04 CE
16:10:02.083 设备发送:07 03 06 84 00 04 04 CE
16:10:02.896 设备发送:07 03 04 04 00 01 C4 9D
16:10:03.718 设备发送:07 03 04 04 00 01 C4 9D
16:10:04.545 设备发送:07 03 04 04 00 01 C4 9D
16:10:05.371 设备发送:08 03 04 84 00 04 05 89
16:10:06.186 设备发送:08 03 04 84 00 04 05 89
16:10:07.009 设备发送:08 03 04 84 00 04 05 89
16:10:07.834 设备发送:08 03 04 8D 00 21 14 50
16:10:08.660 设备发送:08 03 04 8D 00 21 14 50
16:10:09.475 设备发送:08 03 04 8D 00 21 14 50
16:10:10.283 设备发送:08 03 06 84 00 04 04 31
16:10:11.096 设备发送:08 03 06 84 00 04 04 31
16:10:11.922 设备发送:08 03 06 84 00 04 04 31
16:10:12.733 设备发送:08 03 04 04 00 01 C4 62
16:10:13.547 设备发送:08 03 04 04 00 01 C4 62
16:10:14.375 设备发送:08 03 04 04 00 01 C4 62
16:10:15.207 设备发送:09 03 04 84 00 04 04 58
16:10:16.035 设备发送:09 03 04 84 00 04 04 58
16:10:16.847 设备发送:09 03 04 84 00 04 04 58
16:10:17.653 设备发送:09 03 04 8D 00 21 15 81
16:10:18.479 设备发送:09 03 04 8D 00 21 15 81
16:10:19.291 设备发送:09 03 04 8D 00 21 15 81
16:10:20.102 设备发送:09 03 06 84 00 04 05 E0
16:10:20.931 设备发送:09 03 06 84 00 04 05 E0
16:10:21.757 设备发送:09 03 06 84 00 04 05 E0
16:10:22.584 设备发送:09 03 04 04 00 01 C5 B3
16:10:23.395 设备发送:09 03 04 04 00 01 C5 B3
16:10:24.222 设备发送:09 03 04 04 00 01 C5 B3
16:10:25.034 设备发送:0A 03 04 84 00 04 04 6B
16:10:25.850 设备发送:0A 03 04 84 00 04 04 6B
16:10:26.692 设备发送:0A 03 04 84 00 04 04 6B
16:10:27.503 设备发送:0A 03 04 8D 00 21 15 B2
16:10:28.314 设备发送:0A 03 04 8D 00 21 15 B2
16:10:29.140 设备发送:0A 03 04 8D 00 21 15 B2
16:10:29.969 设备发送:0A 03 06 84 00 04 05 D3
16:10:30.794 设备发送:0A 03 06 84 00 04 05 D3
16:10:31.606 设备发送:0A 03 06 84 00 04 05 D3
16:10:32.418 设备发送:0A 03 04 04 00 01 C5 80
16:10:33.229 设备发送:0A 03 04 04 00 01 C5 80
16:10:34.057 设备发送:0A 03 04 04 00 01 C5 80
16:10:34.868 设备发送:01 03 04 84 00 04 05 10
16:10:35.696 设备发送:01 03 04 84 00 04 05 10
16:10:36.507 设备发送:01 03 04 84 00 04 05 10
16:10:37.337 设备发送:01 03 04 8D 00 21 14 C9
16:10:38.149 设备发送:01 03 04 8D 00 21 14 C9
16:10:38.991 设备发送:01 03 04 8D 00 21 14 C9
16:10:39.804 设备发送:01 03 06 84 00 04 04 A8
16:10:40.628 设备发送:01 03 06 84 00 04 04 A8
16:10:41.441 设备发送:01 03 06 84 00 04 04 A8
16:10:42.268 设备发送:01 03 04 04 00 01 C4 FB
16:10:43.079 设备发送:01 03 04 04 00 01 C4 FB
16:10:43.905 设备发送:01 03 04 04 00 01 C4 FB
16:10:44.716 设备发送:02 03 04 84 00 04 05 23
16:10:45.543 设备发送:02 03 04 84 00 04 05 23
16:10:46.368 设备发送:02 03 04 84 00 04 05 23
16:10:47.183 设备发送:02 03 04 8D 00 21 14 FA
16:10:48.001 设备发送:02 03 04 8D 00 21 14 FA
16:10:48.830 设备发送:02 03 04 8D 00 21 14 FA
16:10:49.642 设备发送:02 03 06 84 00 04 04 9B
16:10:50.453 设备发送:02 03 06 84 00 04 04 9B
16:10:51.284 设备发送:02 03 06 84 00 04 04 9B
16:10:52.094 设备发送:02 03 04 04 00 01 C4 C8
16:10:52.906 设备发送:02 03 04 04 00 01 C4 C8
16:10:53.722 设备发送:02 03 04 04 00 01 C4 C8
16:10:54.561 设备发送:03 03 04 84 00 04 04 F2
16:10:55.371 设备发送:03 03 04 84 00 04 04 F2
16:10:56.182 设备发送:03 03 04 84 00 04 04 F2
16:10:57.008 设备发送:03 03 04 8D 00 21 15 2B
16:10:57.817 设备发送:03 03 04 8D 00 21 15 2B
16:10:58.659 设备发送:03 03 04 8D 00 21 15 2B
16:10:59.486 设备发送:03 03 06 84 00 04 05 4A
16:11:00.294 设备发送:03 03 06 84 00 04 05 4A
16:11:01.106 设备发送:03 03 06 84 00 04 05 4A
16:11:01.918 设备发送:03 03 04 04 00 01 C5 19
16:11:02.760 设备发送:03 03 04 04 00 01 C5 19
16:11:03.572 设备发送:03 03 04 04 00 01 C5 19
16:11:04.384 设备发送:04 03 04 84 00 04 05 45
16:11:05.187 设备接收:04 03 08 13 8A 04 39 FF F0 04 39 81 BE
16:11:05.248 设备发送:04 03 04 8D 00 21 14 9C
16:11:06.031 设备接收:04 03 42 08 E0 06 50 00 00 00 00 00 00 00 00 00 00 00 00 00 00 00 00 00 00 08 D6 06 41 00 00 00 00 00 00 00 00 00 00 00 00 00 00 00 00 00 00 08 E8 06 63 00 00 00 00 00 00 00 00 00 00 00 00 00 00 00 00 00 00 3D 2A
16:11:06.047 设备发送:04 03 06 84 00 04 04 FD
16:11:06.824 设备接收:04 03 08 00 00 94 09 00 10 A0 DE BD 53
16:11:06.874 设备发送:04 03 04 04 00 01 C4 AE
16:11:07.647 设备接收:04 03 02 00 02 F5 85
16:11:07.665 设备发送:05 03 04 84 00 04 04 94
16:11:08.475 设备接收:05 03 08 13 8A 03 7D FF FC 03 7D B6 FA
16:11:08.490 设备发送:05 03 04 8D 00 21 15 4D
16:11:09.303 设备接收:05 03 42 08 DC 05 3F 00 00 00 00 00 00 00 00 00 00 00 00 00 00 00 00 00 00 08 DC 05 3D 00 00 00 00 00 00 00 00 00 00 00 00 00 00 00 00 00 00 08 E7 05 68 00 00 00 00 00 00 00 00 00 00 00 00 00 00 00 00 00 00 3F FB
16:11:09.334 设备发送:05 03 06 84 00 04 05 2C
16:11:10.115 设备接收:05 03 08 00 00 7B 93 00 0E 0A 10 68 1E
16:11:10.146 设备发送:05 03 04 04 00 01 C5 7F
16:11:10.973 设备接收:05 03 02 00 02 C8 45
16:11:10.989 设备发送:06 03 04 84 00 04 04 A7
16:11:11.754 设备接收:06 03 08 13 89 02 43 00 1A 02 44 B2 CB
16:11:11.770 设备发送:06 03 04 8D 00 21 15 7E
16:11:12.566 设备接收:06 03 42 08 DD 03 76 00 00 00 00 00 00 00 00 00 00 00 00 00 00 00 00 00 00 08 D9 03 84 00 00 00 00 00 00 00 00 00 00 00 00 00 00 00 00 00 00 08 E6 03 B0 00 00 00 00 00 00 00 00 00 00 00 00 00 00 00 00 00 00 08 42
16:11:12.629 设备发送:06 03 06 84 00 04 05 1F
16:11:13.439 设备接收:06 03 08 00 00 76 1A 00 0D FE DC 0D 0D
16:11:13.453 设备发送:06 03 04 04 00 01 C5 4C
16:11:14.233 设备接收:06 03 02 00 02 8C 45
16:11:14.264 设备发送:07 03 04 84 00 04 05 76
16:11:15.056 设备发送:07 03 04 84 00 04 05 76
16:11:15.896 设备发送:07 03 04 84 00 04 05 76
16:11:16.710 设备发送:07 03 04 8D 00 21 14 AF
16:11:17.537 设备发送:07 03 04 8D 00 21 14 AF
16:11:18.350 设备发送:07 03 04 8D 00 21 14 AF
16:11:19.160 设备发送:07 03 06 84 00 04 04 CE
16:11:19.988 设备发送:07 03 06 84 00 04 04 CE
16:11:20.802 设备发送:07 03 06 84 00 04 04 CE
16:11:21.616 设备发送:07 03 04 04 00 01 C4 9D
16:11:22.463 设备发送:07 03 04 04 00 01 C4 9D
16:11:23.270 设备发送:07 03 04 04 00 01 C4 9D
16:11:24.097 设备发送:08 03 04 84 00 04 05 89
16:11:24.910 设备发送:08 03 04 84 00 04 05 89
16:11:25.719 设备发送:08 03 04 84 00 04 05 89
16:11:26.547 设备发送:08 03 04 8D 00 21 14 50
16:11:27.354 设备发送:08 03 04 8D 00 21 14 50
16:11:28.183 设备发送:08 03 04 8D 00 21 14 50
16:11:29.010 设备发送:08 03 06 84 00 04 04 31
16:11:29.821 设备发送:08 03 06 84 00 04 04 31
16:11:30.648 设备发送:08 03 06 84 00 04 04 31
16:11:31.461 设备发送:08 03 04 04 00 01 C4 62
16:11:32.286 设备发送:08 03 04 04 00 01 C4 62
16:11:33.095 设备发送:08 03 04 04 00 01 C4 62
16:11:33.936 设备发送:09 03 04 84 00 04 04 58
16:11:34.763 设备发送:09 03 04 84 00 04 04 58
16:11:35.572 设备发送:09 03 04 84 00 04 04 58
16:11:36.383 设备发送:09 03 04 8D 00 21 15 81
16:11:37.197 设备发送:09 03 04 8D 00 21 15 81
16:11:38.039 设备发送:09 03 04 8D 00 21 15 81
16:11:38.854 设备发送:09 03 06 84 00 04 05 E0
16:11:39.667 设备发送:09 03 06 84 00 04 05 E0
16:11:40.494 设备发送:09 03 06 84 00 04 05 E0
16:11:41.304 设备发送:09 03 04 04 00 01 C5 B3
16:11:42.147 设备发送:09 03 04 04 00 01 C5 B3
16:11:42.959 设备发送:09 03 04 04 00 01 C5 B3
16:11:43.768 设备发送:0A 03 04 84 00 04 04 6B
16:11:44.595 设备发送:0A 03 04 84 00 04 04 6B
16:11:45.420 设备发送:0A 03 04 84 00 04 04 6B
16:11:46.232 设备发送:0A 03 04 8D 00 21 15 B2
16:11:47.044 设备发送:0A 03 04 8D 00 21 15 B2
16:11:47.869 设备发送:0A 03 04 8D 00 21 15 B2
16:11:48.693 设备发送:0A 03 06 84 00 04 05 D3
16:11:49.522 设备发送:0A 03 06 84 00 04 05 D3
16:11:50.334 设备发送:0A 03 06 84 00 04 05 D3
16:11:51.145 设备发送:0A 03 04 04 00 01 C5 80
16:11:51.956 设备发送:0A 03 04 04 00 01 C5 80
16:11:52.787 设备发送:0A 03 04 04 00 01 C5 80
16:11:53.612 设备发送:01 03 04 84 00 04 05 10
16:11:54.424 设备发送:01 03 04 84 00 04 05 10
16:11:55.251 设备发送:01 03 04 84 00 04 05 10
16:11:56.076 设备发送:01 03 04 8D 00 21 14 C9
16:11:56.889 设备发送:01 03 04 8D 00 21 14 C9
16:11:57.715 设备发送:01 03 04 8D 00 21 14 C9
16:11:58.521 设备发送:01 03 06 84 00 04 04 A8
16:11:59.350 设备发送:01 03 06 84 00 04 04 A8
16:12:00.159 设备发送:01 03 06 84 00 04 04 A8
16:12:00.990 设备发送:01 03 04 04 00 01 C4 FB
16:12:01.801 设备发送:01 03 04 04 00 01 C4 FB
16:12:02.627 设备发送:01 03 04 04 00 01 C4 FB
16:12:03.452 设备发送:02 03 04 84 00 04 05 23
16:12:04.263 设备发送:02 03 04 84 00 04 05 23
16:12:05.089 设备发送:02 03 04 84 00 04 05 23
16:12:05.901 设备发送:02 03 04 8D 00 21 14 FA
16:12:06.728 设备发送:02 03 04 8D 00 21 14 FA
16:12:07.537 设备发送:02 03 04 8D 00 21 14 FA
16:12:08.349 设备发送:02 03 06 84 00 04 04 9B
16:12:09.193 设备发送:02 03 06 84 00 04 04 9B
16:12:10.008 设备发送:02 03 06 84 00 04 04 9B
16:12:10.820 设备发送:02 03 04 04 00 01 C4 C8
16:12:11.645 设备发送:02 03 04 04 00 01 C4 C8
16:12:12.459 设备发送:02 03 04 04 00 01 C4 C8
16:12:13.300 设备发送:03 03 04 84 00 04 04 F2
16:12:14.110 设备发送:03 03 04 84 00 04 04 F2
16:12:14.920 设备发送:03 03 04 84 00 04 04 F2
16:12:15.763 设备发送:03 03 04 8D 00 21 15 2B
16:12:16.579 设备发送:03 03 04 8D 00 21 15 2B
16:12:17.390 设备发送:03 03 04 8D 00 21 15 2B
16:12:18.203 设备发送:03 03 06 84 00 04 05 4A
16:12:19.027 设备发送:03 03 06 84 00 04 05 4A
16:12:19.854 设备发送:03 03 06 84 00 04 05 4A
16:12:20.664 设备发送:03 03 04 04 00 01 C5 19
16:12:21.505 设备发送:03 03 04 04 00 01 C5 19
16:12:22.316 设备发送:03 03 04 04 00 01 C5 19
16:12:23.130 设备发送:04 03 04 84 00 04 05 45
16:12:23.940 设备接收:04 03 08 13 88 04 02 00 06 04 02 D6 4E
16:12:23.956 设备发送:04 03 04 8D 00 21 14 9C
16:12:24.735 设备接收:04 03 42 08 DD 05 FA 00 00 00 00 00 00 00 00 00 00 00 00 00 00 00 00 00 00 08 DA 05 F9 00 00 00 00 00 00 00 00 00 00 00 00 00 00 00 00 00 00 08 E8 06 17 00 00 00 00 00 00 00 00 00 00 00 00 00 00 00 00 00 00 5B 2B
16:12:24.782 设备发送:04 03 06 84 00 04 04 FD
16:12:25.577 设备接收:04 03 08 00 00 94 21 00 10 A0 E1 9D 45
16:12:25.610 设备发送:04 03 04 04 00 01 C4 AE
16:12:26.409 设备接收:04 03 02 00 02 F5 85
16:12:26.425 设备发送:05 03 04 84 00 04 04 94
16:12:27.224 设备接收:05 03 08 13 89 03 52 00 00 03 52 E1 C4
16:12:27.240 设备发送:05 03 04 8D 00 21 15 4D
16:12:28.052 设备接收:05 03 42 08 DC 05 02 00 00 00 00 00 00 00 00 00 00 00 00 00 00 00 00 00 00 08 DE 04 FA 00 00 00 00 00 00 00 00 00 00 00 00 00 00 00 00 00 00 08 E8 05 27 00 00 00 00 00 00 00 00 00 00 00 00 00 00 00 00 00 00 6B A1
16:12:28.074 设备发送:05 03 06 84 00 04 05 2C
16:12:28.881 设备接收:05 03 08 00 00 7B A6 00 0E 0A 12 65 DB
16:12:28.896 设备发送:05 03 04 04 00 01 C5 7F
16:12:29.691 设备接收:05 03 02 00 02 C8 45
16:12:29.707 设备发送:06 03 04 84 00 04 04 A7
16:12:30.502 设备接收:06 03 08 13 88 02 30 00 18 02 30 06 27
16:12:30.517 设备发送:06 03 04 8D 00 21 15 7E
16:12:31.329 设备接收:06 03 42 08 DF 03 64 00 00 00 00 00 00 00 00 00 00 00 00 00 00 00 00 00 00 08 DC 03 6E 00 00 00 00 00 00 00 00 00 00 00 00 00 00 00 00 00 00 08 E8 03 98 00 00 00 00 00 00 00 00 00 00 00 00 00 00 00 00 00 00 A5 18
16:12:31.344 设备发送:06 03 06 84 00 04 05 1F
16:12:32.155 设备接收:06 03 08 00 00 76 27 00 0D FE DD A1 08
16:12:32.186 设备发送:06 03 04 04 00 01 C5 4C
16:12:32.982 设备接收:06 03 02 00 02 8C 45
16:12:33.001 设备发送:07 03 04 84 00 04 05 76
16:12:33.824 设备发送:07 03 04 84 00 04 05 76
16:12:34.642 设备发送:07 03 04 84 00 04 05 76
16:12:35.454 设备发送:07 03 04 8D 00 21 14 AF
16:12:36.263 设备发送:07 03 04 8D 00 21 14 AF
16:12:37.075 设备发送:07 03 04 8D 00 21 14 AF
16:12:37.902 设备发送:07 03 06 84 00 04 04 CE
16:12:38.712 设备发送:07 03 06 84 00 04 04 CE
16:12:39.542 设备发送:07 03 06 84 00 04 04 CE
16:12:40.353 设备发送:07 03 04 04 00 01 C4 9D
16:12:41.177 设备发送:07 03 04 04 00 01 C4 9D
16:12:42.005 设备发送:07 03 04 04 00 01 C4 9D
16:12:42.818 设备发送:08 03 04 84 00 04 05 89
16:12:43.659 设备发送:08 03 04 84 00 04 05 89
16:12:44.471 设备发送:08 03 04 84 00 04 05 89
16:12:45.286 设备发送:08 03 04 8D 00 21 14 50
16:12:46.095 设备发送:08 03 04 8D 00 21 14 50
16:12:46.932 设备发送:08 03 04 8D 00 21 14 50
16:12:47.742 设备发送:08 03 06 84 00 04 04 31
16:12:48.567 设备发送:08 03 06 84 00 04 04 31
16:12:49.379 设备发送:08 03 06 84 00 04 04 31
16:12:50.204 设备发送:08 03 04 04 00 01 C4 62
16:12:51.030 设备发送:08 03 04 04 00 01 C4 62
16:12:51.869 设备发送:08 03 04 04 00 01 C4 62
16:12:52.678 设备发送:09 03 04 84 00 04 04 58
16:12:53.490 设备发送:09 03 04 84 00 04 04 58
16:12:54.300 设备发送:09 03 04 84 00 04 04 58
16:12:55.128 设备发送:09 03 04 8D 00 21 15 81
16:12:55.940 设备发送:09 03 04 8D 00 21 15 81
16:12:56.767 设备发送:09 03 04 8D 00 21 15 81
16:12:57.578 设备发送:09 03 06 84 00 04 05 E0
16:12:58.406 设备发送:09 03 06 84 00 04 05 E0
16:12:59.215 设备发送:09 03 06 84 00 04 05 E0
16:13:00.044 设备发送:09 03 04 04 00 01 C5 B3
16:13:00.871 设备发送:09 03 04 04 00 01 C5 B3
16:13:01.693 设备发送:09 03 04 04 00 01 C5 B3
16:13:02.505 设备发送:0A 03 04 84 00 04 04 6B
16:13:03.331 设备发送:0A 03 04 84 00 04 04 6B
16:13:04.143 设备发送:0A 03 04 84 00 04 04 6B
16:13:04.953 设备发送:0A 03 04 8D 00 21 15 B2
16:13:05.799 设备发送:0A 03 04 8D 00 21 15 B2
16:13:06.608 设备发送:0A 03 04 8D 00 21 15 B2
16:13:07.420 设备发送:0A 03 06 84 00 04 05 D3
16:13:08.250 设备发送:0A 03 06 84 00 04 05 D3
16:13:09.062 设备发送:0A 03 06 84 00 04 05 D3
16:13:09.891 设备发送:0A 03 04 04 00 01 C5 80
16:13:10.703 设备发送:0A 03 04 04 00 01 C5 80
16:13:11.531 设备发送:0A 03 04 04 00 01 C5 80
16:13:12.359 设备发送:01 03 04 84 00 04 05 10
16:13:13.163 设备发送:01 03 04 84 00 04 05 10
16:13:13.990 设备发送:01 03 04 84 00 04 05 10
16:13:14.800 设备发送:01 03 04 8D 00 21 14 C9
16:13:15.643 设备发送:01 03 04 8D 00 21 14 C9
16:13:16.456 设备发送:01 03 04 8D 00 21 14 C9
16:13:17.269 设备发送:01 03 06 84 00 04 04 A8
16:13:18.079 设备发送:01 03 06 84 00 04 04 A8
16:13:18.919 设备发送:01 03 06 84 00 04 04 A8
16:13:19.732 设备发送:01 03 04 04 00 01 C4 FB
16:13:20.544 设备发送:01 03 04 04 00 01 C4 FB
16:13:21.355 设备发送:01 03 04 04 00 01 C4 FB
16:13:22.184 设备发送:02 03 04 84 00 04 05 23
16:13:23.013 设备发送:02 03 04 84 00 04 05 23
16:13:23.826 设备发送:02 03 04 84 00 04 05 23
16:13:24.641 设备发送:02 03 04 8D 00 21 14 FA
16:13:25.482 设备发送:02 03 04 8D 00 21 14 FA
16:13:26.293 设备发送:02 03 04 8D 00 21 14 FA
16:13:27.106 设备发送:02 03 06 84 00 04 04 9B
16:13:27.916 设备发送:02 03 06 84 00 04 04 9B
16:13:28.761 设备发送:02 03 06 84 00 04 04 9B
16:13:29.575 设备发送:02 03 04 04 00 01 C4 C8
16:13:30.399 设备发送:02 03 04 04 00 01 C4 C8
16:13:31.226 设备发送:02 03 04 04 00 01 C4 C8
16:13:32.039 设备发送:03 03 04 84 00 04 04 F2
16:13:32.852 设备发送:03 03 04 84 00 04 04 F2
16:13:33.663 设备发送:03 03 04 84 00 04 04 F2
16:13:34.489 设备发送:03 03 04 8D 00 21 15 2B
16:13:35.300 设备发送:03 03 04 8D 00 21 15 2B
16:13:36.126 设备发送:03 03 04 8D 00 21 15 2B
16:13:36.938 设备发送:03 03 06 84 00 04 05 4A
16:13:37.766 设备发送:03 03 06 84 00 04 05 4A
16:13:38.596 设备发送:03 03 06 84 00 04 05 4A
16:13:39.407 设备发送:03 03 04 04 00 01 C5 19
16:13:40.235 设备发送:03 03 04 04 00 01 C5 19
16:13:41.044 设备发送:03 03 04 04 00 01 C5 19
16:13:41.869 设备发送:04 03 04 84 00 04 05 45
16:13:42.679 设备接收:04 03 08 13 85 03 B0 00 00 03 B0 51 67
16:13:42.695 设备发送:04 03 04 8D 00 21 14 9C
16:13:43.506 设备发送:04 03 04 8D 00 21 14 9C
16:13:44.331 设备发送:04 03 04 8D 00 21 14 9C
16:13:45.140 设备接收:04 03 42 08 DF 05 85 00 00 00 00 00 00 00 00 00 00 00 00 00 00 00 00 00 00 08 D8 05 75 00 00 00 00 00 00 00 00 00 00 00 00 00 00 00 00 00 00 08 E7 05 97 00 00 00 00 00 00 00 00 00 00 00 00 00 00 00 00 00 00 EB 5A
16:13:45.156 设备发送:04 03 06 84 00 04 04 FD
16:13:45.966 设备接收:04 03 08 00 00 94 36 00 10 A0 E3 68 87
16:13:45.982 设备发送:04 03 04 04 00 01 C4 AE
16:13:46.765 设备接收:04 03 02 00 02 F5 85
16:13:46.812 设备发送:05 03 04 84 00 04 04 94
16:13:47.603 设备接收:05 03 08 13 85 03 01 00 00 03 01 E9 F5
16:13:47.618 设备发送:05 03 04 8D 00 21 15 4D
16:13:48.414 设备接收:05 03 42 08 DC 04 92 00 00 00 00 00 00 00 00 00 00 00 00 00 00 00 00 00 00 08 DC 04 84 00 00 00 00 00 00 00 00 00 00 00 00 00 00 00 00 00 00 08 E5 04 B2 00 00 00 00 00 00 00 00 00 00 00 00 00 00 00 00 00 00 49 7C
16:13:48.430 设备发送:05 03 06 84 00 04 05 2C
16:13:49.226 设备接收:05 03 08 00 00 7B B8 00 0E 0A 14 4D DB
16:13:49.273 设备发送:05 03 04 04 00 01 C5 7F
16:13:50.052 设备接收:05 03 02 00 02 C8 45
16:13:50.083 设备发送:06 03 04 84 00 04 04 A7
16:13:50.881 设备接收:06 03 08 13 85 02 18 00 1A 02 18 1B 3F
16:13:50.897 设备发送:06 03 04 8D 00 21 15 7E
16:13:51.693 设备接收:06 03 42 08 D9 03 50 00 00 00 00 00 00 00 00 00 00 00 00 00 00 00 00 00 00 08 DA 03 50 00 00 00 00 00 00 00 00 00 00 00 00 00 00 00 00 00 00 08 E5 03 74 00 00 00 00 00 00 00 00 00 00 00 00 00 00 00 00 00 00 59 7D
16:13:51.709 设备发送:06 03 06 84 00 04 05 1F
16:13:52.520 设备接收:06 03 08 00 00 76 33 00 0D FE DE D1 0A
16:13:52.535 设备发送:06 03 04 04 00 01 C5 4C
16:13:53.345 设备接收:06 03 02 00 02 8C 45
16:13:53.360 设备发送:07 03 04 84 00 04 05 76
16:13:54.161 设备接收:07 03 08 13 85 01 59 FF D8 01 66 32 C7
16:13:54.176 设备发送:07 03 04 8D 00 21 14 AF
16:13:54.972 设备接收:07 03 42 08 E8 02 09 00 00 00 00 00 00 00 00 00 00 00 00 00 00 00 00 00 00 08 E0 02 16 00 00 00 00 00 00 00 00 00 00 00 00 00 00 00 00 00 00 08 E4 02 08 00 00 00 00 00 00 00 00 00 00 00 00 00 00 00 00 00 00 6C E1
16:13:54.988 设备发送:07 03 06 84 00 04 04 CE
16:13:55.803 设备接收:07 03 08 00 00 41 2A 00 06 EE D5 F1 B6
16:13:55.818 设备发送:07 03 04 04 00 01 C4 9D
16:13:56.610 设备接收:07 03 02 00 02 B1 85
16:13:56.641 设备发送:08 03 04 84 00 04 05 89
16:13:57.454 设备接收:08 03 08 13 85 03 1A 00 00 03 1A F6 50
16:13:57.470 设备发送:08 03 04 8D 00 21 14 50
16:13:58.254 设备接收:08 03 42 08 D6 04 B9 00 00 00 00 00 00 00 00 00 00 00 00 00 00 00 00 00 00 08 D6 04 AC 00 00 00 00 00 00 00 00 00 00 00 00 00 00 00 00 00 00 08 E2 04 FD 00 00 00 00 00 00 00 00 00 00 00 00 00 00 00 00 00 00 49 22
16:13:58.330 设备发送:08 03 06 84 00 04 04 31
16:13:59.060 设备接收:08 03 08 00 00 89 AD 00 0F 1C 3D F0 D8
16:13:59.093 设备发送:08 03 04 04 00 01 C4 62
16:13:59.889 设备接收:08 03 02 00 02 E5 84
16:13:59.900 设备发送:09 03 04 84 00 04 04 58
16:14:00.710 设备接收:09 03 08 13 85 02 F2 00 01 02 F2 C3 74
16:14:00.742 设备发送:09 03 04 8D 00 21 15 81
16:14:01.552 设备接收:09 03 42 08 DC 04 69 00 00 00 00 00 00 00 00 00 00 00 00 00 00 00 00 00 00 08 D8 04 83 00 00 00 00 00 00 00 00 00 00 00 00 00 00 00 00 00 00 08 E4 04 99 00 00 00 00 00 00 00 00 00 00 00 00 00 00 00 00 00 00 11 C9
16:14:01.575 设备发送:09 03 06 84 00 04 05 E0
16:14:02.352 设备接收:09 03 08 00 00 7C 93 00 0D C0 21 31 8D
16:14:02.368 设备发送:09 03 04 04 00 01 C5 B3
16:14:03.182 设备接收:09 03 02 00 02 D8 44
16:14:03.200 设备发送:0A 03 04 84 00 04 04 6B
16:14:04.019 设备发送:0A 03 04 84 00 04 04 6B
16:14:04.847 设备发送:0A 03 04 84 00 04 04 6B
16:14:05.675 设备发送:0A 03 04 8D 00 21 15 B2
16:14:06.487 设备发送:0A 03 04 8D 00 21 15 B2
16:14:07.299 设备发送:0A 03 04 8D 00 21 15 B2
16:14:08.109 设备发送:0A 03 06 84 00 04 05 D3
16:14:08.933 设备发送:0A 03 06 84 00 04 05 D3
16:14:09.777 设备发送:0A 03 06 84 00 04 05 D3
16:14:10.587 设备发送:0A 03 04 04 00 01 C5 80
16:14:11.413 设备发送:0A 03 04 04 00 01 C5 80
16:14:12.227 设备发送:0A 03 04 04 00 01 C5 80
16:14:13.054 设备发送:01 03 04 84 00 04 05 10
16:14:13.866 设备发送:01 03 04 84 00 04 05 10
16:14:14.679 设备发送:01 03 04 84 00 04 05 10
16:14:15.488 设备发送:01 03 04 8D 00 21 14 C9
16:14:16.332 设备发送:01 03 04 8D 00 21 14 C9
16:14:17.141 设备发送:01 03 04 8D 00 21 14 C9
16:14:17.972 设备发送:01 03 06 84 00 04 04 A8
16:14:18.781 设备发送:01 03 06 84 00 04 04 A8
16:14:19.593 设备发送:01 03 06 84 00 04 04 A8
16:14:20.422 设备发送:01 03 04 04 00 01 C4 FB
16:14:21.264 设备发送:01 03 04 04 00 01 C4 FB
16:14:22.059 设备发送:01 03 04 04 00 01 C4 FB
16:14:22.885 设备发送:02 03 04 84 00 04 05 23
16:14:23.712 设备发送:02 03 04 84 00 04 05 23
16:14:24.539 设备发送:02 03 04 84 00 04 05 23
16:14:25.351 设备发送:02 03 04 8D 00 21 14 FA
16:14:26.163 设备发送:02 03 04 8D 00 21 14 FA
16:14:26.971 设备发送:02 03 04 8D 00 21 14 FA
16:14:27.817 设备发送:02 03 06 84 00 04 04 9B
16:14:28.629 设备发送:02 03 06 84 00 04 04 9B
16:14:29.458 设备发送:02 03 06 84 00 04 04 9B
16:14:30.269 设备发送:02 03 04 04 00 01 C4 C8
16:14:31.081 设备发送:02 03 04 04 00 01 C4 C8
16:14:31.910 设备发送:02 03 04 04 00 01 C4 C8
16:14:32.721 设备发送:03 03 04 84 00 04 04 F2
16:14:33.549 设备发送:03 03 04 84 00 04 04 F2
16:14:34.361 设备发送:03 03 04 84 00 04 04 F2
16:14:35.167 设备发送:03 03 04 8D 00 21 15 2B
16:14:36.023 设备发送:03 03 04 8D 00 21 15 2B
16:14:36.832 设备发送:03 03 04 8D 00 21 15 2B
16:14:37.647 设备发送:03 03 06 84 00 04 05 4A
16:14:38.460 设备发送:03 03 06 84 00 04 05 4A
16:14:39.274 设备发送:03 03 06 84 00 04 05 4A
16:14:40.114 设备发送:03 03 04 04 00 01 C5 19
16:14:40.929 设备发送:03 03 04 04 00 01 C5 19
16:14:41.740 设备发送:03 03 04 04 00 01 C5 19
16:14:42.568 设备发送:04 03 04 84 00 04 05 45
16:14:43.350 设备接收:04 03 08 13 88 03 7B FF E2 03 7B F9 C2
16:14:43.384 设备发送:04 03 04 8D 00 21 14 9C
16:14:44.194 设备发送:04 03 04 8D 00 21 14 9C
16:14:45.006 设备接收:04 03 42 08 D7 05 3C 00 00 00 00 00 00 00 00 00 00 00 00 00 00 00 00 00 00 08 D0 05 33 00 00 00 00 00 00 00 00 00 00 00 00 00 00 00 00 00 00 08 DF 05 55 00 00 00 00 00 00 00 00 00 00 00 00 00 00 00 00 00 00 C6 66
16:14:45.022 设备发送:04 03 06 84 00 04 04 FD
16:14:45.865 设备发送:04 03 06 84 00 04 04 FD
16:14:46.645 设备接收:04 03 08 00 00 94 45 00 10 A0 E4 2C 8E
16:14:46.661 设备发送:04 03 04 04 00 01 C4 AE
16:14:47.451 设备接收:04 03 02 00 02 F5 85
16:14:47.498 设备发送:05 03 04 84 00 04 04 94
16:14:48.292 设备接收:05 03 08 13 88 02 BE 00 18 02 BF 20 D8
16:14:48.323 设备发送:05 03 04 8D 00 21 15 4D
16:14:49.104 设备接收:05 03 42 08 D6 04 30 00 00 00 00 00 00 00 00 00 00 00 00 00 00 00 00 00 00 08 D5 04 2B 00 00 00 00 00 00 00 00 00 00 00 00 00 00 00 00 00 00 08 E0 04 5A 00 00 00 00 00 00 00 00 00 00 00 00 00 00 00 00 00 00 FE A0
16:14:49.151 设备发送:05 03 06 84 00 04 05 2C
16:14:49.917 设备接收:05 03 08 00 00 7B C5 00 0E 0A 15 E0 11
16:14:49.964 设备发送:05 03 04 04 00 01 C5 7F
16:14:50.759 设备接收:05 03 02 00 02 C8 45
16:14:50.775 设备发送:06 03 04 84 00 04 04 A7
16:14:51.570 设备接收:06 03 08 13 88 02 06 FF FC 02 06 3E 16
16:14:51.586 设备发送:06 03 04 8D 00 21 15 7E
16:14:52.398 设备接收:06 03 42 08 DC 03 1F 00 00 00 00 00 00 00 00 00 00 00 00 00 00 00 00 00 00 08 D7 03 2C 00 00 00 00 00 00 00 00 00 00 00 00 00 00 00 00 00 00 08 E3 03 59 00 00 00 00 00 00 00 00 00 00 00 00 00 00 00 00 00 00 02 D7
16:14:52.413 设备发送:06 03 06 84 00 04 05 1F
16:14:53.210 设备接收:06 03 08 00 00 76 3C 00 0D FE DF 44 CB
16:14:53.226 设备发送:06 03 04 04 00 01 C5 4C
16:14:54.054 设备接收:06 03 02 00 02 8C 45
16:14:54.070 设备发送:07 03 04 84 00 04 05 76
16:14:54.852 设备接收:07 03 08 13 88 01 4D FF D8 01 5A DE 15
16:14:54.867 设备发送:07 03 04 8D 00 21 14 AF
16:14:55.680 设备接收:07 03 42 08 E6 01 F5 00 00 00 00 00 00 00 00 00 00 00 00 00 00 00 00 00 00 08 DD 02 00 00 00 00 00 00 00 00 00 00 00 00 00 00 00 00 00 00 00 08 E5 01 F4 00 00 00 00 00 00 00 00 00 00 00 00 00 00 00 00 00 00 12 FA
16:14:55.695 设备发送:07 03 06 84 00 04 04 CE
16:14:56.493 设备接收:07 03 08 00 00 41 30 00 06 EE D6 E8 75
16:14:56.509 设备发送:07 03 04 04 00 01 C4 9D
16:14:57.340 设备接收:07 03 02 00 02 B1 85
16:14:57.356 设备发送:08 03 04 84 00 04 05 89
16:14:58.152 设备接收:08 03 08 13 89 02 ED FF E5 02 EE EF A0
16:14:58.167 设备发送:08 03 04 8D 00 21 14 50
16:14:58.965 设备接收:08 03 42 08 D9 04 79 00 00 00 00 00 00 00 00 00 00 00 00 00 00 00 00 00 00 08 D4 04 67 00 00 00 00 00 00 00 00 00 00 00 00 00 00 00 00 00 00 08 E0 04 BB 00 00 00 00 00 00 00 00 00 00 00 00 00 00 00 00 00 00 65 A8
16:14:58.981 设备发送:08 03 06 84 00 04 04 31
16:14:59.789 设备接收:08 03 08 00 00 89 BA 00 0F 1C 3E C4 DA
16:14:59.805 设备发送:08 03 04 04 00 01 C4 62
16:15:00.632 设备发送:08 03 04 04 00 01 C4 62
16:15:01.442 设备发送:08 03 04 04 00 01 C4 62
16:15:02.272 设备发送:09 03 04 84 00 04 04 58
16:15:03.084 设备发送:09 03 04 84 00 04 04 58
16:15:03.896 设备发送:09 03 04 84 00 04 04 58
16:15:04.724 设备发送:09 03 04 8D 00 21 15 81
16:15:05.540 设备发送:09 03 04 8D 00 21 15 81
16:15:06.351 设备发送:09 03 04 8D 00 21 15 81
16:15:07.191 设备发送:09 03 06 84 00 04 05 E0
16:15:08.018 设备发送:09 03 06 84 00 04 05 E0
16:15:08.828 设备发送:09 03 06 84 00 04 05 E0
16:15:09.655 设备发送:09 03 04 04 00 01 C5 B3
16:15:10.469 设备发送:09 03 04 04 00 01 C5 B3
16:15:11.282 设备发送:09 03 04 04 00 01 C5 B3
16:15:12.109 设备发送:0A 03 04 84 00 04 04 6B
16:15:12.920 设备发送:0A 03 04 84 00 04 04 6B
16:15:13.762 设备发送:0A 03 04 84 00 04 04 6B
16:15:14.571 设备发送:0A 03 04 8D 00 21 15 B2
16:15:15.382 设备发送:0A 03 04 8D 00 21 15 B2
16:15:16.195 设备发送:0A 03 04 8D 00 21 15 B2
16:15:17.020 设备发送:0A 03 06 84 00 04 05 D3
16:15:17.828 设备发送:0A 03 06 84 00 04 05 D3
16:15:18.670 设备发送:0A 03 06 84 00 04 05 D3
16:15:19.472 设备发送:0A 03 04 04 00 01 C5 80
16:15:20.288 设备发送:0A 03 04 04 00 01 C5 80
16:15:21.126 设备发送:0A 03 04 04 00 01 C5 80
16:15:21.950 设备发送:01 03 04 84 00 04 05 10
16:15:22.797 设备发送:01 03 04 84 00 04 05 10
16:15:23.588 设备发送:01 03 04 84 00 04 05 10
16:15:24.402 设备发送:01 03 04 8D 00 21 14 C9
16:15:25.231 设备发送:01 03 04 8D 00 21 14 C9
16:15:26.042 设备发送:01 03 04 8D 00 21 14 C9
16:15:26.883 设备发送:01 03 06 84 00 04 04 A8
16:15:27.697 设备发送:01 03 06 84 00 04 04 A8
16:15:28.513 设备发送:01 03 06 84 00 04 04 A8
16:15:29.336 设备发送:01 03 04 04 00 01 C4 FB
16:15:30.144 设备发送:01 03 04 04 00 01 C4 FB
16:15:30.974 设备发送:01 03 04 04 00 01 C4 FB
16:15:31.786 设备发送:02 03 04 84 00 04 05 23
16:15:32.601 设备发送:02 03 04 84 00 04 05 23
16:15:33.417 设备发送:02 03 04 84 00 04 05 23
16:15:34.231 设备发送:02 03 04 8D 00 21 14 FA
16:15:35.056 设备发送:02 03 04 8D 00 21 14 FA
16:15:35.903 设备发送:02 03 04 8D 00 21 14 FA
16:15:36.713 设备发送:02 03 06 84 00 04 04 9B
16:15:37.523 设备发送:02 03 06 84 00 04 04 9B
16:15:38.365 设备发送:02 03 06 84 00 04 04 9B
16:15:39.179 设备发送:02 03 04 04 00 01 C4 C8
16:15:39.991 设备发送:02 03 04 04 00 01 C4 C8
16:15:40.802 设备发送:02 03 04 04 00 01 C4 C8
16:15:41.627 设备发送:03 03 04 84 00 04 04 F2
16:15:42.440 设备发送:03 03 04 84 00 04 04 F2
16:15:43.268 设备发送:03 03 04 84 00 04 04 F2
16:15:44.081 设备发送:03 03 04 8D 00 21 15 2B
16:15:44.891 设备发送:03 03 04 8D 00 21 15 2B
16:15:45.736 设备发送:03 03 04 8D 00 21 15 2B
16:15:46.563 设备发送:03 03 06 84 00 04 05 4A
16:15:47.372 设备发送:03 03 06 84 00 04 05 4A
16:15:48.184 设备发送:03 03 06 84 00 04 05 4A
16:15:48.998 设备发送:03 03 04 04 00 01 C5 19
16:15:49.827 设备发送:03 03 04 04 00 01 C5 19
16:15:50.639 设备发送:03 03 04 04 00 01 C5 19
16:15:51.448 设备发送:04 03 04 84 00 04 05 45
16:15:52.260 设备接收:04 03 08 13 8A 03 41 00 11 03 41 42 33
16:15:52.276 设备发送:04 03 04 8D 00 21 14 9C
16:15:53.094 设备接收:04 03 42 08 DE 04 E8 00 00 00 00 00 00 00 00 00 00 00 00 00 00 00 00 00 00 08 D4 04 D9 00 00 00 00 00 00 00 00 00 00 00 00 00 00 00 00 00 00 08 E2 04 F9 00 00 00 00 00 00 00 00 00 00 00 00 00 00 00 00 00 00 E6 B0
16:15:53.109 设备发送:04 03 06 84 00 04 04 FD
16:15:53.906 设备接收:04 03 08 00 00 94 55 00 10 A0 E6 6C 8C
16:15:53.921 设备发送:04 03 04 04 00 01 C4 AE
16:15:54.733 设备发送:04 03 04 04 00 01 C4 AE
16:15:55.543 设备接收:04 03 02 00 02 F5 85
16:15:55.558 设备发送:05 03 04 84 00 04 04 94
16:15:56.374 设备接收:05 03 08 13 8B 02 8A FF EA 02 8B 32 2C
16:15:56.390 设备发送:05 03 04 8D 00 21 15 4D
16:15:57.201 设备接收:05 03 42 08 D8 03 EA 00 00 00 00 00 00 00 00 00 00 00 00 00 00 00 00 00 00 08 D7 03 EC 00 00 00 00 00 00 00 00 00 00 00 00 00 00 00 00 00 00 08 E2 04 25 00 00 00 00 00 00 00 00 00 00 00 00 00 00 00 00 00 00 75 E7
16:15:57.216 设备发送:05 03 06 84 00 04 05 2C
16:15:57.993 设备接收:05 03 08 00 00 7B D1 00 0E 0A 16 90 13
16:15:58.025 设备发送:05 03 04 04 00 01 C5 7F
16:15:58.833 设备接收:05 03 02 00 02 C8 45
16:15:58.848 设备发送:06 03 04 84 00 04 04 A7
16:15:59.643 设备接收:06 03 08 13 8C 01 F6 FF FC 01 F6 3B 44
16:15:59.658 设备发送:06 03 04 8D 00 21 15 7E
16:16:00.472 设备接收:06 03 42 08 DE 03 18 00 00 00 00 00 00 00 00 00 00 00 00 00 00 00 00 00 00 08 D6 03 23 00 00 00 00 00 00 00 00 00 00 00 00 00 00 00 00 00 00 08 E1 03 49 00 00 00 00 00 00 00 00 00 00 00 00 00 00 00 00 00 00 A4 0D
16:16:00.487 设备发送:06 03 06 84 00 04 05 1F
16:16:01.284 设备接收:06 03 08 00 00 76 45 00 0D FE E0 99 11
16:16:01.305 设备发送:06 03 04 04 00 01 C5 4C
16:16:02.110 设备接收:06 03 02 00 02 8C 45
16:16:02.134 设备发送:07 03 04 84 00 04 05 76
16:16:02.936 设备发送:07 03 04 84 00 04 05 76
16:16:03.745 设备接收:07 03 08 13 8B 01 42 FF D9 01 50 68 D3 FF FF FF FF FF FF FF FF FF FF FF FF FF FF FF FF FF FF FF FF FF FF FF FF FF FF FF FF FF FF FF FF FF FF FF FF FF FF FF FF FF FF FF FF FF FF FF FF FF FF FF FF FF FF FF FF FF FF FF FF FF FF FF FF FF FF FF FF FF FF FF FF FF FF FF FF FF FF FF FF FF FF FF FF FF FF FF FF FF FF FF FF FF FF FF FF FF FF FF FF FF FF FF FF FF FF FF FF FF FF FF FF FF FF FF FF FF FF FF FF FF FF FF FF FF FF FF FF FF FF FF FF FF FF FF FF FF
16:16:03.761 设备发送:07 03 04 8D 00 21 14 AF
16:16:04.572 设备接收:FF FF FF FF FF FF FF FF FF FF FF FF FF FF FF FF FF FF FF FF FF FF FF FF FF FF FF FF FF FF FF FF FF FF FF FF FF FF FF FF FF FF FF FF FF FF FF FF FF FF FF FF FF FF FF FF FF FF FF FF FF FF FF FF FF FF FF FF FF FF FF FF FF FF FF FF FF FF FF FF FF FF FF FF FF FF FF FF FF FF FF FF FF FF FF FF FF FF FF FF FF FF FF FF FF FF FF FF FF FF FF FF FF FF FF FF FF FF FF FF FF FF FF FF FF FF FF FF FF FF FF FF FF FF FF FF FF FF FF FF FF FF FF FF FF FF FF FF FF FF
16:16:04.588 设备发送:07 03 06 84 00 04 04 CE
16:16:05.379 设备接收:FF FF FF FF FF FF FF FF FF FF FF FF FF FF FF FF FF FF FF FF FF FF FF FF FF FF FF FF FF FF FF FF FF FF FF FF FF FF FF FF FF FF FF FF FF FF FF FF FF FF FF FF FF FF FF FF FF FF FF FF FF FF FF FF FF FF FF FF FF FF FF FF FF FF FF FF FF FF FF FF FF FF FF FF FF FF FF FF FF FF FF FF FF FF FF FF FF FF FF FF FF FF FF FF FF FF FF FF FF FF FF FF FF FF FF FF FF FF FF FF FF FF FF FF FF FF FF FF FF FF FF FF FF FF FF FF FF FF FF FF FF FF FF FF FF FF FF FF FF FF
16:16:05.398 设备发送:07 03 04 04 00 01 C4 9D
16:16:06.224 设备接收:FF FF FF FF FF FF FF FF FF FF FF FF FF FF FF FF FF FF FF FF FF FF FF FF FF FF FF FF FF FF FF FF FF FF FF FF FF FF FF FF FF FF FF FF FF FF FF FF FF FF FF FF FF FF FF FF FF FF FF FF FF FF FF FF FF FF FF FF FF FF FF FF FF FF FF FF FF FF FF FF FF FF FF FF FF FF FF FF FF FF FF FF FF FF FF FF FF FF FF FF FF FF FF FF FF FF FF FF FF FF FF FF FF FF FF FF FF FF FF FF FF FF FF FF FF FF FF FF FF FF FF FF FF FF FF FF FF FF FF FF FF FF FF FF FF FF FF FF FF FF
16:16:06.239 设备发送:08 03 04 84 00 04 05 89
16:16:07.026 设备接收:FF FF FF FF FF FF FF FF FF FF FF FF FF FF FF FF FF FF FF FF FF FF FF FF FF FF FF FF FF FF FF FF FF FF FF FF FF FF FF FF FF FF FF FF FF FF FF FF FF FF FF FF FF FF FF FF FF FF FF FF FF FF FF FF FF FF FF FF FF FF FF FF FF FF FF FF FF FF FF FF FF FF FF FF FF FF FF FF FF FF FF FF FF FF FF FF FF FF FF FF FF FF FF FF FF FF FF FF FF FF FF FF FF FF FF FF FF FF FF FF FF FF FF FF FF FF FF FF FF FF FF FF FF FF FF FF FF FF FF FF FF FF FF FF FF FF FF FF FF FF
16:16:07.042 设备发送:08 03 04 8D 00 21 14 50
16:16:07.839 设备接收:FF FF FF FF FF FF FF FF FF FF FF FF FF FF FF FF FF FF FF FF FF FF FF FF FF FF FF FF FF FF FF FF FF FF FF FF FF FF FF FF FF FF FF FF FF FF FF FF FF FF FF FF FF FF FF FF FF FF FF FF FF FF FF FF FF FF FF FF FF FF FF FF FF FF FF FF FF FF FF FF FF FF FF FF FF FF FF FF FF FF FF FF FF FF FF FF FF FF FF FF FF FF FF FF FF FF FF FF FF FF FF FF FF FF FF FF FF FF FF FF FF FF FF FF FF FF FF FF FF FF FF FF FF FF FF FF FF FF FF FF FF FF FF FF FF FF FF FF FF FF
16:16:07.871 设备发送:08 03 06 84 00 04 04 31
16:16:08.657 设备接收:FF FF FF FF FF FF FF FF FF FF FF FF FF FF FF FF FF FF FF FF FF FF FF FF FF FF FF FF FF FF FF FF FF FF FF FF FF FF FF FF FF FF FF FF FF FF FF FF FF FF FF FF FF FF FF FF FF FF FF FF FF FF FF FF FF FF FF FF FF FF FF FF FF FF FF FF FF FF FF FF FF FF FF FF FF FF FF FF FF FF FF FF FF FF FF FF FF FF FF FF FF FF FF FF FF FF FF FF FF FF FF FF FF FF FF FF FF FF FF FF FF FF FF FF FF FF FF FF FF FF FF FF FF FF FF FF FF FF FF FF FF FF FF FF FF FF FF FF FF FF
16:16:08.680 设备发送:08 03 04 04 00 01 C4 62
16:16:09.490 设备接收:FF FF FF FF FF FF FF FF FF FF FF FF FF FF FF FF FF FF FF FF FF FF FF FF FF FF FF FF FF FF FF FF FF FF FF FF FF FF FF FF FF FF FF FF FF FF FF FF FF FF FF FF FF FF FF FF FF FF FF FF FF FF FF FF FF FF FF FF FF FF FF FF FF FF FF FF FF FF FF FF FF FF FF FF FF FF FF FF FF FF FF FF FF FF FF FF FF FF FF FF FF FF FF FF FF FF FF FF FF FF FF FF FF FF FF FF FF FF FF FF FF FF FF FF FF FF FF FF FF FF FF FF FF FF FF FF FF FF FF FF FF FF FF FF FF FF FF FF FF FF
16:16:09.506 设备发送:09 03 04 84 00 04 04 58
16:16:10.302 设备接收:FF FF FF FF FF FF FF FF FF FF FF FF FF FF FF FF FF FF FF FF FF FF FF FF FF FF FF FF FF FF FF FF FF FF FF FF FF FF FF FF FF FF FF FF FF FF FF FF FF FF FF FF FF FF FF FF FF FF FF FF FF FF FF FF FF FF FF FF FF FF FF FF FF FF FF FF FF FF FF FF FF FF FF FF FF FF FF FF FF FF FF FF FF FF FF FF FF FF FF FF FF FF FF FF FF FF FF FF FF FF FF FF FF FF FF FF FF FF FF FF FF FF FF FF FF FF FF FF FF FF FF FF FF FF FF FF FF FF FF FF FF FF FF FF FF FF FF FF FF FF
16:16:10.333 设备发送:09 03 04 8D 00 21 15 81
16:16:11.128 设备接收:FF FF FF FF FF FF FF FF FF FF FF FF FF FF FF FF FF FF FF FF FF FF FF FF FF FF FF FF FF FF FF FF FF FF FF FF FF FF FF FF FF FF FF FF FF FF FF FF FF FF FF FF FF FF FF FF FF FF FF FF FF FF FF FF FF FF FF FF FF FF FF FF FF FF FF FF FF FF FF FF FF FF FF FF FF FF FF FF FF FF FF FF FF FF FF FF FF FF FF FF FF FF FF FF FF FF FF FF FF FF FF FF FF FF FF FF FF FF FF FF FF FF FF FF FF FF FF FF FF FF FF FF FF FF FF FF FF FF FF FF FF FF FF FF FF FF FF FF FF FF
16:16:11.146 设备发送:09 03 06 84 00 04 05 E0
16:16:11.942 设备接收:FF FF FF FF FF FF FF FF FF FF FF FF FF FF FF FF FF FF FF FF FF FF FF FF FF FF FF FF FF FF FF FF FF FF FF FF FF FF FF FF FF FF FF FF FF FF FF FF FF FF FF FF FF FF FF FF FF FF FF FF FF FF FF FF FF FF FF FF FF FF FF FF FF FF FF FF FF FF FF FF FF FF FF FF FF FF FF FF FF FF FF FF FF FF FF FF FF FF FF FF FF FF FF FF FF FF FF FF FF FF FF FF FF FF FF FF FF FF FF FF FF FF FF FF FF FF FF FF FF FF FF FF FF FF FF FF FF FF FF FF FF FF FF FF FF FF FF FF FF FF
16:16:11.958 设备发送:09 03 04 04 00 01 C5 B3
16:16:12.756 设备接收:FF FF FF FF FF FF FF FF FF FF FF FF FF FF FF FF FF FF FF FF FF FF FF FF FF FF FF FF FF FF FF FF FF FF FF FF FF FF FF FF FF FF FF FF FF FF FF FF FF FF FF FF FF FF FF FF FF FF FF FF FF FF FF FF FF FF FF FF FF FF FF FF FF FF FF FF FF FF FF FF FF FF FF FF FF FF FF FF FF FF FF FF FF FF FF FF FF FF FF FF FF FF FF FF FF FF FF FF FF FF FF FF FF FF FF FF FF FF FF FF FF FF FF FF FF FF FF FF FF FF FF FF FF FF FF FF FF FF FF FF FF FF FF FF FF FF FF FF FF FF
16:16:12.771 设备发送:0A 03 04 84 00 04 04 6B
16:16:13.598 设备接收:FF FF FF FF FF FF FF FF FF FF FF FF FF FF FF FF FF FF FF FF FF FF FF FF FF FF FF FF FF FF FF FF FF FF FF FF FF FF FF FF FF FF FF FF FF FF FF FF FF FF FF FF FF FF FF FF FF FF FF FF FF FF FF FF FF FF FF FF FF FF FF FF FF FF FF FF FF FF FF FF FF FF FF FF FF FF FF FF FF FF FF FF FF FF FF FF FF FF FF FF FF FF FF FF FF FF FF FF FF FF FF FF FF FF FF FF FF FF FF FF FF FF FF FF FF FF FF FF FF FF FF FF FF FF FF FF FF FF FF FF FF FF FF FF FF FF FF FF FF FF
16:16:13.614 设备发送:0A 03 04 8D 00 21 15 B2
16:16:14.397 设备接收:FF FF FF FF FF FF FF FF FF FF FF FF FF FF FF FF FF FF FF FF FF FF FF FF FF FF FF FF FF FF FF FF FF FF FF FF FF FF FF FF FF FF FF FF FF FF FF FF FF FF FF FF FF FF FF FF FF FF FF FF FF FF FF FF FF FF FF FF FF FF FF FF FF FF FF FF FF FF FF FF FF FF FF FF FF FF FF FF FF FF FF FF FF FF FF FF FF FF FF FF FF FF FF FF FF FF FF FF FF FF FF FF FF FF FF FF FF FF FF FF FF FF FF FF FF FF FF FF FF FF FF FF FF FF FF FF FF FF FF FF FF FF FF FF FF FF FF FF FF FF
16:16:14.411 设备发送:0A 03 06 84 00 04 05 D3
16:16:15.207 设备接收:FF FF FF FF FF FF FF FF FF FF FF FF FF FF FF FF FF FF FF FF FF FF FF FF FF FF FF FF FF FF FF FF FF FF FF FF FF FF FF FF FF FF FF FF FF FF FF FF FF FF FF FF FF FF FF FF FF FF FF FF FF FF FF FF FF FF FF FF FF FF FF FF FF FF FF FF FF FF FF FF FF FF FF FF FF FF FF FF FF FF FF FF FF FF FF FF FF FF FF FF FF FF FF FF FF FF FF FF FF FF FF FF FF FF FF FF FF FF FF FF FF FF FF FF FF FF FF FF FF FF FF FF FF FF FF FF FF FF FF FF FF FF FF FF FF FF FF FF FF FF
16:16:15.237 设备发送:0A 03 04 04 00 01 C5 80
16:16:16.050 设备接收:FF FF FF FF FF FF FF FF FF FF FF FF FF FF FF FF FF FF FF FF FF FF FF FF FF FF FF FF FF FF FF FF FF FF FF FF FF FF FF FF FF FF FF FF FF FF FF FF FF FF FF FF FF FF FF FF FF FF FF FF FF FF FF FF FF FF FF FF FF FF FF FF FF FF FF FF FF FF FF FF FF FF FF FF FF FF FF FF FF FF FF FF FF FF FF FF FF FF FF FF FF FF FF FF FF FF FF FF FF FF FF FF FF FF FF FF FF FF FF FF FF FF FF FF FF FF FF FF FF FF FF FF FF FF FF FF FF FF FF FF FF FF FF FF FF FF FF FF FF FF
16:16:16.080 设备发送:01 03 04 84 00 04 05 10
16:16:16.865 设备接收:FF FF FF FF FF FF FF FF FF FF FF FF FF FF FF FF FF FF FF FF FF FF FF FF FF FF FF FF FF FF FF FF FF FF FF FF FF FF FF FF FF FF FF FF FF FF FF FF FF FF FF FF FF FF FF FF FF FF FF FF FF FF FF FF FF FF FF FF FF FF FF FF FF FF FF FF FF FF FF FF FF FF FF FF FF FF FF FF FF FF FF FF FF FF FF FF FF FF FF FF FF FF FF FF FF FF FF FF FF FF FF FF FF FF FF FF FF FF FF FF FF FF FF FF FF FF FF FF FF FF FF FF FF FF FF FF FF FF FF FF FF FF FF FF FF FF FF FF FF FF
16:16:16.883 设备发送:01 03 04 8D 00 21 14 C9
16:16:17.707 设备接收:FF FF FF FF FF FF FF FF FF FF FF FF FF FF FF FF FF FF FF FF FF FF FF FF FF FF FF FF FF FF FF FF FF FF FF FF FF FF FF FF FF FF FF FF FF FF FF FF FF FF FF FF FF FF FF FF FF FF FF FF FF FF FF FF FF FF FF FF FF FF FF FF FF FF FF FF FF FF FF FF FF FF FF FF FF FF FF FF FF FF FF FF FF FF FF FF FF FF FF FF FF FF FF FF FF FF FF FF FF FF FF FF FF FF FF FF FF FF FF FF FF FF FF FF FF FF FF FF FF FF FF FF FF FF FF FF FF FF FF FF FF FF FF FF FF FF FF FF FF FF
16:16:17.728 设备发送:01 03 06 84 00 04 04 A8
16:16:18.497 设备接收:FF FF FF FF FF FF FF FF FF FF FF FF FF FF FF FF FF FF FF FF FF FF FF FF FF FF FF FF FF FF FF FF FF FF FF FF FF FF FF FF FF FF FF FF FF FF FF FF FF FF FF FF FF FF FF FF FF FF FF FF FF FF FF FF FF FF FF FF FF FF FF FF FF FF FF FF FF FF FF FF FF FF FF FF FF FF FF FF FF FF FF FF FF FF FF FF FF FF FF FF FF FF FF FF FF FF FF FF FF FF FF FF FF FF FF FF FF FF FF FF FF FF FF FF FF FF FF FF FF FF FF FF FF FF FF FF FF FF FF FF FF FF FF FF FF FF FF FF FF FF
16:16:18.511 设备发送:01 03 04 04 00 01 C4 FB
16:16:19.307 设备接收:FF FF FF FF FF FF FF FF FF FF FF FF FF FF FF FF FF FF FF FF FF FF FF FF FF FF FF FF FF FF FF FF FF FF FF FF FF FF FF FF FF FF FF FF FF FF FF FF FF FF FF FF FF FF FF FF FF FF FF FF FF FF FF FF FF FF FF FF FF FF FF FF FF FF FF FF FF FF FF FF FF FF FF FF FF FF FF FF FF FF FF FF FF FF FF FF FF FF FF FF FF FF FF FF FF FF FF FF FF FF FF FF FF FF FF FF FF FF FF FF FF FF FF FF FF FF FF FF FF FF FF FF FF FF FF FF FF FF FF FF FF FF FF FF FF FF FF FF FF FF
16:16:19.355 设备发送:02 03 04 84 00 04 05 23
16:16:20.135 设备接收:FF FF FF FF FF FF FF FF FF FF FF FF FF FF FF FF FF FF FF FF FF FF FF FF FF FF FF FF FF FF FF FF FF FF FF FF FF FF FF FF FF FF FF FF FF FF FF FF FF FF FF FF FF FF FF FF FF FF FF FF FF FF FF FF FF FF FF FF FF FF FF FF FF FF FF FF FF FF FF FF FF FF FF FF FF FF FF FF FF FF FF FF FF FF FF FF FF FF FF FF FF FF FF FF FF FF FF FF FF FF FF FF FF FF FF FF FF FF FF FF FF FF FF FF FF FF FF FF FF FF FF FF FF FF FF FF FF FF FF FF FF FF FF FF FF FF FF FF FF FF
16:16:20.150 设备发送:02 03 04 8D 00 21 14 FA
16:16:20.971 设备接收:FF FF FF FF FF FF FF FF FF FF FF FF FF FF FF FF FF FF FF FF FF FF FF FF FF FF FF FF FF FF FF FF FF FF FF FF FF FF FF FF FF FF FF FF FF FF FF FF FF FF FF FF FF FF FF FF FF FF FF FF FF FF FF FF FF FF FF FF FF FF FF FF FF FF FF FF FF FF FF FF FF FF FF FF FF FF FF FF FF FF FF FF FF FF FF FF FF FF FF FF FF FF FF FF FF FF FF FF FF FF FF FF FF FF FF FF FF FF FF FF FF FF FF FF FF FF FF FF FF FF FF FF FF FF FF FF FF FF FF FF FF FF FF FF FF FF FF FF FF FF
16:16:20.974 设备发送:02 03 06 84 00 04 04 9B
16:16:21.788 设备接收:FF FF FF FF FF FF FF FF FF FF FF FF FF FF FF FF FF FF FF FF FF FF FF FF FF FF FF FF FF FF FF FF FF FF FF FF FF FF FF FF FF FF FF FF FF FF FF FF FF FF FF FF FF FF FF FF FF FF FF FF FF FF FF FF FF FF FF FF FF FF FF FF FF FF FF FF FF FF FF FF FF FF FF FF FF FF FF FF FF FF FF FF FF FF FF FF FF FF FF FF FF FF FF FF FF FF FF FF FF FF FF FF FF FF FF FF FF FF FF FF FF FF FF FF FF FF FF FF FF FF FF FF FF FF FF FF FF FF FF FF FF FF FF FF FF FF FF FF FF FF
16:16:21.809 设备发送:02 03 04 04 00 01 C4 C8
16:16:22.601 设备接收:FF FF FF FF FF FF FF FF FF FF FF FF FF FF FF FF FF FF FF FF FF FF FF FF FF FF FF FF FF FF FF FF FF FF FF FF FF FF FF FF FF FF FF FF FF FF FF FF FF FF FF FF FF FF FF FF FF FF FF FF FF FF FF FF FF FF FF FF FF FF FF FF FF FF FF FF FF FF FF FF FF FF FF FF FF FF FF FF FF FF FF FF FF FF FF FF FF FF FF FF FF FF FF FF FF FF FF FF FF FF FF FF FF FF FF FF FF FF FF FF FF FF FF FF FF FF FF FF FF FF FF FF FF FF FF FF FF FF FF FF FF FF FF FF FF FF FF FF FF FF
16:16:22.616 设备发送:03 03 04 84 00 04 04 F2
16:16:23.426 设备接收:FF FF FF FF FF FF FF FF FF FF FF FF FF FF FF FF FF FF FF FF FF FF FF FF FF FF FF FF FF FF FF FF FF FF FF FF FF FF FF FF FF FF FF FF FF FF FF FF FF FF FF FF FF FF FF FF FF FF FF FF FF FF FF FF FF FF FF FF FF FF FF FF FF FF FF FF FF FF FF FF FF FF FF FF FF FF FF FF FF FF FF FF FF FF FF FF FF FF FF FF FF FF FF FF FF FF FF FF FF FF FF FF FF FF FF FF FF FF FF FF FF FF FF FF FF FF FF FF FF FF FF FF FF FF FF FF FF FF FF FF FF FF FF FF FF FF FF FF FF FF
16:16:23.430 设备发送:03 03 04 8D 00 21 15 2B
16:16:24.246 设备接收:FF FF FF FF FF FF FF FF FF FF FF FF FF FF FF FF FF FF FF FF FF FF FF FF FF FF FF FF FF FF FF FF FF FF FF FF FF FF FF FF FF FF FF FF FF FF FF FF FF FF FF FF FF FF FF FF FF FF FF FF FF FF FF FF FF FF FF FF FF FF FF FF FF FF FF FF FF FF FF FF FF FF FF FF FF FF FF FF FF FF FF FF FF FF FF FF FF FF FF FF FF FF FF FF FF FF FF FF FF FF FF FF FF FF FF FF FF FF FF FF FF FF FF FF FF FF FF FF FF FF FF FF FF FF FF FF FF FF FF FF FF FF FF FF FF FF FF FF FF FF
16:16:24.261 设备发送:03 03 06 84 00 04 05 4A
16:16:25.059 设备接收:FF FF FF FF FF FF FF FF FF FF FF FF FF FF FF FF FF FF FF FF FF FF FF FF FF FF FF FF FF FF FF FF FF FF FF FF FF FF FF FF FF FF FF FF FF FF FF FF FF FF FF FF FF FF FF FF FF FF FF FF FF FF FF FF FF FF FF FF FF FF FF FF FF FF FF FF FF FF FF FF FF FF FF FF FF FF FF FF FF FF FF FF FF FF FF FF FF FF FF FF FF FF FF FF FF FF FF FF FF FF FF FF FF FF FF FF FF FF FF FF FF FF FF FF FF FF FF FF FF FF FF FF FF FF FF FF FF FF FF FF FF FF FF FF FF FF FF FF FF FF
16:16:25.074 设备发送:03 03 04 04 00 01 C5 19
16:16:25.885 设备接收:FF FF FF FF FF FF FF FF FF FF FF FF FF FF FF FF FF FF FF FF FF FF FF FF FF FF FF FF FF FF FF FF FF FF FF FF FF FF FF FF FF FF FF FF FF FF FF FF FF FF FF FF FF FF FF FF FF FF FF FF FF FF FF FF FF FF FF FF FF FF FF FF FF FF FF FF FF FF FF FF FF FF FF FF FF FF FF FF FF FF FF FF FF FF FF FF FF FF FF FF FF FF FF FF FF FF FF FF FF FF FF FF FF FF FF FF FF FF FF FF FF FF FF FF FF FF FF FF FF FF FF FF FF FF FF FF FF FF FF FF FF FF FF FF FF FF FF FF FF FF
16:16:25.901 设备发送:04 03 04 84 00 04 05 45
16:16:26.697 设备接收:FF FF FF FF FF FF FF FF FF FF FF FF FF FF FF FF FF FF FF FF FF FF FF FF FF FF FF FF FF FF FF FF FF FF FF FF FF FF FF FF FF FF FF FF FF FF FF FF FF FF FF FF FF FF FF FF FF FF FF FF FF FF FF FF FF FF FF FF FF FF FF FF FF FF FF FF FF FF FF FF FF FF FF FF FF FF FF FF FF FF FF FF FF FF FF FF FF FF FF FF FF FF FF FF FF FF FF FF FF FF FF FF FF FF FF FF FF FF FF FF FF FF FF FF FF FF FF FF FF FF FF FF FF FF FF FF FF FF FF FF FF FF FF FF FF FF FF FF FF FF
16:16:26.713 设备发送:04 03 04 8D 00 21 14 9C
16:16:27.541 设备接收:FF FF FF FF FF FF FF FF FF FF FF FF FF FF FF FF FF FF FF FF FF FF FF FF FF FF FF FF FF FF FF FF FF FF FF FF FF FF FF FF FF FF FF FF FF FF FF FF FF FF FF FF FF FF FF FF FF FF FF FF FF FF FF FF FF FF FF FF FF FF FF FF FF FF FF FF FF FF FF FF FF FF FF FF FF FF FF FF FF FF FF FF FF FF FF FF FF FF FF FF FF FF FF FF FF FF FF FF FF FF FF FF FF FF FF FF FF FF FF FF FF FF FF FF FF FF FF FF FF FF FF FF FF FF FF FF FF FF FF FF FF FF FF FF FF FF FF FF FF FF
16:16:27.556 设备发送:04 03 06 84 00 04 04 FD
16:16:28.353 设备接收:FF FF FF FF FF FF FF FF FF FF FF FF FF FF FF FF FF FF FF FF FF FF FF FF FF FF FF FF FF FF FF FF FF FF FF FF FF FF FF FF FF FF FF FF FF FF FF FF FF FF FF FF FF FF FF FF FF FF FF FF FF FF FF FF FF FF FF FF FF FF FF FF FF FF FF FF FF FF FF FF FF FF FF FF FF FF FF FF FF FF FF FF FF FF FF FF FF FF FF FF FF FF FF FF FF FF FF FF FF FF FF FF FF FF FF FF FF FF FF FF FF FF FF FF FF FF FF FF FF FF FF FF FF FF FF FF FF FF FF FF FF FF FF FF FF FF FF FF FF FF
16:16:28.369 设备发送:04 03 04 04 00 01 C4 AE
16:16:29.152 设备接收:FF FF FF FF FF FF FF FF FF FF FF FF FF FF FF FF FF FF FF FF FF FF FF FF FF FF FF FF FF FF FF FF FF FF FF FF FF FF FF FF FF FF FF FF FF FF FF FF FF FF FF FF FF FF FF FF FF FF FF FF FF FF FF FF FF FF FF FF FF FF FF FF FF FF FF FF FF FF FF FF FF FF FF FF FF FF FF FF FF FF FF FF FF FF FF FF FF FF FF FF FF FF FF FF FF FF FF FF FF FF FF FF FF FF FF FF FF FF FF FF FF FF FF FF FF FF FF FF FF FF FF FF FF FF FF FF FF FF FF FF FF FF FF FF FF FF FF FF FF FF
16:16:29.200 设备发送:05 03 04 84 00 04 04 94
16:16:29.995 设备接收:FF FF FF FF FF FF FF FF FF FF FF FF FF FF FF FF FF FF FF FF FF FF FF FF FF FF FF FF FF FF FF FF FF FF FF FF FF FF FF FF FF FF FF FF FF FF FF FF FF FF FF FF FF FF FF FF FF FF FF FF FF FF FF FF FF FF FF FF FF FF FF FF FF FF FF FF FF FF FF FF FF FF FF FF FF FF FF FF FF FF FF FF FF FF FF FF FF FF FF FF FF FF FF FF FF FF FF FF FF FF FF FF FF FF FF FF FF FF FF FF FF FF FF FF FF FF FF FF FF FF FF FF FF FF FF FF FF FF FF FF FF FF FF FF FF FF FF FF FF FF
16:16:30.010 设备发送:05 03 04 8D 00 21 15 4D
16:16:30.804 设备接收:FF FF FF FF FF FF FF FF FF FF FF FF FF FF FF FF FF FF FF FF FF FF FF FF FF FF FF FF FF FF FF FF FF FF FF FF FF FF FF FF FF FF FF FF FF FF FF FF FF FF FF FF FF FF FF FF FF FF FF FF FF FF FF FF FF FF FF FF FF FF FF FF FF FF FF FF FF FF FF FF FF FF FF FF FF FF FF FF FF FF FF FF FF FF FF FF FF FF FF FF FF FF FF FF FF FF FF FF FF FF FF FF FF FF FF FF FF FF FF FF FF FF FF FF FF FF FF FF FF FF FF FF FF FF FF FF FF FF FF FF FF FF FF FF FF FF FF FF FF FF
16:16:30.835 设备发送:05 03 06 84 00 04 05 2C
16:16:31.618 设备接收:FF FF FF FF FF FF FF FF FF FF FF FF FF FF FF FF FF FF FF FF FF FF FF FF FF FF FF FF FF FF FF FF FF FF FF FF FF FF FF FF FF FF FF FF FF FF FF FF FF FF FF FF FF FF FF FF FF FF FF FF FF FF FF FF FF FF FF FF FF FF FF FF FF FF FF FF FF FF FF FF FF FF FF FF FF FF FF FF FF FF FF FF FF FF FF FF FF FF FF FF FF FF FF FF FF FF FF FF FF FF FF FF FF FF FF FF FF FF FF FF FF FF FF FF FF FF FF FF FF FF FF FF FF FF FF FF FF FF FF FF FF FF FF FF FF FF FF FF FF FF
16:16:31.633 设备发送:05 03 04 04 00 01 C5 7F
16:16:32.444 设备接收:FF FF FF FF FF FF FF FF FF FF FF FF FF FF FF FF FF FF FF FF FF FF FF FF FF FF FF FF FF FF FF FF FF FF FF FF FF FF FF FF FF FF FF FF FF FF FF FF FF FF FF FF FF FF FF FF FF FF FF FF FF FF FF FF FF FF FF FF FF FF FF FF FF FF FF FF FF FF FF FF FF FF FF FF FF FF FF FF FF FF FF FF FF FF FF FF FF FF FF FF FF FF FF FF FF FF FF FF FF FF FF FF FF FF FF FF FF FF FF FF FF FF FF FF FF FF FF FF FF FF FF FF FF FF FF FF FF FF FF FF FF FF FF FF FF FF FF FF FF FF
16:16:32.459 设备发送:06 03 04 84 00 04 04 A7
16:16:33.258 设备接收:FF FF FF FF FF FF FF FF FF FF FF FF FF FF FF FF FF FF FF FF FF FF FF FF FF FF FF FF FF FF FF FF FF FF FF FF FF FF FF FF FF FF FF FF FF FF FF FF FF FF FF FF FF FF FF FF FF FF FF FF FF FF FF FF FF FF FF FF FF FF FF FF FF FF FF FF FF FF FF FF FF FF FF FF FF FF FF FF FF FF FF FF FF FF FF FF FF FF FF FF FF FF FF FF FF FF FF FF FF FF FF FF FF FF FF FF FF FF FF FF FF FF FF FF FF FF FF FF FF FF FF FF FF FF FF FF FF FF FF FF FF FF FF FF FF FF FF FF FF FF
16:16:33.290 设备发送:06 03 04 8D 00 21 15 7E
16:16:34.073 设备接收:FF FF FF FF FF FF FF FF FF FF FF FF FF FF FF FF FF FF FF FF FF FF FF FF FF FF FF FF FF FF FF FF FF FF FF FF FF FF FF FF FF FF FF FF FF FF FF FF FF FF FF FF FF FF FF FF FF FF FF FF FF FF FF FF FF FF FF FF FF FF FF FF FF FF FF FF FF FF FF FF FF FF FF FF FF FF FF FF FF FF FF FF FF FF FF FF FF FF FF FF FF FF FF FF FF FF FF FF FF FF FF FF FF FF FF FF FF FF FF FF FF FF FF FF FF FF FF FF FF FF FF FF FF FF FF FF FF FF FF FF FF FF FF FF FF FF FF FF FF FF
16:16:34.088 设备发送:06 03 06 84 00 04 05 1F
16:16:34.883 设备接收:FF FF FF FF FF FF FF FF FF FF FF FF FF FF FF FF FF FF FF FF FF FF FF FF FF FF FF FF FF FF FF FF FF FF FF FF FF FF FF FF FF FF FF FF FF FF FF FF FF FF FF FF FF FF FF FF FF FF FF FF FF FF FF FF FF FF FF FF FF FF FF FF FF FF FF FF FF FF FF FF FF FF FF FF FF FF FF FF FF FF FF FF FF FF FF FF FF FF FF FF FF FF FF FF FF FF FF FF FF FF FF FF FF FF FF FF FF FF FF FF FF FF FF FF FF FF FF FF FF FF FF FF FF FF FF FF FF FF FF FF FF FF FF FF FF FF FF FF FF FF
16:16:34.944 设备发送:06 03 04 04 00 01 C5 4C
16:16:35.713 设备接收:FF FF FF FF FF FF FF FF FF FF FF FF FF FF FF FF FF FF FF FF FF FF FF FF FF FF FF FF FF FF FF FF FF FF FF FF FF FF FF FF FF FF FF FF FF FF FF FF FF FF FF FF FF FF FF FF FF FF FF FF FF FF FF FF FF FF FF FF FF FF FF FF FF FF FF FF FF FF FF FF FF FF FF FF FF FF FF FF FF FF FF FF FF FF FF FF FF FF FF FF FF FF FF FF FF FF FF FF FF FF FF FF FF FF FF FF FF FF FF FF FF FF FF FF FF FF FF FF FF FF FF FF FF FF FF FF FF FF FF FF FF FF FF FF FF FF FF FF FF FF
16:16:35.759 设备发送:07 03 04 84 00 04 05 76
16:16:36.546 设备接收:FF FF FF FF FF FF FF FF FF FF FF FF FF FF FF FF FF FF FF FF FF FF FF FF FF FF FF FF FF FF FF FF FF FF FF FF FF FF FF FF FF FF FF FF FF FF FF FF FF FF FF FF FF FF FF FF FF FF FF FF FF FF FF FF FF FF FF FF FF FF FF FF FF FF FF FF FF FF FF FF FF FF FF FF FF FF FF FF FF FF FF FF FF FF FF FF FF FF FF FF FF FF FF FF FF FF FF FF FF FF FF FF FF FF FF FF FF FF FF FF FF FF FF FF FF FF FF FF FF FF FF FF FF FF FF FF FF FF FF FF FF FF FF FF FF FF FF FF FF FF
16:16:36.569 设备发送:07 03 04 8D 00 21 14 AF
16:16:37.352 设备接收:FF FF FF FF FF FF FF FF FF FF FF FF FF FF FF FF FF FF FF FF FF FF FF FF FF FF FF FF FF FF FF FF FF FF FF FF FF FF FF FF FF FF FF FF FF FF FF FF FF FF FF FF FF FF FF FF FF FF FF FF FF FF FF FF FF FF FF FF FF FF FF FF FF FF FF FF FF FF FF FF FF FF FF FF FF FF FF FF FF FF FF FF FF FF FF FF FF FF FF FF FF FF FF FF FF FF FF FF FF FF FF FF FF FF FF FF FF FF FF FF FF FF FF FF FF FF FF FF FF FF FF FF FF FF FF FF FF FF FF FF FF FF FF FF FF FF FF FF FF FF
16:16:37.367 设备发送:07 03 06 84 00 04 04 CE
16:16:38.178 设备接收:FF FF FF FF FF FF FF FF FF FF FF FF FF FF FF FF FF FF FF FF FF FF FF FF FF FF FF FF FF FF FF FF FF FF FF FF FF FF FF FF FF FF FF FF FF FF FF FF FF FF FF FF FF FF FF FF FF FF FF FF FF FF FF FF FF FF FF FF FF FF FF FF FF FF FF FF FF FF FF FF FF FF FF FF FF FF FF FF FF FF FF FF FF FF FF FF FF FF FF FF FF FF FF FF FF FF FF FF FF FF FF FF FF FF FF FF FF FF FF FF FF FF FF FF FF FF FF FF FF FF FF FF FF FF FF FF FF FF FF FF FF FF FF FF FF FF FF FF FF FF
16:16:38.199 设备发送:07 03 04 04 00 01 C4 9D
16:16:38.992 设备接收:FF FF FF FF FF FF FF FF FF FF FF FF FF FF FF FF FF FF FF FF FF FF FF FF FF FF FF FF FF FF FF FF FF FF FF FF FF FF FF FF FF FF FF FF FF FF FF FF FF FF FF FF FF FF FF FF FF FF FF FF FF FF FF FF FF FF FF FF FF FF FF FF FF FF FF FF FF FF FF FF FF FF FF FF FF FF FF FF FF FF FF FF FF FF FF FF FF FF FF FF FF FF FF FF FF FF FF FF FF FF FF FF FF FF FF FF FF FF FF FF FF FF FF FF FF FF FF FF FF FF FF FF FF FF FF FF FF FF FF FF FF FF FF FF FF FF FF FF FF FF
16:16:39.036 设备发送:08 03 04 84 00 04 05 89
16:16:39.818 设备接收:FF FF FF FF FF FF FF FF FF FF FF FF FF FF FF FF FF FF FF FF FF FF FF FF FF FF FF FF FF FF FF FF FF FF FF FF FF FF FF FF FF FF FF FF FF FF FF FF FF FF FF FF FF FF FF FF FF FF FF FF FF FF FF FF FF FF FF FF FF FF FF FF FF FF FF FF FF FF FF FF FF FF FF FF FF FF FF FF FF FF FF FF FF FF FF FF FF FF FF FF FF FF FF FF FF FF FF FF FF FF FF FF FF FF FF FF FF FF FF FF FF FF FF FF FF FF FF FF FF FF FF FF FF FF FF FF FF FF FF FF FF FF FF FF FF FF FF FF FF FF
16:16:39.834 设备发送:08 03 04 8D 00 21 14 50
16:16:40.628 设备接收:FF FF FF FF FF FF FF FF FF FF FF FF FF FF FF FF FF FF FF FF FF FF FF FF FF FF FF FF FF FF FF FF FF FF FF FF FF FF FF FF FF FF FF FF FF FF FF FF FF FF FF FF FF FF FF FF FF FF FF FF FF FF FF FF FF FF FF FF FF FF FF FF FF FF FF FF FF FF FF FF FF FF FF FF FF FF FF FF FF FF FF FF FF FF FF FF FF FF FF FF FF FF FF FF FF FF FF FF FF FF FF FF FF FF FF FF FF FF FF FF FF FF FF FF FF FF FF FF FF FF FF FF FF FF FF FF FF FF FF FF FF FF FF FF FF FF FF FF FF FF
16:16:40.659 设备发送:08 03 06 84 00 04 04 31
16:16:41.457 设备接收:FF FF FF FF FF FF FF FF FF FF FF FF FF FF FF FF FF FF FF FF FF FF FF FF FF FF FF FF FF FF FF FF FF FF FF FF FF FF FF FF FF FF FF FF FF FF FF FF FF FF FF FF FF FF FF FF FF FF FF FF FF FF FF FF FF FF FF FF FF FF FF FF FF FF FF FF FF FF FF FF FF FF FF FF FF FF FF FF FF FF FF FF FF FF FF FF FF FF FF FF FF FF FF FF FF FF FF FF FF FF FF FF FF FF FF FF FF FF FF FF FF FF FF FF FF FF FF FF FF FF FF FF FF FF FF FF FF FF FF FF FF FF FF FF FF FF FF FF FF FF
16:16:41.472 设备发送:08 03 04 04 00 01 C4 62
16:16:42.288 设备接收:FF FF FF FF FF FF FF FF FF FF FF FF FF FF FF FF FF FF FF FF FF FF FF FF FF FF FF FF FF FF FF FF FF FF FF FF FF FF FF FF FF FF FF FF FF FF FF FF FF FF FF FF FF FF FF FF FF FF FF FF FF FF FF FF FF FF FF FF FF FF FF FF FF FF FF FF FF FF FF FF FF FF FF FF FF FF FF FF FF FF FF FF FF FF FF FF FF FF FF FF FF FF FF FF FF FF FF FF FF FF FF FF FF FF FF FF FF FF FF FF FF FF FF FF FF FF FF FF FF FF FF FF FF FF FF FF FF FF FF FF FF FF FF FF FF FF FF FF FF FF
16:16:42.303 设备发送:09 03 04 84 00 04 04 58
16:16:43.102 设备接收:FF FF FF FF FF FF FF FF FF FF FF FF FF FF FF FF FF FF FF FF FF FF FF FF FF FF FF FF FF FF FF FF FF FF FF FF FF FF FF FF FF FF FF FF FF FF FF FF FF FF FF FF FF FF FF FF FF FF FF FF FF FF FF FF FF FF FF FF FF FF FF FF FF FF FF FF FF FF FF FF FF FF FF FF FF FF FF FF FF FF FF FF FF FF FF FF FF FF FF FF FF FF FF FF FF FF FF FF FF FF FF FF FF FF FF FF FF FF FF FF FF FF FF FF FF FF FF FF FF FF FF FF FF FF FF FF FF FF FF FF FF FF FF FF FF FF FF FF FF FF
16:16:43.123 设备发送:09 03 04 8D 00 21 15 81
16:16:43.942 设备接收:FF FF FF FF FF FF FF FF FF FF FF FF FF FF FF FF FF FF FF FF FF FF FF FF FF FF FF FF FF FF FF FF FF FF FF FF FF FF FF FF FF FF FF FF FF FF FF FF FF FF FF FF FF FF FF FF FF FF FF FF FF FF FF FF FF FF FF FF FF FF FF FF FF FF FF FF FF FF FF FF FF FF FF FF FF FF FF FF FF FF FF FF FF FF FF FF FF FF FF FF FF FF FF FF FF FF FF FF FF FF FF FF FF FF FF FF FF FF FF FF FF FF FF FF FF FF FF FF FF FF FF FF FF FF FF FF FF FF FF FF FF FF FF FF FF FF FF FF FF FF
16:16:43.957 设备发送:09 03 06 84 00 04 05 E0
16:16:44.738 设备接收:FF FF FF FF FF FF FF FF FF FF FF FF FF FF FF FF FF FF FF FF FF FF FF FF FF FF FF FF FF FF FF FF FF FF FF FF FF FF FF FF FF FF FF FF FF FF FF FF FF FF FF FF FF FF FF FF FF FF FF FF FF FF FF FF FF FF FF FF FF FF FF FF FF FF FF FF FF FF FF FF FF FF FF FF FF FF FF FF FF FF FF FF FF FF FF FF FF FF FF FF FF FF FF FF FF FF FF FF FF FF FF FF FF FF FF FF FF FF FF FF FF FF FF
16:16:44.753 设备发送:09 03 04 04 00 01 C5 B3
16:16:45.578 设备发送:09 03 04 04 00 01 C5 B3
16:16:46.393 设备发送:09 03 04 04 00 01 C5 B3
16:16:47.237 设备发送:0A 03 04 84 00 04 04 6B
16:16:48.046 设备发送:0A 03 04 84 00 04 04 6B
16:16:48.861 设备发送:0A 03 04 84 00 04 04 6B
16:16:49.688 设备发送:0A 03 04 8D 00 21 15 B2
16:16:50.503 设备发送:0A 03 04 8D 00 21 15 B2
16:16:51.318 设备发送:0A 03 04 8D 00 21 15 B2
16:16:52.160 设备发送:0A 03 06 84 00 04 05 D3
16:16:52.972 设备发送:0A 03 06 84 00 04 05 D3
16:16:53.796 设备发送:0A 03 06 84 00 04 05 D3
16:16:54.606 设备发送:0A 03 04 04 00 01 C5 80
16:16:55.433 设备发送:0A 03 04 04 00 01 C5 80
16:16:56.242 设备发送:0A 03 04 04 00 01 C5 80
16:16:57.056 设备发送:01 03 04 84 00 04 05 10
16:16:57.885 设备发送:01 03 04 84 00 04 05 10
16:16:58.697 设备发送:01 03 04 84 00 04 05 10
16:16:59.543 设备发送:01 03 04 8D 00 21 14 C9
16:17:00.355 设备发送:01 03 04 8D 00 21 14 C9
16:17:01.141 设备发送:01 03 04 8D 00 21 14 C9
16:17:01.974 设备发送:01 03 06 84 00 04 04 A8
16:17:02.783 设备发送:01 03 06 84 00 04 04 A8
16:17:03.637 设备发送:01 03 06 84 00 04 04 A8
16:17:04.451 设备发送:01 03 04 04 00 01 C4 FB
16:17:05.246 设备发送:01 03 04 04 00 01 C4 FB
16:17:06.082 设备发送:01 03 04 04 00 01 C4 FB
16:17:06.894 设备发送:02 03 04 84 00 04 05 23
16:17:07.733 设备发送:02 03 04 84 00 04 05 23
16:17:08.544 设备发送:02 03 04 84 00 04 05 23
16:17:09.385 设备发送:02 03 04 8D 00 21 14 FA
16:17:10.194 设备发送:02 03 04 8D 00 21 14 FA
16:17:11.009 设备发送:02 03 04 8D 00 21 14 FA
16:17:11.836 设备发送:02 03 06 84 00 04 04 9B
16:17:12.650 设备发送:02 03 06 84 00 04 04 9B
16:17:13.460 设备发送:02 03 06 84 00 04 04 9B
16:17:14.287 设备发送:02 03 04 04 00 01 C4 C8
16:17:15.097 设备发送:02 03 04 04 00 01 C4 C8
16:17:15.915 设备发送:02 03 04 04 00 01 C4 C8
16:17:16.728 设备发送:03 03 04 84 00 04 04 F2
16:17:17.551 设备发送:03 03 04 84 00 04 04 F2
16:17:18.362 设备发送:03 03 04 84 00 04 04 F2
16:17:19.201 设备发送:03 03 04 8D 00 21 15 2B
16:17:20.027 设备发送:03 03 04 8D 00 21 15 2B
16:17:20.838 设备发送:03 03 04 8D 00 21 15 2B
16:17:21.649 设备发送:03 03 06 84 00 04 05 4A
16:17:22.480 设备发送:03 03 06 84 00 04 05 4A
16:17:23.298 设备发送:03 03 06 84 00 04 05 4A
16:17:24.125 设备发送:03 03 04 04 00 01 C5 19
16:17:24.939 设备发送:03 03 04 04 00 01 C5 19
16:17:25.756 设备发送:03 03 04 04 00 01 C5 19
16:17:26.598 设备发送:04 03 04 84 00 04 05 45
16:17:27.406 设备接收:04 03 08 13 84 03 1C 00 12 03 1C 71 C7
16:17:27.423 设备发送:04 03 04 8D 00 21 14 9C
16:17:28.203 设备接收:04 03 42 08 D8 04 B6 00 00 00 00 00 00 00 00 00 00 00 00 00 00 00 00 00 00 08 D6 04 A2 00 00 00 00 00 00 00 00 00 00 00 00 00 00 00 00 00 00 08 E3 04 C7 00 00 00 00 00 00 00 00 00 00 00 00 00 00 00 00 00 00 01 26
16:17:28.219 设备发送:04 03 06 84 00 04 04 FD
16:17:29.046 设备接收:04 03 08 00 00 94 6B 00 10 A0 E8 C4 8D
16:17:29.062 设备发送:04 03 04 04 00 01 C4 AE
16:17:29.858 设备接收:04 03 02 00 02 F5 85
16:17:29.873 设备发送:05 03 04 84 00 04 04 94
16:17:30.657 设备接收:05 03 08 13 84 02 5F 00 01 02 5F 80 81
16:17:30.674 设备发送:05 03 04 8D 00 21 15 4D
16:17:31.480 设备接收:05 03 42 08 D6 03 AA 00 00 00 00 00 00 00 00 00 00 00 00 00 00 00 00 00 00 08 D7 03 A8 00 00 00 00 00 00 00 00 00 00 00 00 00 00 00 00 00 00 08 E0 03 DB 00 00 00 00 00 00 00 00 00 00 00 00 00 00 00 00 00 00 2F 4A
16:17:31.496 设备发送:05 03 06 84 00 04 05 2C
16:17:32.294 设备接收:05 03 08 00 00 7B E2 00 0E 0A 18 15 D3
16:17:32.342 设备发送:05 03 04 04 00 01 C5 7F
16:17:33.120 设备接收:05 03 02 00 02 C8 45
16:17:33.135 设备发送:06 03 04 84 00 04 04 A7
16:17:33.930 设备接收:06 03 08 13 85 01 E0 00 14 01 E1 1B A9
16:17:33.977 设备发送:06 03 04 8D 00 21 15 7E
16:17:34.774 设备接收:06 03 42 08 DD 02 EF 00 00 00 00 00 00 00 00 00 00 00 00 00 00 00 00 00 00 08 D7 02 F7 00 00 00 00 00 00 00 00 00 00 00 00 00 00 00 00 00 00 08 E1 03 20 00 00 00 00 00 00 00 00 00 00 00 00 00 00 00 00 00 00 F0 00
16:17:34.790 设备发送:06 03 06 84 00 04 05 1F
16:17:35.603 设备接收:06 03 08 00 00 76 52 00 0D FE E2 6C D3
16:17:35.618 设备发送:06 03 04 04 00 01 C5 4C
16:17:36.406 设备接收:06 03 02 00 02 8C 45
16:17:36.414 设备发送:07 03 04 84 00 04 05 76
16:17:37.226 设备接收:07 03 08 13 84 01 37 FF CF 01 48 FB D6
16:17:37.242 设备发送:07 03 04 8D 00 21 14 AF
16:17:38.052 设备接收:07 03 42 08 E7 01 DE 00 00 00 00 00 00 00 00 00 00 00 00 00 00 00 00 00 00 08 DD 01 EA 00 00 00 00 00 00 00 00 00 00 00 00 00 00 00 00 00 00 08 E6 01 D9 00 00 00 00 00 00 00 00 00 00 00 00 00 00 00 00 00 00 48 8E
16:17:38.083 设备发送:07 03 06 84 00 04 04 CE
16:17:38.882 设备接收:07 03 08 00 00 41 3E 00 06 EE D7 40 74
16:17:38.898 设备发送:07 03 04 04 00 01 C4 9D
16:17:39.713 设备接收:07 03 02 00 02 B1 85
16:17:39.728 设备发送:08 03 04 84 00 04 05 89
16:17:40.528 设备接收:08 03 08 13 85 02 90 FF EA 02 91 3E 49
16:17:40.544 设备发送:08 03 04 8D 00 21 14 50
16:17:41.343 设备接收:08 03 42 08 DA 04 01 00 00 00 00 00 00 00 00 00 00 00 00 00 00 00 00 00 00 08 D2 03 F5 00 00 00 00 00 00 00 00 00 00 00 00 00 00 00 00 00 00 08 DE 04 47 00 00 00 00 00 00 00 00 00 00 00 00 00 00 00 00 00 00 BB BE
16:17:41.358 设备发送:08 03 06 84 00 04 04 31
16:17:42.170 设备接收:08 03 08 00 00 89 DA 00 0F 1C 42 45 33
16:17:42.185 设备发送:08 03 04 04 00 01 C4 62
16:17:42.970 设备接收:08 03 02 00 02 E5 84
16:17:43.016 设备发送:09 03 04 84 00 04 04 58
16:17:43.794 设备接收:09 03 08 13 85 02 6B 00 15 02 6B 5F 06
16:17:43.809 设备发送:09 03 04 8D 00 21 15 81
16:17:44.623 设备接收:09 03 42 08 DE 03 B6 00 00 00 00 00 00 00 00 00 00 00 00 00 00 00 00 00 00 08 D7 03 CA 00 00 00 00 00 00 00 00 00 00 00 00 00 00 00 00 00 00 08 E3 03 DC 00 00 00 00 00 00 00 00 00 00 00 00 00 00 00 00 00 00 05 5C
16:17:44.657 设备发送:09 03 06 84 00 04 05 E0
16:17:45.451 设备接收:09 03 08 00 00 7C BD 00 0D C0 25 D8 48
16:17:45.466 设备发送:09 03 04 04 00 01 C5 B3
16:17:46.259 设备接收:09 03 02 00 02 D8 44
16:17:46.307 设备发送:0A 03 04 84 00 04 04 6B
16:17:47.115 设备发送:0A 03 04 84 00 04 04 6B
16:17:47.928 设备发送:0A 03 04 84 00 04 04 6B
16:17:48.755 设备发送:0A 03 04 8D 00 21 15 B2
16:17:49.566 设备发送:0A 03 04 8D 00 21 15 B2
16:17:50.377 设备发送:0A 03 04 8D 00 21 15 B2
16:17:51.221 设备发送:0A 03 06 84 00 04 05 D3
16:17:52.032 设备发送:0A 03 06 84 00 04 05 D3
16:17:52.845 设备发送:0A 03 06 84 00 04 05 D3
16:17:53.659 设备发送:0A 03 04 04 00 01 C5 80
16:17:54.473 设备发送:0A 03 04 04 00 01 C5 80
16:17:55.302 设备发送:0A 03 04 04 00 01 C5 80
16:17:56.130 设备发送:01 03 04 84 00 04 05 10
16:17:56.941 设备发送:01 03 04 84 00 04 05 10
16:17:57.755 设备发送:01 03 04 84 00 04 05 10
16:17:58.598 设备发送:01 03 04 8D 00 21 14 C9
16:17:59.413 设备发送:01 03 04 8D 00 21 14 C9
16:18:00.239 设备发送:01 03 04 8D 00 21 14 C9
16:18:01.052 设备发送:01 03 06 84 00 04 04 A8
16:18:01.879 设备发送:01 03 06 84 00 04 04 A8
16:18:02.706 设备发送:01 03 06 84 00 04 04 A8
16:18:03.533 设备发送:01 03 04 04 00 01 C4 FB
16:18:04.344 设备发送:01 03 04 04 00 01 C4 FB
16:18:05.156 设备发送:01 03 04 04 00 01 C4 FB
16:18:05.966 设备发送:02 03 04 84 00 04 05 23
16:18:06.779 设备发送:02 03 04 84 00 04 05 23
16:18:07.607 设备发送:02 03 04 84 00 04 05 23
16:18:08.421 设备发送:02 03 04 8D 00 21 14 FA
16:18:09.267 设备发送:02 03 04 8D 00 21 14 FA
16:18:10.080 设备发送:02 03 04 8D 00 21 14 FA
16:18:10.898 设备发送:02 03 06 84 00 04 04 9B
16:18:11.712 设备发送:02 03 06 84 00 04 04 9B
16:18:12.543 设备发送:02 03 06 84 00 04 04 9B
16:18:13.370 设备发送:02 03 04 04 00 01 C4 C8
16:18:14.200 设备发送:02 03 04 04 00 01 C4 C8
16:18:14.980 设备发送:02 03 04 04 00 01 C4 C8
16:18:15.807 设备发送:03 03 04 84 00 04 04 F2
16:18:16.620 设备发送:03 03 04 84 00 04 04 F2
16:18:17.462 设备发送:03 03 04 84 00 04 04 F2
16:18:18.269 设备发送:03 03 04 8D 00 21 15 2B
16:18:19.115 设备发送:03 03 04 8D 00 21 15 2B
16:18:19.910 设备发送:03 03 04 8D 00 21 15 2B
16:18:20.737 设备发送:03 03 06 84 00 04 05 4A
16:18:21.545 设备发送:03 03 06 84 00 04 05 4A
16:18:22.356 设备发送:03 03 06 84 00 04 05 4A
16:18:23.186 设备发送:03 03 04 04 00 01 C5 19
16:18:24.012 设备发送:03 03 04 04 00 01 C5 19
16:18:24.824 设备发送:03 03 04 04 00 01 C5 19
16:18:25.665 设备发送:04 03 04 84 00 04 05 45
16:18:26.480 设备接收:04 03 08 13 85 03 05 FF FF 03 05 1D 2E
16:18:26.496 设备发送:04 03 04 8D 00 21 14 9C
16:18:27.274 设备接收:04 03 42 08 D7 04 9A 00 00 00 00 00 00 00 00 00 00 00 00 00 00 00 00 00 00 08 D5 04 83 00 00 00 00 00 00 00 00 00 00 00 00 00 00 00 00 00 00 08 E3 04 AA 00 00 00 00 00 00 00 00 00 00 00 00 00 00 00 00 00 00 1D A6
16:18:27.289 设备发送:04 03 06 84 00 04 04 FD
16:18:28.089 设备接收:04 03 08 00 00 94 78 00 10 A0 E9 80 8E
16:18:28.136 设备发送:04 03 04 04 00 01 C4 AE
16:18:28.933 设备接收:04 03 02 00 02 F5 85
16:18:28.949 设备发送:05 03 04 84 00 04 04 94
16:18:29.731 设备接收:05 03 08 13 85 02 40 FF E7 02 40 95 A8
16:18:29.762 设备发送:05 03 04 8D 00 21 15 4D
16:18:30.576 设备接收:05 03 42 08 D7 03 86 00 00 00 00 00 00 00 00 00 00 00 00 00 00 00 00 00 00 08 DA 03 85 00 00 00 00 00 00 00 00 00 00 00 00 00 00 00 00 00 00 08 E4 03 B7 00 00 00 00 00 00 00 00 00 00 00 00 00 00 00 00 00 00 D8 05
16:18:30.591 设备发送:05 03 06 84 00 04 05 2C
16:18:31.371 设备接收:05 03 08 00 00 7B EB 00 0E 0A 19 08 12
16:18:31.403 设备发送:05 03 04 04 00 01 C5 7F
16:18:32.212 设备接收:05 03 02 00 02 C8 45
16:18:32.228 设备发送:06 03 04 84 00 04 04 A7
16:18:33.039 设备接收:06 03 08 13 85 01 CF FF F7 01 CF 8F 91
16:18:33.059 设备发送:06 03 04 8D 00 21 15 7E
16:18:33.865 设备接收:06 03 42 08 D8 02 E8 00 00 00 00 00 00 00 00 00 00 00 00 00 00 00 00 00 00 08 D5 02 EA 00 00 00 00 00 00 00 00 00 00 00 00 00 00 00 00 00 00 08 E1 03 16 00 00 00 00 00 00 00 00 00 00 00 00 00 00 00 00 00 00 C4 2F
16:18:33.880 设备发送:06 03 06 84 00 04 05 1F
16:18:34.649 设备接收:06 03 08 00 00 76 5A 00 0D FE E2 8D 12
16:18:34.665 设备发送:06 03 04 04 00 01 C5 4C
16:18:35.493 设备接收:06 03 02 00 02 8C 45
16:18:35.508 设备发送:07 03 04 84 00 04 05 76
16:18:36.303 设备接收:07 03 08 13 84 01 2B FF E1 01 38 4B F9
16:18:36.319 设备发送:07 03 04 8D 00 21 14 AF
16:18:37.116 设备接收:07 03 42 08 E2 01 CE 00 00 00 00 00 00 00 00 00 00 00 00 00 00 00 00 00 00 08 DD 01 D7 00 00 00 00 00 00 00 00 00 00 00 00 00 00 00 00 00 00 08 E5 01 C9 00 00 00 00 00 00 00 00 00 00 00 00 00 00 00 00 00 00 CA 3B
16:18:37.163 设备发送:07 03 06 84 00 04 04 CE
16:18:37.960 设备接收:07 03 08 00 00 41 43 00 06 EE D8 6C 7A
16:18:37.976 设备发送:07 03 04 04 00 01 C4 9D
16:18:38.772 设备接收:07 03 02 00 02 B1 85
16:18:38.794 设备发送:08 03 04 84 00 04 05 89
16:18:39.569 设备接收:08 03 08 13 84 02 73 00 00 02 73 7A F6
16:18:39.616 设备发送:08 03 04 8D 00 21 14 50
16:18:40.399 设备接收:08 03 42 08 DA 03 D8 00 00 00 00 00 00 00 00 00 00 00 00 00 00 00 00 00 00 08 D3 03 C5 00 00 00 00 00 00 00 00 00 00 00 00 00 00 00 00 00 00 08 DE 04 18 00 00 00 00 00 00 00 00 00 00 00 00 00 00 00 00 00 00 98 B2
16:18:40.447 设备发送:08 03 06 84 00 04 04 31
16:18:41.229 设备接收:08 03 08 00 00 89 E4 00 0F 1C 43 AD 36
16:18:41.276 设备发送:08 03 04 04 00 01 C4 62
16:18:42.055 设备接收:08 03 02 00 02 E5 84
16:18:42.071 设备发送:09 03 04 84 00 04 04 58
16:18:42.885 设备接收:09 03 08 13 85 02 5E 00 01 02 5E 53 11
16:18:42.906 设备发送:09 03 04 8D 00 21 15 81
16:18:43.711 设备接收:09 03 42 08 D8 03 9D 00 00 00 00 00 00 00 00 00 00 00 00 00 00 00 00 00 00 08 D5 03 B7 00 00 00 00 00 00 00 00 00 00 00 00 00 00 00 00 00 00 08 E1 03 C9 00 00 00 00 00 00 00 00 00 00 00 00 00 00 00 00 00 00 DF 88
16:18:43.726 设备发送:09 03 06 84 00 04 05 E0
16:18:44.507 设备接收:09 03 08 00 00 7C C7 00 0D C0 26 41 83
16:18:44.539 设备发送:09 03 04 04 00 01 C5 B3
16:18:45.336 设备接收:09 03 02 00 02 D8 44
16:18:45.351 设备发送:0A 03 04 84 00 04 04 6B
16:18:46.178 设备发送:0A 03 04 84 00 04 04 6B
16:18:47.008 设备发送:0A 03 04 84 00 04 04 6B
16:18:47.832 设备发送:0A 03 04 8D 00 21 15 B2
16:18:48.644 设备发送:0A 03 04 8D 00 21 15 B2
16:18:49.470 设备发送:0A 03 04 8D 00 21 15 B2
16:18:50.282 设备发送:0A 03 06 84 00 04 05 D3
16:18:51.100 设备发送:0A 03 06 84 00 04 05 D3
16:18:51.924 设备发送:0A 03 06 84 00 04 05 D3
16:18:52.734 设备发送:0A 03 04 04 00 01 C5 80
16:18:53.546 设备发送:0A 03 04 04 00 01 C5 80
16:18:54.374 设备发送:0A 03 04 04 00 01 C5 80
16:18:55.184 设备发送:01 03 04 84 00 04 05 10
16:18:56.040 设备发送:01 03 04 84 00 04 05 10
16:18:56.852 设备发送:01 03 04 84 00 04 05 10
16:18:57.664 设备发送:01 03 04 8D 00 21 14 C9
16:18:58.473 设备发送:01 03 04 8D 00 21 14 C9
16:18:59.286 设备发送:01 03 04 8D 00 21 14 C9
16:19:00.129 设备发送:01 03 06 84 00 04 04 A8
16:19:00.944 设备发送:01 03 06 84 00 04 04 A8
16:19:01.755 设备发送:01 03 06 84 00 04 04 A8
16:19:02.583 设备发送:01 03 04 04 00 01 C4 FB
16:19:03.410 设备发送:01 03 04 04 00 01 C4 FB
16:19:04.221 设备发送:01 03 04 04 00 01 C4 FB
16:19:05.031 设备发送:02 03 04 84 00 04 05 23
16:19:05.861 设备发送:02 03 04 84 00 04 05 23
16:19:06.687 设备发送:02 03 04 84 00 04 05 23
16:19:07.499 设备发送:02 03 04 8D 00 21 14 FA
16:19:08.328 设备发送:02 03 04 8D 00 21 14 FA
16:19:09.141 设备发送:02 03 04 8D 00 21 14 FA
16:19:09.952 设备发送:02 03 06 84 00 04 04 9B
16:19:10.778 设备发送:02 03 06 84 00 04 04 9B
16:19:11.593 设备发送:02 03 06 84 00 04 04 9B
16:19:12.425 设备发送:02 03 04 04 00 01 C4 C8
16:19:13.238 设备发送:02 03 04 04 00 01 C4 C8
16:19:14.062 设备发送:02 03 04 04 00 01 C4 C8
16:19:14.891 设备发送:03 03 04 84 00 04 04 F2
16:19:15.703 设备发送:03 03 04 84 00 04 04 F2
16:19:16.531 设备发送:03 03 04 84 00 04 04 F2
16:19:17.342 设备发送:03 03 04 8D 00 21 15 2B
16:19:18.154 设备发送:03 03 04 8D 00 21 15 2B
16:19:18.966 设备发送:03 03 04 8D 00 21 15 2B
16:19:19.795 设备发送:03 03 06 84 00 04 05 4A
16:19:20.624 设备发送:03 03 06 84 00 04 05 4A
16:19:21.451 设备发送:03 03 06 84 00 04 05 4A
16:19:22.264 设备发送:03 03 04 04 00 01 C5 19
16:19:23.078 设备发送:03 03 04 04 00 01 C5 19
16:19:23.918 设备发送:03 03 04 04 00 01 C5 19
16:19:24.732 设备发送:04 03 04 84 00 04 05 45
16:19:25.512 设备接收:04 03 08 13 85 02 DF FF E9 02 DF 24 E3
16:19:25.543 设备发送:04 03 04 8D 00 21 14 9C
16:19:26.356 设备接收:04 03 42 08 D9 04 60 00 00 00 00 00 00 00 00 00 00 00 00 00 00 00 00 00 00 08 D1 04 51 00 00 00 00 00 00 00 00 00 00 00 00 00 00 00 00 00 00 08 E1 04 77 00 00 00 00 00 00 00 00 00 00 00 00 00 00 00 00 00 00 26 8B
16:19:26.372 设备发送:04 03 06 84 00 04 04 FD
16:19:27.167 设备接收:04 03 08 00 00 94 84 00 10 A0 EB 51 5B
16:19:27.183 设备发送:04 03 04 04 00 01 C4 AE
16:19:27.979 设备接收:04 03 02 00 02 F5 85
16:19:28.026 设备发送:05 03 04 84 00 04 04 94
16:19:28.823 设备接收:05 03 08 13 85 02 2B FF FE 02 2B 20 49
16:19:28.838 设备发送:05 03 04 8D 00 21 15 4D
16:19:29.635 设备接收:05 03 42 08 D7 03 59 00 00 00 00 00 00 00 00 00 00 00 00 00 00 00 00 00 00 08 D3 03 57 00 00 00 00 00 00 00 00 00 00 00 00 00 00 00 00 00 00 08 E0 03 81 00 00 00 00 00 00 00 00 00 00 00 00 00 00 00 00 00 00 0B 9D
16:19:29.650 设备发送:05 03 06 84 00 04 05 2C
16:19:30.445 设备接收:05 03 08 00 00 7B F5 00 0E 0A 1A E0 11
16:19:30.461 设备发送:05 03 04 04 00 01 C5 7F
16:19:31.274 设备接收:05 03 02 00 02 C8 45
16:19:31.290 设备发送:06 03 04 84 00 04 04 A7
16:19:32.090 设备接收:06 03 08 13 85 01 BB 00 0E 01 BB DF 98
16:19:32.122 设备发送:06 03 04 8D 00 21 15 7E
16:19:32.917 设备接收:06 03 42 08 D8 02 C6 00 00 00 00 00 00 00 00 00 00 00 00 00 00 00 00 00 00 08 D4 02 D2 00 00 00 00 00 00 00 00 00 00 00 00 00 00 00 00 00 00 08 E3 03 00 00 00 00 00 00 00 00 00 00 00 00 00 00 00 00 00 00 00 4D D4
16:19:32.933 设备发送:06 03 06 84 00 04 05 1F
16:19:33.744 设备接收:06 03 08 00 00 76 61 00 0D FE E3 A9 17
16:19:33.760 设备发送:06 03 04 04 00 01 C5 4C
16:19:34.543 设备接收:06 03 02 00 02 8C 45
16:19:34.579 设备发送:07 03 04 84 00 04 05 76
16:19:35.375 设备接收:07 03 08 13 84 01 23 FF E2 01 30 5B FE
16:19:35.405 设备发送:07 03 04 8D 00 21 14 AF
16:19:36.188 设备接收:07 03 42 08 E8 01 B4 00 00 00 00 00 00 00 00 00 00 00 00 00 00 00 00 00 00 08 DC 01 C0 00 00 00 00 00 00 00 00 00 00 00 00 00 00 00 00 00 00 08 E4 01 AF 00 00 00 00 00 00 00 00 00 00 00 00 00 00 00 00 00 00 68 37
16:19:36.219 设备发送:07 03 06 84 00 04 04 CE
16:19:37.017 设备接收:07 03 08 00 00 41 48 00 06 EE D8 C9 BB
16:19:37.033 设备发送:07 03 04 04 00 01 C4 9D
16:19:37.826 设备接收:07 03 02 00 02 B1 85
16:19:37.842 设备发送:08 03 04 84 00 04 05 89
16:19:38.657 设备接收:08 03 08 13 84 02 54 00 02 02 54 AF 2B
16:19:38.688 设备发送:08 03 04 8D 00 21 14 50
16:19:39.486 设备接收:08 03 42 08 DA 03 A8 00 00 00 00 00 00 00 00 00 00 00 00 00 00 00 00 00 00 08 D4 03 9C 00 00 00 00 00 00 00 00 00 00 00 00 00 00 00 00 00 00 08 E0 03 F7 00 00 00 00 00 00 00 00 00 00 00 00 00 00 00 00 00 00 D9 46
16:19:39.502 设备发送:08 03 06 84 00 04 04 31
16:19:40.282 设备接收:08 03 08 00 00 89 EE 00 0F 1C 44 74 F5
16:19:40.298 设备发送:08 03 04 04 00 01 C4 62
16:19:41.114 设备接收:08 03 02 00 02 E5 84
16:19:41.147 设备发送:09 03 04 84 00 04 04 58
16:19:41.939 设备接收:09 03 08 13 85 02 43 00 14 02 43 6E DE
16:19:41.955 设备发送:09 03 04 8D 00 21 15 81
16:19:42.738 设备接收:09 03 42 08 D9 03 74 00 00 00 00 00 00 00 00 00 00 00 00 00 00 00 00 00 00 08 D7 03 8E 00 00 00 00 00 00 00 00 00 00 00 00 00 00 00 00 00 00 08 E4 03 A6 00 00 00 00 00 00 00 00 00 00 00 00 00 00 00 00 00 00 D3 8C
16:19:42.754 设备发送:09 03 06 84 00 04 05 E0
16:19:43.584 设备接收:09 03 08 00 00 7C D1 00 0D C0 27 C9 80
16:19:43.600 设备发送:09 03 04 04 00 01 C5 B3
16:19:44.381 设备接收:09 03 02 00 02 D8 44
16:19:44.397 设备发送:0A 03 04 84 00 04 04 6B
16:19:45.223 设备发送:0A 03 04 84 00 04 04 6B
16:19:46.034 设备发送:0A 03 04 84 00 04 04 6B
16:19:46.878 设备发送:0A 03 04 8D 00 21 15 B2
16:19:47.688 设备发送:0A 03 04 8D 00 21 15 B2
16:19:48.514 设备发送:0A 03 04 8D 00 21 15 B2
16:19:49.340 设备发送:0A 03 06 84 00 04 05 D3
16:19:50.151 设备发送:0A 03 06 84 00 04 05 D3
16:19:50.963 设备发送:0A 03 06 84 00 04 05 D3
16:19:51.790 设备发送:0A 03 04 04 00 01 C5 80
16:19:52.603 设备发送:0A 03 04 04 00 01 C5 80
16:19:53.417 设备发送:0A 03 04 04 00 01 C5 80
16:19:54.248 设备发送:01 03 04 84 00 04 05 10
16:19:55.075 设备发送:01 03 04 84 00 04 05 10
16:19:55.889 设备发送:01 03 04 84 00 04 05 10
16:19:56.717 设备发送:01 03 04 8D 00 21 14 C9
16:19:57.532 设备发送:01 03 04 8D 00 21 14 C9
16:19:58.342 设备发送:01 03 04 8D 00 21 14 C9
16:19:59.165 设备发送:01 03 06 84 00 04 04 A8
16:19:59.995 设备发送:01 03 06 84 00 04 04 A8
16:20:00.806 设备发送:01 03 06 84 00 04 04 A8
16:20:01.618 设备发送:01 03 04 04 00 01 C4 FB
16:20:02.459 设备发送:01 03 04 04 00 01 C4 FB
16:20:03.274 设备发送:01 03 04 04 00 01 C4 FB
16:20:04.088 设备发送:02 03 04 84 00 04 05 23
16:20:04.903 设备发送:02 03 04 84 00 04 05 23
16:20:05.718 设备发送:02 03 04 84 00 04 05 23
16:20:06.531 设备发送:02 03 04 8D 00 21 14 FA
16:20:07.379 设备发送:02 03 04 8D 00 21 14 FA
16:20:08.190 设备发送:02 03 04 8D 00 21 14 FA
16:20:09.001 设备发送:02 03 06 84 00 04 04 9B
16:20:09.829 设备发送:02 03 06 84 00 04 04 9B
16:20:10.641 设备发送:02 03 06 84 00 04 04 9B
16:20:11.456 设备发送:02 03 04 04 00 01 C4 C8
16:20:12.280 设备发送:02 03 04 04 00 01 C4 C8
16:20:13.125 设备发送:02 03 04 04 00 01 C4 C8
16:20:13.932 设备发送:03 03 04 84 00 04 04 F2
16:20:14.758 设备发送:03 03 04 84 00 04 04 F2
16:20:15.585 设备发送:03 03 04 84 00 04 04 F2
16:20:16.400 设备发送:03 03 04 8D 00 21 15 2B
16:20:17.208 设备发送:03 03 04 8D 00 21 15 2B
16:20:18.022 设备发送:03 03 04 8D 00 21 15 2B
16:20:18.866 设备发送:03 03 06 84 00 04 05 4A
16:20:19.674 设备发送:03 03 06 84 00 04 05 4A
16:20:20.484 设备发送:03 03 06 84 00 04 05 4A
16:20:21.308 设备发送:03 03 04 04 00 01 C5 19
16:20:22.151 设备发送:03 03 04 04 00 01 C5 19
16:20:22.963 设备发送:03 03 04 04 00 01 C5 19
16:20:23.773 设备发送:04 03 04 84 00 04 05 45
16:20:24.587 设备接收:04 03 08 13 85 02 BE 00 14 02 BE F9 27
16:20:24.604 设备发送:04 03 04 8D 00 21 14 9C
16:20:25.398 设备接收:04 03 42 08 D8 04 3B 00 00 00 00 00 00 00 00 00 00 00 00 00 00 00 00 00 00 08 D0 04 2E 00 00 00 00 00 00 00 00 00 00 00 00 00 00 00 00 00 00 08 DE 04 4A 00 00 00 00 00 00 00 00 00 00 00 00 00 00 00 00 00 00 D4 03
16:20:25.414 设备发送:04 03 06 84 00 04 04 FD
16:20:26.194 设备接收:04 03 08 00 00 94 90 00 10 A0 EC 20 9A
16:20:26.241 设备发送:04 03 04 04 00 01 C4 AE
16:20:27.038 设备接收:04 03 02 00 02 F5 85
16:20:27.053 设备发送:05 03 04 84 00 04 04 94
16:20:27.847 设备接收:05 03 08 13 85 02 13 00 00 02 13 D1 BA
16:20:27.863 设备发送:05 03 04 8D 00 21 15 4D
16:20:28.658 设备接收:05 03 42 08 D9 03 48 00 00 00 00 00 00 00 00 00 00 00 00 00 00 00 00 00 00 08 D5 03 43 00 00 00 00 00 00 00 00 00 00 00 00 00 00 00 00 00 00 08 E0 03 75 00 00 00 00 00 00 00 00 00 00 00 00 00 00 00 00 00 00 02 FD
16:20:28.705 设备发送:05 03 06 84 00 04 05 2C
16:20:29.487 设备接收:05 03 08 00 00 7B FD 00 0E 0A 1B C0 10
16:20:29.518 设备发送:05 03 04 04 00 01 C5 7F
16:20:30.329 设备接收:05 03 02 00 02 C8 45
16:20:30.348 设备发送:06 03 04 84 00 04 04 A7
16:20:31.140 设备接收:06 03 08 13 85 01 AF FF FA 01 B0 DF BA
16:20:31.172 设备发送:06 03 04 8D 00 21 15 7E
16:20:31.984 设备接收:06 03 42 08 DC 02 B1 00 00 00 00 00 00 00 00 00 00 00 00 00 00 00 00 00 00 08 D5 02 B9 00 00 00 00 00 00 00 00 00 00 00 00 00 00 00 00 00 00 08 E1 02 E3 00 00 00 00 00 00 00 00 00 00 00 00 00 00 00 00 00 00 56 27
16:20:32.005 设备发送:06 03 06 84 00 04 05 1F
16:20:32.781 设备接收:06 03 08 00 00 76 69 00 0D FE E4 09 14
16:20:32.796 设备发送:06 03 04 04 00 01 C5 4C
16:20:33.592 设备接收:06 03 02 00 02 8C 45
16:20:33.607 设备发送:07 03 04 84 00 04 05 76
16:20:34.422 设备接收:07 03 08 13 84 01 1A FF E1 01 28 37 F1
16:20:34.437 设备发送:07 03 04 8D 00 21 14 AF
16:20:35.250 设备接收:07 03 42 08 E6 01 B6 00 00 00 00 00 00 00 00 00 00 00 00 00 00 00 00 00 00 08 DB 01 BD 00 00 00 00 00 00 00 00 00 00 00 00 00 00 00 00 00 00 08 E5 01 B0 00 00 00 00 00 00 00 00 00 00 00 00 00 00 00 00 00 00 3C 04
16:20:35.266 设备发送:07 03 06 84 00 04 04 CE
16:20:36.065 设备接收:07 03 08 00 00 41 4D 00 06 EE D9 C4 7B
16:20:36.080 设备发送:07 03 04 04 00 01 C4 9D
16:20:36.862 设备接收:07 03 02 00 02 B1 85
16:20:36.909 设备发送:08 03 04 84 00 04 05 89
16:20:37.721 设备接收:08 03 08 13 85 02 3D 00 1D 02 3E 52 0B
16:20:37.736 设备发送:08 03 04 8D 00 21 14 50
16:20:38.518 设备接收:08 03 42 08 D6 03 90 00 00 00 00 00 00 00 00 00 00 00 00 00 00 00 00 00 00 08 CE 03 85 00 00 00 00 00 00 00 00 00 00 00 00 00 00 00 00 00 00 08 DB 03 DD 00 00 00 00 00 00 00 00 00 00 00 00 00 00 00 00 00 00 DF 8B
16:20:38.539 设备发送:08 03 06 84 00 04 04 31
16:20:39.329 设备接收:08 03 08 00 00 89 F8 00 0F 1C 45 FC F6
16:20:39.345 设备发送:08 03 04 04 00 01 C4 62
16:20:40.174 设备接收:08 03 02 00 02 E5 84
16:20:40.189 设备发送:09 03 04 84 00 04 04 58
16:20:40.972 设备接收:09 03 08 13 85 02 31 FF E8 02 31 26 D4
16:20:41.004 设备发送:09 03 04 8D 00 21 15 81
16:20:41.787 设备接收:09 03 42 08 D8 03 59 00 00 00 00 00 00 00 00 00 00 00 00 00 00 00 00 00 00 08 D2 03 74 00 00 00 00 00 00 00 00 00 00 00 00 00 00 00 00 00 00 08 E0 03 83 00 00 00 00 00 00 00 00 00 00 00 00 00 00 00 00 00 00 3E BE
16:20:41.802 设备发送:09 03 06 84 00 04 05 E0
16:20:42.630 设备接收:09 03 08 00 00 7C DA 00 0D C0 28 2C 45
16:20:42.646 设备发送:09 03 04 04 00 01 C5 B3
16:20:43.443 设备接收:09 03 02 00 02 D8 44
16:20:43.472 设备发送:0A 03 04 84 00 04 04 6B
16:20:44.269 设备发送:0A 03 04 84 00 04 04 6B
16:20:45.095 设备发送:0A 03 04 84 00 04 04 6B
16:20:45.938 设备发送:0A 03 04 8D 00 21 15 B2
16:20:46.752 设备发送:0A 03 04 8D 00 21 15 B2
16:20:47.568 设备发送:0A 03 04 8D 00 21 15 B2
16:20:48.378 设备发送:0A 03 06 84 00 04 05 D3
16:20:49.190 设备发送:0A 03 06 84 00 04 05 D3
16:20:50.017 设备发送:0A 03 06 84 00 04 05 D3
16:20:50.844 设备发送:0A 03 04 04 00 01 C5 80
16:20:51.670 设备发送:0A 03 04 04 00 01 C5 80
16:20:52.480 设备发送:0A 03 04 04 00 01 C5 80
16:20:53.280 设备发送:01 03 04 84 00 04 05 10
16:20:54.125 设备发送:01 03 04 84 00 04 05 10
16:20:54.918 设备发送:01 03 04 84 00 04 05 10
16:20:55.759 设备发送:01 03 04 8D 00 21 14 C9
16:20:56.561 设备发送:01 03 04 8D 00 21 14 C9
16:20:57.393 设备发送:01 03 04 8D 00 21 14 C9
16:20:58.209 设备发送:01 03 06 84 00 04 04 A8
16:20:59.052 设备发送:01 03 06 84 00 04 04 A8
16:20:59.865 设备发送:01 03 06 84 00 04 04 A8
16:21:00.679 设备发送:01 03 04 04 00 01 C4 FB
16:21:01.494 设备发送:01 03 04 04 00 01 C4 FB
16:21:02.318 设备发送:01 03 04 04 00 01 C4 FB
16:21:03.129 设备发送:02 03 04 84 00 04 05 23
16:21:03.975 设备发送:02 03 04 84 00 04 05 23
16:21:04.788 设备发送:02 03 04 84 00 04 05 23
16:21:05.573 设备发送:02 03 04 8D 00 21 14 FA
16:21:06.431 设备发送:02 03 04 8D 00 21 14 FA
16:21:07.245 设备发送:02 03 04 8D 00 21 14 FA
16:21:08.070 设备发送:02 03 06 84 00 04 04 9B
16:21:08.881 设备发送:02 03 06 84 00 04 04 9B
16:21:09.697 设备发送:02 03 06 84 00 04 04 9B
16:21:10.512 设备发送:02 03 04 04 00 01 C4 C8
16:21:11.324 设备发送:02 03 04 04 00 01 C4 C8
16:21:12.164 设备发送:02 03 04 04 00 01 C4 C8
16:21:12.977 设备发送:03 03 04 84 00 04 04 F2
16:21:13.806 设备发送:03 03 04 84 00 04 04 F2
16:21:14.621 设备发送:03 03 04 84 00 04 04 F2
16:21:15.447 设备发送:03 03 04 8D 00 21 15 2B
16:21:16.260 设备发送:03 03 04 8D 00 21 15 2B
16:21:17.086 设备发送:03 03 04 8D 00 21 15 2B
16:21:17.898 设备发送:03 03 06 84 00 04 05 4A
16:21:18.710 设备发送:03 03 06 84 00 04 05 4A
16:21:19.536 设备发送:03 03 06 84 00 04 05 4A
16:21:20.362 设备发送:03 03 04 04 00 01 C5 19
16:21:21.187 设备发送:03 03 04 04 00 01 C5 19
16:21:22.002 设备发送:03 03 04 04 00 01 C5 19
16:21:22.827 设备发送:04 03 04 84 00 04 05 45
16:21:23.638 设备接收:04 03 08 13 85 02 9A 00 00 02 9A C9 3F
16:21:23.653 设备发送:04 03 04 8D 00 21 14 9C
16:21:24.435 设备接收:04 03 42 08 DB 03 FC 00 00 00 00 00 00 00 00 00 00 00 00 00 00 00 00 00 00 08 D1 03 F7 00 00 00 00 00 00 00 00 00 00 00 00 00 00 00 00 00 00 08 DE 04 1E 00 00 00 00 00 00 00 00 00 00 00 00 00 00 00 00 00 00 76 26
16:21:24.451 设备发送:04 03 06 84 00 04 04 FD
16:21:25.264 设备接收:04 03 08 00 00 94 9B 00 10 A0 ED 44 9B
16:21:25.280 设备发送:04 03 04 04 00 01 C4 AE
16:21:26.093 设备接收:04 03 02 00 02 F5 85
16:21:26.108 设备发送:05 03 04 84 00 04 04 94
16:21:26.903 设备接收:05 03 08 13 85 01 FF FF FD 01 FF E0 C7
16:21:26.919 设备发送:05 03 04 8D 00 21 15 4D
16:21:27.731 设备接收:05 03 42 08 DB 03 24 00 00 00 00 00 00 00 00 00 00 00 00 00 00 00 00 00 00 08 D7 03 22 00 00 00 00 00 00 00 00 00 00 00 00 00 00 00 00 00 00 08 E0 03 55 00 00 00 00 00 00 00 00 00 00 00 00 00 00 00 00 00 00 78 DE
16:21:27.747 设备发送:05 03 06 84 00 04 05 2C
16:21:28.527 设备接收:05 03 08 00 00 7C 06 00 0E 0A 1C 65 B1
16:21:28.542 设备发送:05 03 04 04 00 01 C5 7F
16:21:29.368 设备接收:05 03 02 00 02 C8 45
16:21:29.383 设备发送:06 03 04 84 00 04 04 A7
16:21:30.167 设备接收:06 03 08 13 85 01 A3 FF E2 01 A4 4F B3
16:21:30.205 设备发送:06 03 04 8D 00 21 15 7E
16:21:30.994 设备接收:06 03 42 08 DE 02 A3 00 00 00 00 00 00 00 00 00 00 00 00 00 00 00 00 00 00 08 D6 02 AD 00 00 00 00 00 00 00 00 00 00 00 00 00 00 00 00 00 00 08 E0 02 DF 00 00 00 00 00 00 00 00 00 00 00 00 00 00 00 00 00 00 DE E1
16:21:31.025 设备发送:06 03 06 84 00 04 05 1F
16:21:31.821 设备接收:06 03 08 00 00 76 6F 00 0D FE E4 81 14
16:21:31.836 设备发送:06 03 04 04 00 01 C5 4C
16:21:32.616 设备接收:06 03 02 00 02 8C 45
16:21:32.664 设备发送:07 03 04 84 00 04 05 76
16:21:33.460 设备接收:07 03 08 13 85 01 17 FF E1 01 24 0A F5
16:21:33.491 设备发送:07 03 04 8D 00 21 14 AF
16:21:34.271 设备接收:07 03 42 08 E3 01 AC 00 00 00 00 00 00 00 00 00 00 00 00 00 00 00 00 00 00 08 DC 01 B5 00 00 00 00 00 00 00 00 00 00 00 00 00 00 00 00 00 00 08 E7 01 A9 00 00 00 00 00 00 00 00 00 00 00 00 00 00 00 00 00 00 15 43
16:21:34.287 设备发送:07 03 06 84 00 04 04 CE
16:21:35.114 设备接收:07 03 08 00 00 41 52 00 06 EE D9 51 B9
16:21:35.135 设备发送:07 03 04 04 00 01 C4 9D
16:21:35.910 设备接收:07 03 02 00 02 B1 85
16:21:35.934 设备发送:08 03 04 84 00 04 05 89
16:21:36.737 设备接收:08 03 08 13 85 02 28 00 00 02 28 4E 00
16:21:36.753 设备发送:08 03 04 8D 00 21 14 50
16:21:37.549 设备接收:08 03 42 08 D9 03 7C 00 00 00 00 00 00 00 00 00 00 00 00 00 00 00 00 00 00 08 D1 03 62 00 00 00 00 00 00 00 00 00 00 00 00 00 00 00 00 00 00 08 DE 03 B3 00 00 00 00 00 00 00 00 00 00 00 00 00 00 00 00 00 00 CA F3
16:21:37.564 设备发送:08 03 06 84 00 04 04 31
16:21:38.360 设备接收:08 03 08 00 00 8A 01 00 0F 1C 45 60 D1
16:21:38.408 设备发送:08 03 04 04 00 01 C4 62
16:21:39.187 设备接收:08 03 02 00 02 E5 84
16:21:39.240 设备发送:09 03 04 84 00 04 04 58
16:21:40.015 设备接收:09 03 08 13 85 02 18 FF FD 02 18 AB 08
16:21:40.030 设备发送:09 03 04 8D 00 21 15 81
16:21:40.846 设备接收:09 03 42 08 DA 03 41 00 00 00 00 00 00 00 00 00 00 00 00 00 00 00 00 00 00 08 D3 03 5F 00 00 00 00 00 00 00 00 00 00 00 00 00 00 00 00 00 00 08 DF 03 73 00 00 00 00 00 00 00 00 00 00 00 00 00 00 00 00 00 00 D7 8F
16:21:40.861 设备发送:09 03 06 84 00 04 05 E0
16:21:41.675 设备接收:09 03 08 00 00 7C E3 00 0D C0 29 71 80
16:21:41.691 设备发送:09 03 04 04 00 01 C5 B3
16:21:42.501 设备接收:09 03 02 00 02 D8 44
16:21:42.517 设备发送:0A 03 04 84 00 04 04 6B
16:21:43.332 设备发送:0A 03 04 84 00 04 04 6B
16:21:44.145 设备发送:0A 03 04 84 00 04 04 6B
16:21:44.973 设备发送:0A 03 04 8D 00 21 15 B2
16:21:45.785 设备发送:0A 03 04 8D 00 21 15 B2
16:21:46.599 设备发送:0A 03 04 8D 00 21 15 B2
16:21:47.415 设备发送:0A 03 06 84 00 04 05 D3
16:21:48.247 设备发送:0A 03 06 84 00 04 05 D3
16:21:49.061 设备发送:0A 03 06 84 00 04 05 D3
16:21:49.872 设备发送:0A 03 04 04 00 01 C5 80
16:21:50.686 设备发送:0A 03 04 04 00 01 C5 80
16:21:51.529 设备发送:0A 03 04 04 00 01 C5 80
16:21:52.340 设备发送:01 03 04 84 00 04 05 10
16:21:53.169 设备发送:01 03 04 84 00 04 05 10
16:21:53.985 设备发送:01 03 04 84 00 04 05 10
16:21:54.814 设备发送:01 03 04 8D 00 21 14 C9
16:21:55.624 设备发送:01 03 04 8D 00 21 14 C9
16:21:56.450 设备发送:01 03 04 8D 00 21 14 C9
16:21:57.279 设备发送:01 03 06 84 00 04 04 A8
16:21:58.091 设备发送:01 03 06 84 00 04 04 A8
16:21:58.915 设备发送:01 03 06 84 00 04 04 A8
16:21:59.743 设备发送:01 03 04 04 00 01 C4 FB
16:22:00.556 设备发送:01 03 04 04 00 01 C4 FB
16:22:01.370 设备发送:01 03 04 04 00 01 C4 FB
16:22:02.196 设备发送:02 03 04 84 00 04 05 23
16:22:03.009 设备发送:02 03 04 84 00 04 05 23
16:22:03.835 设备发送:02 03 04 84 00 04 05 23
16:22:04.643 设备发送:02 03 04 8D 00 21 14 FA
16:22:05.472 设备发送:02 03 04 8D 00 21 14 FA
16:22:06.299 设备发送:02 03 04 8D 00 21 14 FA
16:22:07.107 设备发送:02 03 06 84 00 04 04 9B
16:22:07.938 设备发送:02 03 06 84 00 04 04 9B
16:22:08.749 设备发送:02 03 06 84 00 04 04 9B
16:22:09.578 设备发送:02 03 04 04 00 01 C4 C8
16:22:10.389 设备发送:02 03 04 04 00 01 C4 C8
16:22:11.215 设备发送:02 03 04 04 00 01 C4 C8
16:22:12.027 设备发送:03 03 04 84 00 04 04 F2
16:22:12.838 设备发送:03 03 04 84 00 04 04 F2
16:22:13.680 设备发送:03 03 04 84 00 04 04 F2
16:22:14.494 设备发送:03 03 04 8D 00 21 15 2B
16:22:15.318 设备发送:03 03 04 8D 00 21 15 2B
16:22:16.125 设备发送:03 03 04 8D 00 21 15 2B
16:22:16.938 设备发送:03 03 06 84 00 04 05 4A
16:22:17.783 设备发送:03 03 06 84 00 04 05 4A
16:22:18.596 设备发送:03 03 06 84 00 04 05 4A
16:22:19.409 设备发送:03 03 04 04 00 01 C5 19
16:22:20.219 设备发送:03 03 04 04 00 01 C5 19
16:22:21.048 设备发送:03 03 04 04 00 01 C5 19
16:22:21.862 设备发送:04 03 04 84 00 04 05 45
16:22:22.688 设备接收:04 03 08 13 86 02 81 00 14 02 81 9E 32
16:22:22.703 设备发送:04 03 04 8D 00 21 14 9C
16:22:23.487 设备接收:04 03 42 08 D7 03 DD 00 00 00 00 00 00 00 00 00 00 00 00 00 00 00 00 00 00 08 D6 03 D7 00 00 00 00 00 00 00 00 00 00 00 00 00 00 00 00 00 00 08 E3 03 F5 00 00 00 00 00 00 00 00 00 00 00 00 00 00 00 00 00 00 87 60
16:22:23.503 设备发送:04 03 06 84 00 04 04 FD
16:22:24.331 设备接收:04 03 08 00 00 94 A6 00 10 A0 EE 69 5F
16:22:24.346 设备发送:04 03 04 04 00 01 C4 AE
16:22:25.127 设备接收:04 03 02 00 02 F5 85
16:22:25.143 设备发送:05 03 04 84 00 04 04 94
16:22:25.938 设备接收:05 03 08 13 86 01 EF FF FC 01 EF 42 08
16:22:25.970 设备发送:05 03 04 8D 00 21 15 4D
16:22:26.779 设备接收:05 03 42 08 D9 03 0F 00 00 00 00 00 00 00 00 00 00 00 00 00 00 00 00 00 00 08 D6 03 0F 00 00 00 00 00 00 00 00 00 00 00 00 00 00 00 00 00 00 08 E1 03 3E 00 00 00 00 00 00 00 00 00 00 00 00 00 00 00 00 00 00 E4 48
16:22:26.795 设备发送:05 03 06 84 00 04 05 2C
16:22:27.591 设备接收:05 03 08 00 00 7C 0E 00 0E 0A 1C 84 70
16:22:27.622 设备发送:05 03 04 04 00 01 C5 7F
16:22:28.403 设备接收:05 03 02 00 02 C8 45
16:22:28.451 设备发送:06 03 04 84 00 04 04 A7
16:22:29.246 设备接收:06 03 08 13 85 01 99 FF F9 01 99 26 60
16:22:29.261 设备发送:06 03 04 8D 00 21 15 7E
16:22:30.059 设备接收:06 03 42 08 DB 02 94 00 00 00 00 00 00 00 00 00 00 00 00 00 00 00 00 00 00 08 D6 02 97 00 00 00 00 00 00 00 00 00 00 00 00 00 00 00 00 00 00 08 E1 02 BE 00 00 00 00 00 00 00 00 00 00 00 00 00 00 00 00 00 00 EF 7B
16:22:30.076 设备发送:06 03 06 84 00 04 05 1F
16:22:30.871 设备接收:06 03 08 00 00 76 76 00 0D FE E5 5D 16
16:22:30.886 设备发送:06 03 04 04 00 01 C5 4C
16:22:31.694 设备接收:06 03 02 00 02 8C 45
16:22:31.725 设备发送:07 03 04 84 00 04 05 76
16:22:32.521 设备接收:07 03 08 13 85 01 0B FF D8 01 1C 0A E8
16:22:32.536 设备发送:07 03 04 8D 00 21 14 AF
16:22:33.333 设备接收:07 03 42 08 E5 01 A0 00 00 00 00 00 00 00 00 00 00 00 00 00 00 00 00 00 00 08 DA 01 A7 00 00 00 00 00 00 00 00 00 00 00 00 00 00 00 00 00 00 08 E2 01 9A 00 00 00 00 00 00 00 00 00 00 00 00 00 00 00 00 00 00 0D 9B
16:22:33.364 设备发送:07 03 06 84 00 04 04 CE
16:22:34.159 设备接收:07 03 08 00 00 41 56 00 06 EE DA E0 78
16:22:34.175 设备发送:07 03 04 04 00 01 C4 9D
16:22:34.991 设备接收:07 03 02 00 02 B1 85
16:22:35.007 设备发送:08 03 04 84 00 04 05 89
16:22:35.787 设备接收:08 03 08 13 85 02 1B FF E5 02 1C 6A 30
16:22:35.802 设备发送:08 03 04 8D 00 21 14 50
16:22:36.644 设备接收:08 03 42 08 D9 03 6A 00 00 00 00 00 00 00 00 00 00 00 00 00 00 00 00 00 00 08 D2 03 58 00 00 00 00 00 00 00 00 00 00 00 00 00 00 00 00 00 00 08 DF 03 A5 00 00 00 00 00 00 00 00 00 00 00 00 00 00 00 00 00 00 C0 4C
16:22:36.659 设备发送:08 03 06 84 00 04 04 31
16:22:37.444 设备接收:08 03 08 00 00 8A 0A 00 0F 1C 46 85 11
16:22:37.459 设备发送:08 03 04 04 00 01 C4 62
16:22:38.272 设备接收:08 03 02 00 02 E5 84
16:22:38.288 设备发送:09 03 04 84 00 04 04 58
16:22:39.082 设备接收:09 03 08 13 85 02 0B 00 14 02 0B 8E E6
16:22:39.098 设备发送:09 03 04 8D 00 21 15 81
16:22:39.927 设备接收:09 03 42 08 D8 03 30 00 00 00 00 00 00 00 00 00 00 00 00 00 00 00 00 00 00 08 D8 03 45 00 00 00 00 00 00 00 00 00 00 00 00 00 00 00 00 00 00 08 E3 03 51 00 00 00 00 00 00 00 00 00 00 00 00 00 00 00 00 00 00 8E BD
16:22:39.941 设备发送:09 03 06 84 00 04 05 E0
16:22:40.736 设备接收:09 03 08 00 00 7C EC 00 0D C0 2A 65 80
16:22:40.752 设备发送:09 03 04 04 00 01 C5 B3
16:22:41.538 设备接收:09 03 02 00 02 D8 44
16:22:41.554 设备发送:0A 03 04 84 00 04 04 6B
16:22:42.393 设备发送:0A 03 04 84 00 04 04 6B
16:22:43.204 设备发送:0A 03 04 84 00 04 04 6B
16:22:44.019 设备发送:0A 03 04 8D 00 21 15 B2
16:22:44.844 设备发送:0A 03 04 8D 00 21 15 B2
16:22:45.671 设备发送:0A 03 04 8D 00 21 15 B2
16:22:46.482 设备发送:0A 03 06 84 00 04 05 D3
16:22:47.293 设备发送:0A 03 06 84 00 04 05 D3
16:22:48.126 设备发送:0A 03 06 84 00 04 05 D3
16:22:48.937 设备发送:0A 03 04 04 00 01 C5 80
16:22:49.767 设备发送:0A 03 04 04 00 01 C5 80
16:22:50.582 设备发送:0A 03 04 04 00 01 C5 80
16:22:51.422 设备发送:01 03 04 84 00 04 05 10
16:22:52.236 设备发送:01 03 04 84 00 04 05 10
16:22:53.047 设备发送:01 03 04 84 00 04 05 10
16:22:53.877 设备发送:01 03 04 8D 00 21 14 C9
16:22:54.689 设备发送:01 03 04 8D 00 21 14 C9
16:22:55.528 设备发送:01 03 04 8D 00 21 14 C9
16:22:56.340 设备发送:01 03 06 84 00 04 04 A8
16:22:57.151 设备发送:01 03 06 84 00 04 04 A8
16:22:57.979 设备发送:01 03 06 84 00 04 04 A8
16:22:58.791 设备发送:01 03 04 04 00 01 C4 FB
16:22:59.606 设备发送:01 03 04 04 00 01 C4 FB
16:23:00.415 设备发送:01 03 04 04 00 01 C4 FB
16:23:01.225 设备发送:02 03 04 84 00 04 05 23
16:23:02.069 设备发送:02 03 04 84 00 04 05 23
16:23:02.883 设备发送:02 03 04 84 00 04 05 23
16:23:03.709 设备发送:02 03 04 8D 00 21 14 FA
16:23:04.538 设备发送:02 03 04 8D 00 21 14 FA
16:23:05.349 设备发送:02 03 04 8D 00 21 14 FA
16:23:06.175 设备发送:02 03 06 84 00 04 04 9B
16:23:07.004 设备发送:02 03 06 84 00 04 04 9B
16:23:07.784 设备发送:02 03 06 84 00 04 04 9B
16:23:08.628 设备发送:02 03 04 04 00 01 C4 C8
16:23:09.459 设备发送:02 03 04 04 00 01 C4 C8
16:23:10.269 设备发送:02 03 04 04 00 01 C4 C8
16:23:11.078 设备发送:03 03 04 84 00 04 04 F2
16:23:11.892 设备发送:03 03 04 84 00 04 04 F2
16:23:12.738 设备发送:03 03 04 84 00 04 04 F2
16:23:13.549 设备发送:03 03 04 8D 00 21 15 2B
16:23:14.360 设备发送:03 03 04 8D 00 21 15 2B
16:23:15.188 设备发送:03 03 04 8D 00 21 15 2B
16:23:16.000 设备发送:03 03 06 84 00 04 05 4A
16:23:16.826 设备发送:03 03 06 84 00 04 05 4A
16:23:17.636 设备发送:03 03 06 84 00 04 05 4A
16:23:18.464 设备发送:03 03 04 04 00 01 C5 19
16:23:19.274 设备发送:03 03 04 04 00 01 C5 19
16:23:20.121 设备发送:03 03 04 04 00 01 C5 19
16:23:20.935 设备发送:04 03 04 84 00 04 05 45
16:23:21.745 设备发送:04 03 04 84 00 04 05 45
16:23:22.555 设备接收:04 03 08 13 86 02 62 00 00 02 62 5A 69
16:23:22.571 设备发送:04 03 04 8D 00 21 14 9C
16:23:23.399 设备发送:04 03 04 8D 00 21 14 9C
16:23:24.210 设备发送:04 03 04 8D 00 21 14 9C
16:23:25.023 设备发送:04 03 06 84 00 04 04 FD
16:23:25.839 设备发送:04 03 06 84 00 04 04 FD
16:23:26.650 设备发送:04 03 06 84 00 04 04 FD
16:23:27.459 设备接收:04 03 08 00 00 94 B1 00 10 A0 EF DC 9C
16:23:27.475 设备发送:04 03 04 04 00 01 C4 AE
16:23:28.293 设备接收:04 03 02 00 02 F5 85
16:23:28.308 设备发送:05 03 04 84 00 04 04 94
16:23:29.103 设备接收:05 03 08 13 86 01 DB FF FF 01 DB 02 1B
16:23:29.118 设备发送:05 03 04 8D 00 21 15 4D
