
09:48:31.071 设备接收:FF FF FF FF FF FF FF
09:48:31.113 设备发送:01 03 04 04 00 01 C4 FB
09:48:34.099 设备接收:FF FF FF FF FF FF FF
09:48:34.130 设备发送:02 03 04 84 00 04 05 23
09:48:37.127 设备接收:FF FF FF FF FF FF FF
09:48:37.143 设备发送:02 03 04 8D 00 21 14 FA
09:48:40.148 设备接收:FF FF FF FF FF FF 02 03 42 09 08 19 CF 00 00 00 00 00 00 00 00 00 00 00 00 00 00 00 00 00 00 09 1C 19 D5 00 00 00 00 00 00 00 00 00 00 00 00 00 00 00 00 00 00 09 15 19 DE 00 00 00 00 00 00 00 00 00 00 00 00 00 00 00 00 00 00 D1 DE
09:48:40.163 设备发送:02 03 06 84 00 04 04 9B
09:48:43.174 设备发送:02 03 04 04 00 01 C4 C8
09:48:43.207 设备接收:FF FF FF FF FF FF
09:48:46.183 设备接收:FF FF FF FF FF FF FF
09:48:46.199 设备发送:03 03 04 84 00 04 04 F2
09:48:49.183 设备接收:FF FF FF FF FF FF FF 03 03 08 13 85 13 C2 FF D5 13 C2 DD 81
09:48:49.214 设备发送:03 03 04 8D 00 21 15 2B
09:48:52.239 设备接收:FF FF FF FF FF FF FF FF 03 03 42 09 08 1C 68 00 00 00 00 00 00 00 00 00 00 00 00 00 00 00 00 00 00 09 21 1C 59 00 00 00 00 00 00 00 00 00 00 00 00 00 00 00 00 00 00 09 1A 1C 70 00 00 00 00 00 00 00 00 00 00 00 00 00 00 00 00 00 00 5C 75
09:48:52.255 设备发送:03 03 06 84 00 04 05 4A
09:48:55.250 设备接收:FF FF FF FF FF FF FF FF
09:48:55.265 设备发送:03 03 04 04 00 01 C5 19
09:48:58.245 设备接收:FF FF FF FF FF FF FF
09:48:58.292 设备发送:04 03 04 84 00 04 05 45
09:49:01.279 设备接收:FF FF FF FF FF FF FF
09:49:01.311 设备发送:04 03 04 8D 00 21 14 9C
09:49:04.308 设备接收:FF FF FF FF FF FF 04 03 42 09 0E 17 F6 00 00 00 00 00 00 00 00 00 00 00 00 00 00 00 00 00 00 08 FD 17 EC 00 00 00 00 00 00 00 00 00 00 00 00 00 00 00 00 00 00 09 19 17 EE 00 00 00 00 00 00 00 00 00 00 00 00 00 00 00 00 00 00 B6 10
09:49:04.323 设备发送:04 03 06 84 00 04 04 FD
09:49:07.331 设备接收:FF FF FF FF FF FF
09:49:07.350 设备发送:04 03 04 04 00 01 C4 AE
09:49:10.349 设备接收:FF FF FF FF FF FF FF
09:49:10.365 设备发送:05 03 04 84 00 04 04 94
09:49:13.356 设备接收:FF FF FF FF FF FF EF
09:49:13.372 设备发送:05 03 04 8D 00 21 15 4D
09:49:16.369 设备接收:FF FF FF FF FF FF FF FF 05 03 42 09 07 14 40 00 00 00 00 00 00 00 00 00 00 00 00 00 00 00 00 00 00 09 0F 14 30 00 00 00 00 00 00 00 00 00 00 00 00 00 00 00 00 00 00 09 13 14 3B 00 00 00 00 00 00 00 00 00 00 00 00 00 00 00 00 00 00 E8 05
09:49:16.385 设备发送:05 03 06 84 00 04 05 2C
09:49:19.396 设备接收:FF FF FF B4 BD 55 FF 5C
09:49:19.412 设备发送:05 03 04 04 00 01 C5 7F
09:49:22.440 设备发送:05 03 04 04 00 01 C5 7F
09:49:25.466 设备发送:05 03 04 04 00 01 C5 7F
09:49:28.485 设备发送:06 03 04 84 00 04 04 A7
09:49:31.498 设备接收:FF FF FF 06 03 08 13 89 0D BB FF E1 0D BB 17 B5
09:49:31.514 设备发送:06 03 04 8D 00 21 15 7E
09:49:34.512 设备接收:FF FF FF FF FF FF FF 06 03 42 09 0C 13 BF 00 00 00 00 00 00 00 00 00 00 00 00 00 00 00 00 00 00 09 11 13 BB 00 00 00 00 00 00 00 00 00 00 00 00 00 00 00 00 00 00 09 17 13 D5 00 00 00 00 00 00 00 00 00 00 00 00 00 00 00 00 00 00 50 10
09:49:34.527 设备发送:06 03 06 84 00 04 05 1F
09:49:37.523 设备接收:FF FF FF 06 03 08 00 00 08 D1 00 0E 2A AD CD E7
09:49:37.538 设备发送:06 03 04 04 00 01 C5 4C
09:49:40.579 设备发送:06 03 04 04 00 01 C5 4C
09:49:43.581 设备发送:06 03 04 04 00 01 C5 4C
09:49:46.602 设备发送:07 03 04 84 00 04 05 76
09:49:49.594 设备接收:FF FF FF FF FF FF FF FF 07 03 08 13 8C 07 66 FF C7 07 68 0C 06
09:49:49.609 设备发送:07 03 04 8D 00 21 14 AF
09:49:52.620 设备接收:FF FF FF FF FF FF FF 07 03 42 09 0F 0A A9 00 00 00 00 00 00 00 00 00 00 00 00 00 00 00 00 00 00 09 09 0A B0 00 00 00 00 00 00 00 00 00 00 00 00 00 00 00 00 00 00 09 0E 0A A8 00 00 00 00 00 00 00 00 00 00 00 00 00 00 00 00 00 00 7C 2C
09:49:52.635 设备发送:07 03 06 84 00 04 04 CE
09:49:55.628 设备接收:FF FF FF FF FF FF FF 07 03 08 00 00 05 07 00 07 06 C9 4C FD
09:49:55.643 设备发送:07 03 04 04 00 01 C4 9D
09:49:58.667 设备接收:FF FF FF FF FF FF FF 07 03 02 00 02 B1 85
09:49:58.684 设备发送:08 03 04 84 00 04 05 89
09:50:01.690 设备接收:FF FF FF FF FF FF 08 03 08 13 8B 0F 97 FF A3 0F 98 70 14
09:50:01.706 设备发送:08 03 04 8D 00 21 14 50
09:50:04.700 设备接收:FF FF FF FF FF FF FF 08 03 42 08 FD 16 AD 00 00 00 00 00 00 00 00 00 00 00 00 00 00 00 00 00 00 08 F3 16 A4 00 00 00 00 00 00 00 00 00 00 00 00 00 00 00 00 00 00 09 04 16 BE 00 00 00 00 00 00 00 00 00 00 00 00 00 00 00 00 00 00 35 3F
09:50:04.731 设备发送:08 03 06 84 00 04 04 31
09:50:07.727 设备接收:FF FF FF FF FF FF FF 08 03 08 00 00 0A 14 00 0F 4E FB CF C2
09:50:07.743 设备发送:08 03 04 04 00 01 C4 62
09:50:10.723 设备接收:FF FF FF FF FF FF FF 08 03 02 00 02 E5 84
09:50:10.769 设备发送:09 03 04 84 00 04 04 58
09:50:13.770 设备接收:FF FF FF FF FF FF FF FF 09 03 08 13 8C 0D AB FF AD 0D AC 32 BB
09:50:13.787 设备发送:09 03 04 8D 00 21 15 81
09:50:16.768 设备接收:FF FF FF FF FF FF FF 09 03 42 09 06 13 BE 00 00 00 00 00 00 00 00 00 00 00 00 00 00 00 00 00 00 08 FB 13 CC 00 00 00 00 00 00 00 00 00 00 00 00 00 00 00 00 00 00 09 0F 13 CC 00 00 00 00 00 00 00 00 00 00 00 00 00 00 00 00 00 00 EA BE
09:50:16.783 设备发送:09 03 06 84 00 04 05 E0
09:50:19.796 设备接收:FF FF FF FF FF FF FF 09 03 08 00 00 08 E0 00 0D EE 23 A2 93
09:50:19.811 设备发送:09 03 04 04 00 01 C5 B3
09:50:22.830 设备接收:FF FF FF FF FF FF FF 09 03 02 00 02 D8 44
09:50:22.851 设备发送:0A 03 04 84 00 04 04 6B
09:50:25.827 设备接收:FF FF FF FF FF FF FF
09:50:25.859 设备发送:0A 03 04 8D 00 21 15 B2
09:50:28.851 设备接收:FF FF FF FF FF FF
09:50:28.883 设备发送:0A 03 06 84 00 04 05 D3
09:50:31.862 设备接收:FF FF FF FF FF FF
09:50:31.908 设备发送:0A 03 04 04 00 01 C5 80
09:50:34.888 设备接收:FF FF FF FF FF FF FF
09:50:34.936 设备发送:01 03 04 84 00 04 05 10
09:50:37.926 设备接收:FF FF FF FF FF FF FF FF
09:50:37.942 设备发送:01 03 04 8D 00 21 14 C9
09:50:40.920 设备接收:FF FF FF FF FF FF FF 01 03 42 09 0C 1C 3F 00 00 00 00 00 00 00 00 00 00 00 00 00 00 00 00 00 00 09 22 1C 47 00 00 00 00 00 00 00 00 00 00 00 00 00 00 00 00 00 00 09 1E 1C 54 00 00 00 00 00 00 00 00 00 00 00 00 00 00 00 00 00 00 26 05
09:50:40.966 设备发送:01 03 06 84 00 04 04 A8
09:50:43.962 设备接收:FF FF FF FF FF FF FF
09:50:43.993 设备发送:01 03 04 04 00 01 C4 FB
09:50:46.989 设备接收:FF FF FF FF FF FF FF
09:50:47.005 设备发送:02 03 04 84 00 04 05 23
09:50:50.000 设备接收:FF FF FF FF FF FF FF
09:50:50.015 设备发送:02 03 04 8D 00 21 14 FA
09:50:53.024 设备接收:FF FF FF FF FF FF 02 03 42 09 0C 1B 45 00 00 00 00 00 00 00 00 00 00 00 00 00 00 00 00 00 00 09 21 1B 4F 00 00 00 00 00 00 00 00 00 00 00 00 00 00 00 00 00 00 09 19 1B 58 00 00 00 00 00 00 00 00 00 00 00 00 00 00 00 00 00 00 DD 0D
09:50:53.041 设备发送:02 03 06 84 00 04 04 9B
09:50:56.046 设备接收:FF FF FF FF FF FF
09:50:56.062 设备发送:02 03 04 04 00 01 C4 C8
09:50:59.044 设备接收:FF FF FF FF FF FF FF
09:50:59.091 设备发送:03 03 04 84 00 04 04 F2
09:51:01.01700

