
13:33:07.538 设备接收:02 03 1E 1F 00 03 15 02 72 1F 35 03 21 02 80 1E C8 06 64 05 09 1F 1B 03 2B 02 86 1E D8 03 53 02 A0 37 2B
13:33:07.560 设备发送:02 03 05 A2 00 0F A4 D3
13:33:08.558 设备接收:02 03 1E 00 00 00 04 00 00 00 00 00 00 00 00 00 00 00 00 00 00 00 00 00 00 00 00 00 00 00 00 00 00 92 31
13:33:08.575 设备发送:02 03 05 B1 00 03 55 13
13:33:09.592 设备接收:02 03 06 00 00 00 00 00 00 35 85
13:33:09.607 设备发送:02 03 04 2B 00 01 F5 01
13:33:10.590 设备接收:02 03 02 02 E2 7D 6D
13:33:10.636 设备发送:02 03 04 20 00 01 84 C3
13:33:11.619 设备接收:02 03 02 00 45 3D B7
13:33:11.649 设备发送:02 03 04 05 00 01 95 08
13:33:12.648 设备发送:02 03 04 05 00 01 95 08
13:33:13.648 设备接收:02 03 02 00 00 FC 44
13:33:13.694 设备发送:03 03 04 84 00 04 04 F2
13:33:14.697 设备接收:03 03 08 13 89 1E FD 00 34 1E FD 20 3B
13:33:14.714 设备发送:03 03 04 8D 00 21 15 2B
13:33:15.703 设备接收:03 03 42 09 04 2C 5C 00 00 00 00 00 00 00 00 00 00 00 00 00 00 00 00 00 00 09 2E 2C 4B 00 00 00 00 00 00 00 00 00 00 00 00 00 00 00 00 00 00 09 19 2C 52 00 00 00 00 00 00 00 00 00 00 00 00 00 00 00 00 00 00 E9 C4
13:33:15.749 设备发送:03 03 06 84 00 04 05 4A
13:33:16.723 设备接收:03 03 08 00 00 6B 2D 00 13 F7 8C 8C E2
13:33:16.769 设备发送:03 03 04 04 00 01 C5 19
13:33:17.737 设备接收:03 03 02 00 02 40 45
13:33:17.752 设备发送:03 03 05 84 00 0F 44 C9
13:33:18.763 设备接收:03 03 1E 1E AE 06 C1 05 4E 1E 9A 06 C8 05 50 1E 92 06 AC 05 38 1E B4 06 9E 05 34 16 BB 06 B4 03 E6 45 E7
13:33:18.778 设备发送:03 03 05 93 00 0F F4 CD
13:33:19.792 设备接收:03 03 1E 05 0C 00 00 00 00 13 72 04 AF 02 55 1B 3C 03 69 02 60 1B 83 03 63 02 62 05 10 00 00 00 00 B3 16
13:33:19.824 设备发送:03 03 05 A2 00 0F A5 02
13:33:20.807 设备接收:03 03 1E 00 0D 00 00 00 00 00 00 00 00 00 00 00 00 00 00 00 00 00 00 00 00 00 00 00 00 00 00 00 00 C1 72
13:33:20.823 设备发送:03 03 05 B1 00 03 54 C2
13:33:21.837 设备发送:03 03 04 2B 00 01 F4 D0
13:33:21.859 设备接收:03 03 06 00 00 00 00 00 00 38 15
13:33:22.860 设备接收:03 03 02 02 E2 40 AD
13:33:22.891 设备发送:03 03 04 20 00 01 85 12
13:33:23.893 设备接收:03 03 02 00 26 40 5E
13:33:23.909 设备发送:03 03 04 05 00 01 94 D9
13:33:24.888 设备接收:03 03 02 00 00 C1 84
13:33:24.904 设备发送:01 03 04 84 00 04 05 10
13:33:25.907 设备接收:01 03 08 13 8B 1E 32 FF BE 1E 32 0D F9
13:33:25.939 设备发送:01 03 04 8D 00 21 14 C9
13:33:26.938 设备接收:01 03 42 09 05 2B 2E 00 00 00 00 00 00 00 00 00 00 00 00 00 00 00 00 00 00 09 2B 2B 3E 00 00 00 00 00 00 00 00 00 00 00 00 00 00 00 00 00 00 09 1B 2B 38 00 00 00 00 00 00 00 00 00 00 00 00 00 00 00 00 00 00 D5 4E
13:33:26.953 设备发送:01 03 06 84 00 04 04 A8
13:33:27.963 设备接收:01 03 08 00 00 67 C4 00 13 25 FB C6 C7
13:33:27.979 设备发送:01 03 04 04 00 01 C4 FB
13:33:28.982 设备接收:01 03 02 00 02 39 85
13:33:28.997 设备发送:01 03 05 84 00 0F 45 2B
13:33:29.983 设备接收:01 03 1E 1F 0E 06 60 05 12 1F 06 06 6D 05 1A 1E D1 06 5C 05 04 1E FA 06 68 05 15 16 D5 03 44 01 E9 E5 A0
13:33:29.998 设备发送:01 03 05 93 00 0F F5 2F
13:33:31.011 设备接收:01 03 1E 00 00 00 00 00 00 19 DE 06 B7 04 72 1B 92 03 58 02 5C 1B CF 03 50 02 5C 00 00 00 08 00 01 D2 AE
13:33:31.041 设备发送:01 03 05 A2 00 0F A4 E0
13:33:32.013 设备接收:01 03 1E 00 00 00 00 00 00 00 00 00 00 00 00 00 00 00 00 00 00 00 00 00 00 00 00 00 00 00 00 00 00 D8 BA
13:33:32.032 设备发送:01 03 05 B1 00 03 55 20
13:33:33.048 设备接收:01 03 06 00 00 00 00 00 00 21 75
13:33:33.064 设备发送:01 03 04 2B 00 01 F5 32
13:33:34.066 设备接收:01 03 02 02 E1 79 6C
13:33:34.083 设备发送:01 03 04 20 00 01 84 F0
13:33:35.099 设备发送:01 03 04 20 00 01 84 F0
13:33:36.116 设备接收:01 03 02 00 23 F9 9D
13:33:36.132 设备发送:01 03 04 05 00 01 95 3B
13:33:37.148 设备接收:01 03 02 00 00 B8 44
13:33:37.165 设备发送:02 03 04 84 00 04 05 23
13:33:38.148 设备接收:02 03 08 13 8B 1C DB FF C5 1C DB EE 7F
13:33:38.164 设备发送:02 03 04 8D 00 21 14 FA
13:33:39.174 设备接收:02 03 42 09 06 29 45 00 00 00 00 00 00 00 00 00 00 00 00 00 00 00 00 00 00 09 2C 29 64 00 00 00 00 00 00 00 00 00 00 00 00 00 00 00 00 00 00 09 16 29 5C 00 00 00 00 00 00 00 00 00 00 00 00 00 00 00 00 00 00 3B F2
13:33:39.190 设备发送:02 03 06 84 00 04 04 9B
13:33:40.205 设备接收:02 03 08 00 00 63 91 00 13 6E 9A 33 13
13:33:40.222 设备发送:02 03 04 04 00 01 C4 C8
13:33:41.208 设备接收:02 03 02 00 02 7D 85
13:33:41.223 设备发送:02 03 05 84 00 0F 45 18
13:33:42.239 设备接收:02 03 1E 1E DD 03 1B 02 74 1E F3 03 17 02 73 1F 37 03 1F 02 7F 1F 51 06 29 04 F0 1F 42 03 0D 02 71 42 C5
13:33:42.253 设备发送:02 03 05 93 00 0F F5 1C
13:33:43.271 设备接收:02 03 1E 1E FF 03 15 02 72 1F 32 03 20 02 7F 1E C6 06 5B 05 02 1E F0 03 2D 02 84 1E D6 03 52 02 9F DA AE
13:33:43.286 设备发送:02 03 05 A2 00 0F A4 D3
13:33:44.297 设备接收:02 03 1E 00 00 00 04 00 00 00 00 00 00 00 00 00 00 00 00 00 00 00 00 00 00 00 00 00 00 00 00 00 00 92 31
13:33:44.313 设备发送:02 03 05 B1 00 03 55 13
13:33:45.298 设备接收:02 03 06 00 00 00 00 00 00 35 85
13:33:45.313 设备发送:02 03 04 2B 00 01 F5 01
13:33:46.313 设备接收:02 03 02 02 E2 7D 6D
13:33:46.328 设备发送:02 03 04 20 00 01 84 C3
13:33:47.327 设备接收:02 03 02 00 45 3D B7
13:33:47.336 设备发送:02 03 04 05 00 01 95 08
13:33:48.387 设备发送:02 03 04 05 00 01 95 08
13:33:49.385 设备发送:02 03 04 05 00 01 95 08
13:33:50.400 设备接收:02 03 02 00 00 FC 44
13:33:50.415 设备发送:03 03 04 84 00 04 04 F2
13:33:51.415 设备接收:03 03 08 13 8B 1E E9 FF C0 1E E9 42 11
13:33:51.430 设备发送:03 03 04 8D 00 21 15 2B
13:33:52.444 设备接收:03 03 42 09 02 2C 28 00 00 00 00 00 00 00 00 00 00 00 00 00 00 00 00 00 00 09 2F 2C 1B 00 00 00 00 00 00 00 00 00 00 00 00 00 00 00 00 00 00 09 1B 2C 22 00 00 00 00 00 00 00 00 00 00 00 00 00 00 00 00 00 00 44 40
13:33:52.459 设备发送:03 03 06 84 00 04 05 4A
13:33:53.456 设备接收:03 03 08 00 00 6B 7C 00 13 F7 94 71 24
13:33:53.471 设备发送:03 03 04 04 00 01 C5 19
13:33:54.463 设备接收:03 03 02 00 02 40 45
13:33:54.479 设备发送:03 03 05 84 00 0F 44 C9
13:33:55.513 设备接收:03 03 1E 1E AB 06 C0 05 4D 1E 75 06 CF 05 4F 1E DC 06 95 05 33 1E 8C 06 A4 05 31 16 B4 06 B2 03 E4 8F 9B
13:33:55.527 设备发送:03 03 05 93 00 0F F4 CD
13:33:56.499 设备接收:03 03 1E 05 0C 00 00 00 00 13 77 04 A3 02 4F 1B 3E 03 66 02 5F 1B 5C 03 61 02 5E 05 11 00 00 00 00 24 40
13:33:56.545 设备发送:03 03 05 A2 00 0F A5 02
13:33:57.556 设备接收:03 03 1E 00 0F 00 00 00 00 00 00 00 00 00 00 00 00 00 00 00 00 00 00 00 00 00 00 00 00 00 00 00 00 41 71
13:33:57.572 设备发送:03 03 05 B1 00 03 54 C2
13:33:58.541 设备接收:03 03 06 00 00 00 00 00 00 38 15
13:33:58.587 设备发送:03 03 04 2B 00 01 F4 D0
13:33:59.576 设备接收:03 03 02 02 E2 40 AD
13:33:59.592 设备发送:03 03 04 20 00 01 85 12
13:34:00.591 设备接收:03 03 02 00 26 40 5E
13:34:00.607 设备发送:03 03 04 05 00 01 94 D9
13:34:01.605 设备接收:03 03 02 00 00 C1 84
13:34:01.620 设备发送:01 03 04 84 00 04 05 10
13:34:02.625 设备接收:01 03 08 13 8B 1E 08 FF 4F 1E 0A 85 DD
13:34:02.640 设备发送:01 03 04 8D 00 21 14 C9
13:34:03.637 设备接收:01 03 42 09 04 2A EC 00 00 00 00 00 00 00 00 00 00 00 00 00 00 00 00 00 00 09 2B 2A F8 00 00 00 00 00 00 00 00 00 00 00 00 00 00 00 00 00 00 09 1C 2A F6 00 00 00 00 00 00 00 00 00 00 00 00 00 00 00 00 00 00 6D CE
13:34:03.715 设备发送:01 03 06 84 00 04 04 A8
13:34:04.666 设备发送:01 03 04 04 00 01 C4 FB
13:34:04.697 设备接收:01 03 08 00 00 68 15 00 13 26 03 3B 58
13:34:05.694 设备接收:01 03 02 00 02 39 85
13:34:05.710 设备发送:01 03 05 84 00 0F 45 2B
13:34:06.710 设备接收:01 03 1E 1F 0C 06 58 05 0B 1F 53 06 53 05 13 1E F4 06 4D 04 FE 1E F6 06 62 05 0F 16 D1 03 41 01 E6 EA 2B
13:34:06.725 设备发送:01 03 05 93 00 0F F5 2F
13:34:07.738 设备接收:01 03 1E 00 00 00 00 00 00 19 D9 06 AE 04 6B 1B B6 03 4D 02 57 1B F4 03 47 02 58 00 00 00 08 00 01 C4 75
13:34:07.753 设备发送:01 03 05 A2 00 0F A4 E0
13:34:08.751 设备接收:01 03 1E 00 00 00 00 00 00 00 00 00 00 00 00 00 00 00 00 00 00 00 00 00 00 00 00 00 00 00 00 00 00 D8 BA
13:34:08.782 设备发送:01 03 05 B1 00 03 55 20
13:34:09.779 设备接收:01 03 06 00 00 00 00 00 00 21 75
13:34:09.795 设备发送:01 03 04 2B 00 01 F5 32
13:34:10.779 设备接收:01 03 02 02 E1 79 6C
13:34:10.811 设备发送:01 03 04 20 00 01 84 F0
13:34:11.804 设备接收:01 03 02 00 23 F9 9D
13:34:11.820 设备发送:01 03 04 05 00 01 95 3B
13:34:12.833 设备接收:01 03 02 00 00 B8 44
13:34:12.849 设备发送:02 03 04 84 00 04 05 23
13:34:13.834 设备接收:02 03 08 13 8C 1C C3 FF C5 1C C3 B8 B7
13:34:13.865 设备发送:02 03 04 8D 00 21 14 FA
13:34:14.877 设备接收:02 03 42 09 04 29 25 00 00 00 00 00 00 00 00 00 00 00 00 00 00 00 00 00 00 09 2C 29 45 00 00 00 00 00 00 00 00 00 00 00 00 00 00 00 00 00 00 09 15 29 3E 00 00 00 00 00 00 00 00 00 00 00 00 00 00 00 00 00 00 3C D4
13:34:14.892 设备发送:02 03 06 84 00 04 04 9B
13:34:15.890 设备接收:02 03 08 00 00 63 D9 00 13 6E A2 D2 CF
13:34:15.906 设备发送:02 03 04 04 00 01 C4 C8
13:34:16.923 设备接收:02 03 02 00 02 7D 85
13:34:16.939 设备发送:02 03 05 84 00 0F 45 18
13:34:17.935 设备接收:02 03 1E 1E B6 03 1A 02 71 1F 1B 03 0F 02 70 1F 11 03 1B 02 78 1F 2A 06 24 04 E6 1F 1E 03 0E 02 6F 2B A3
13:34:17.951 设备发送:02 03 05 93 00 0F F5 1C
13:34:18.948 设备接收:02 03 1E 1E FE 03 10 02 6E 1F 0A 03 1C 02 78 1F 13 06 44 04 FC 1E F1 03 29 02 81 1E AD 03 50 02 9A 3D B3
13:34:18.963 设备发送:02 03 05 A2 00 0F A4 D3
13:34:19.980 设备接收:02 03 1E 00 00 00 04 00 00 00 00 00 00 00 00 00 00 00 00 00 00 00 00 00 00 00 00 00 00 00 00 00 00 92 31
13:34:19.995 设备发送:02 03 05 B1 00 03 55 13
13:34:20.996 设备接收:02 03 06 00 00 00 00 00 00 35 85
13:34:21.011 设备发送:02 03 04 2B 00 01 F5 01
13:34:21.996 设备接收:02 03 02 02 E2 7D 6D
13:34:22.028 设备发送:02 03 04 20 00 01 84 C3
13:34:23.027 设备接收:02 03 02 00 44 FC 77
13:34:23.058 设备发送:02 03 04 05 00 01 95 08
13:34:24.071 设备发送:02 03 04 05 00 01 95 08
13:34:25.068 设备接收:02 03 02 00 00 FC 44
13:34:25.083 设备发送:03 03 04 84 00 04 04 F2
13:34:26.099 设备接收:03 03 08 13 8B 1E B8 FF BE 1E B8 1E 39
13:34:26.114 设备发送:03 03 04 8D 00 21 15 2B
13:34:27.130 设备接收:03 03 42 09 03 2B E7 00 00 00 00 00 00 00 00 00 00 00 00 00 00 00 00 00 00 09 30 2B D9 00 00 00 00 00 00 00 00 00 00 00 00 00 00 00 00 00 00 09 1C 2B E1 00 00 00 00 00 00 00 00 00 00 00 00 00 00 00 00 00 00 F6 47
13:34:27.145 设备发送:03 03 06 84 00 04 05 4A
13:34:28.127 设备接收:03 03 08 00 00 6B C8 00 13 F7 9C C0 F8
13:34:28.142 设备发送:03 03 04 04 00 01 C5 19
13:34:29.159 设备接收:03 03 02 00 02 40 45
13:34:29.174 设备发送:03 03 05 84 00 0F 44 C9
13:34:30.187 设备接收:03 03 1E 1E AA 06 B6 05 45 1E 74 06 C5 05 47 1E DB 06 8B 05 2B 1E B2 06 93 05 2B 16 B2 06 AA 03 DF D8 EB
13:34:30.219 设备发送:03 03 05 93 00 0F F4 CD
13:34:31.218 设备接收:03 03 1E 05 0D 00 00 00 00 13 72 04 99 02 4A 1B 3C 03 60 02 5A 1B 5B 03 5E 02 5B 05 13 00 00 00 00 40 99
13:34:31.232 设备发送:03 03 05 A2 00 0F A5 02
13:34:32.204 设备接收:03 03 1E 00 0E 00 00 00 00 00 00 00 00 00 00 00 00 00 00 00 00 00 00 00 00 00 00 00 00 00 00 00 00 81 70
13:34:32.219 设备发送:03 03 05 B1 00 03 54 C2
13:34:33.218 设备接收:03 03 06 00 00 00 00 00 00 38 15
13:34:33.255 设备发送:03 03 04 2B 00 01 F4 D0
13:34:34.248 设备接收:03 03 02 02 E2 40 AD
13:34:34.264 设备发送:03 03 04 20 00 01 85 12
13:34:35.280 设备接收:03 03 02 00 26 40 5E
13:34:35.294 设备发送:03 03 04 05 00 01 94 D9
13:34:36.296 设备接收:03 03 02 00 00 C1 84
13:34:36.311 设备发送:01 03 04 84 00 04 05 10
13:34:37.313 设备接收:01 03 08 13 8C 1D EC FF C2 1D EC 92 69
13:34:37.328 设备发送:01 03 04 8D 00 21 14 C9
13:34:38.329 设备接收:01 03 42 09 05 2A C4 00 00 00 00 00 00 00 00 00 00 00 00 00 00 00 00 00 00 09 2C 2A D7 00 00 00 00 00 00 00 00 00 00 00 00 00 00 00 00 00 00 09 1D 2A D5 00 00 00 00 00 00 00 00 00 00 00 00 00 00 00 00 00 00 17 F8
13:34:38.345 设备发送:01 03 06 84 00 04 04 A8
13:34:39.347 设备接收:01 03 08 00 00 68 5D 00 13 26 0A 1B 50
13:34:39.363 设备发送:01 03 04 04 00 01 C4 FB
13:34:40.362 设备接收:01 03 02 00 02 39 85
13:34:40.408 设备发送:01 03 05 84 00 0F 45 2B
13:34:41.411 设备接收:01 03 1E 1F 0D 06 52 05 06 1F 05 06 5F 05 0F 1E F7 06 47 04 FA 1E F8 06 5A 05 09 16 D2 03 3E 01 E5 E8 C6
13:34:41.426 设备发送:01 03 05 93 00 0F F5 2F
13:34:42.413 设备接收:01 03 1E 00 00 00 00 00 00 19 DB 06 A9 04 68 1B 90 03 4F 02 55 1B A5 03 4E 02 56 00 00 00 06 00 00 30 B9
13:34:42.443 设备发送:01 03 05 A2 00 0F A4 E0
13:34:43.430 设备接收:01 03 1E 00 00 00 00 00 00 00 00 00 00 00 00 00 00 00 00 00 00 00 00 00 00 00 00 00 00 00 00 00 00 D8 BA
13:34:43.445 设备发送:01 03 05 B1 00 03 55 20
13:34:44.444 设备接收:01 03 06 00 00 00 00 00 00 21 75
13:34:44.459 设备发送:01 03 04 2B 00 01 F5 32
13:34:45.490 设备接收:01 03 02 02 E1 79 6C
13:34:45.569 设备发送:01 03 04 20 00 01 84 F0
13:34:46.488 设备接收:01 03 02 00 23 F9 9D
13:34:46.503 设备发送:01 03 04 05 00 01 95 3B
13:34:47.503 设备接收:01 03 02 00 00 B8 44
13:34:47.535 设备发送:02 03 04 84 00 04 05 23
13:34:48.563 设备发送:02 03 04 84 00 04 05 23
13:34:49.539 设备接收:02 03 08 13 8C 1C A6 00 33 1C A6 E4 B2
13:34:49.555 设备发送:02 03 04 8D 00 21 14 FA
13:34:50.585 设备接收:02 03 42 09 05 28 F4 00 00 00 00 00 00 00 00 00 00 00 00 00 00 00 00 00 00 09 2A 29 11 00 00 00 00 00 00 00 00 00 00 00 00 00 00 00 00 00 00 09 15 29 0C 00 00 00 00 00 00 00 00 00 00 00 00 00 00 00 00 00 00 3F DD
13:34:50.601 设备发送:02 03 06 84 00 04 04 9B
13:34:51.584 设备接收:02 03 08 00 00 64 23 00 13 6E A9 4A AB
13:34:51.631 设备发送:02 03 04 04 00 01 C4 C8
13:34:52.632 设备接收:02 03 02 00 02 7D 85
13:34:52.648 设备发送:02 03 05 84 00 0F 45 18
13:34:53.636 设备接收:02 03 1E 1F 2D 03 0B 02 6E 1E F4 03 10 02 6D 1F 0F 03 1B 02 78 1F 2A 06 22 04 E5 1E F3 03 10 02 6D 9E F1
13:34:53.651 设备发送:02 03 05 93 00 0F F5 1C
13:34:54.666 设备接收:02 03 1E 1F 4D 03 02 02 69 1F 09 03 1E 02 7A 1F 14 06 3F 04 F8 1E C8 03 29 02 7E 1E AD 03 4E 02 98 61 DC
13:34:54.682 设备发送:02 03 05 A2 00 0F A4 D3
13:34:55.668 设备接收:02 03 1E 00 00 00 04 00 00 00 00 00 00 00 00 00 00 00 00 00 00 00 00 00 00 00 00 00 00 00 00 00 00 92 31
13:34:55.715 设备发送:02 03 05 B1 00 03 55 13
13:34:56.715 设备接收:02 03 06 00 00 00 00 00 00 35 85
13:34:56.730 设备发送:02 03 04 2B 00 01 F5 01
13:34:57.728 设备接收:02 03 02 02 E2 7D 6D
13:34:57.743 设备发送:02 03 04 20 00 01 84 C3
13:34:58.742 设备发送:02 03 04 20 00 01 84 C3
13:34:59.745 设备接收:02 03 02 00 44 FC 77
13:34:59.792 设备发送:02 03 04 05 00 01 95 08
13:35:00.790 设备接收:02 03 02 00 00 FC 44
13:35:00.806 设备发送:03 03 04 84 00 04 04 F2
13:35:01.803 设备接收:03 03 08 13 8C 1E 95 FF 4B 1E 98 D5 15
13:35:01.819 设备发送:03 03 04 8D 00 21 15 2B
13:35:02.835 设备接收:03 03 42 09 02 2B D1 00 00 00 00 00 00 00 00 00 00 00 00 00 00 00 00 00 00 09 2D 2B C4 00 00 00 00 00 00 00 00 00 00 00 00 00 00 00 00 00 00 09 1A 2B CF 00 00 00 00 00 00 00 00 00 00 00 00 00 00 00 00 00 00 44 F7
13:35:02.850 设备发送:03 03 06 84 00 04 05 4A
13:35:03.848 设备接收:03 03 08 00 00 6C 17 00 13 F7 A4 55 4E
13:35:03.863 设备发送:03 03 04 04 00 01 C5 19
13:35:04.881 设备发送:03 03 04 04 00 01 C5 19
13:35:05.866 设备接收:03 03 02 00 02 40 45
13:35:05.882 设备发送:03 03 05 84 00 0F 44 C9
13:35:06.883 设备接收:03 03 1E 1E B0 06 B4 05 44 1E 9B 06 B9 05 44 1E 93 06 99 05 2A 1E 8F 06 96 05 27 16 92 06 AF 03 DC 07 A4
13:35:06.929 设备发送:03 03 05 93 00 0F F4 CD
13:35:07.925 设备接收:03 03 1E 05 0D 00 00 00 00 13 6C 04 98 02 49 1B 13 03 64 02 59 1B 31 03 5F 02 59 05 10 00 00 00 00 8D 5C
13:35:07.994 设备发送:03 03 05 A2 00 0F A5 02
13:35:08.929 设备接收:03 03 1E 00 0D 00 00 00 00 00 00 00 00 00 00 00 00 00 00 00 00 00 00 00 00 00 00 00 00 00 00 00 00 C1 72
13:35:09.022 设备发送:03 03 05 B1 00 03 54 C2
13:35:09.978 设备接收:03 03 06 00 00 00 00 00 00 38 15
13:35:09.993 设备发送:03 03 04 2B 00 01 F4 D0
13:35:10.979 设备接收:03 03 02 02 E2 40 AD
13:35:11.058 设备发送:03 03 04 20 00 01 85 12
13:35:11.995 设备接收:03 03 02 00 26 40 5E
13:35:12.073 设备发送:03 03 04 05 00 01 94 D9
13:35:13.029 设备接收:03 03 02 00 00 C1 84
13:35:13.044 设备发送:01 03 04 84 00 04 05 10
13:35:14.046 设备接收:01 03 08 13 8B 1D E7 00 32 1D E7 30 88
13:35:14.061 设备发送:01 03 04 8D 00 21 14 C9
13:35:15.047 设备接收:01 03 42 09 09 2A C4 00 00 00 00 00 00 00 00 00 00 00 00 00 00 00 00 00 00 09 2B 2A BB 00 00 00 00 00 00 00 00 00 00 00 00 00 00 00 00 00 00 09 1D 2A BD 00 00 00 00 00 00 00 00 00 00 00 00 00 00 00 00 00 00 32 28
13:35:15.078 设备发送:01 03 06 84 00 04 04 A8
13:35:16.079 设备接收:01 03 08 00 00 68 A9 00 13 26 12 AA 8F
13:35:16.110 设备发送:01 03 04 04 00 01 C4 FB
13:35:17.109 设备接收:01 03 02 00 02 39 85
13:35:17.124 设备发送:01 03 05 84 00 0F 45 2B
13:35:18.125 设备接收:01 03 1E 1E E4 06 58 05 04 1F 06 06 5D 05 0E 1F 1D 06 3E 04 F8 1F 1E 06 52 05 09 16 D1 03 3D 01 E4 EE 2A
13:35:18.140 设备发送:01 03 05 93 00 0F F5 2F
13:35:19.125 设备接收:01 03 1E 00 00 00 00 00 00 19 DC 06 A7 04 67 1B 8F 03 4C 02 53 1B CF 03 47 02 55 00 00 00 04 00 00 BB 2C
13:35:19.141 设备发送:01 03 05 A2 00 0F A4 E0
13:35:20.167 设备接收:01 03 1E 00 00 00 00 00 00 00 00 00 00 00 00 00 00 00 00 00 00 00 00 00 00 00 00 00 00 00 00 00 00 D8 BA
13:35:20.183 设备发送:01 03 05 B1 00 03 55 20
13:35:21.180 设备接收:01 03 06 00 00 00 00 00 00 21 75
13:35:21.212 设备发送:01 03 04 2B 00 01 F5 32
13:35:22.203 设备接收:01 03 02 02 E1 79 6C
13:35:22.219 设备发送:01 03 04 20 00 01 84 F0
13:35:23.207 设备接收:01 03 02 00 23 F9 9D
13:35:23.238 设备发送:01 03 04 05 00 01 95 3B
13:35:24.240 设备接收:01 03 02 00 00 B8 44
13:35:24.256 设备发送:02 03 04 84 00 04 05 23
13:35:25.271 设备接收:02 03 08 13 8C 1C 97 FF 56 1C 99 F9 6D
13:35:25.292 设备发送:02 03 04 8D 00 21 14 FA
13:35:26.286 设备接收:02 03 42 09 06 28 F0 00 00 00 00 00 00 00 00 00 00 00 00 00 00 00 00 00 00 09 2B 29 0F 00 00 00 00 00 00 00 00 00 00 00 00 00 00 00 00 00 00 09 17 29 02 00 00 00 00 00 00 00 00 00 00 00 00 00 00 00 00 00 00 A9 90
13:35:26.318 设备发送:02 03 06 84 00 04 04 9B
13:35:27.318 设备接收:02 03 08 00 00 64 6B 00 13 6E B0 6B 6F
13:35:27.333 设备发送:02 03 04 04 00 01 C4 C8
13:35:28.318 设备接收:02 03 02 00 02 7D 85
13:35:28.364 设备发送:02 03 05 84 00 0F 45 18
13:35:29.348 设备接收:02 03 1E 1E DB 03 15 02 6F 1E CB 03 13 02 6C 1E E3 03 1D 02 76 1F 4E 06 19 04 E3 1F 18 03 0B 02 6C 60 30
13:35:29.363 设备发送:02 03 05 93 00 0F F5 1C
13:35:30.377 设备接收:02 03 1E 1E D5 03 0E 02 69 1F 0A 03 1E 02 7A 1E C4 06 50 04 F9 1E F0 03 26 02 7E 1E D5 03 49 02 98 91 B4
13:35:30.392 设备发送:02 03 05 A2 00 0F A4 D3
13:35:31.390 设备接收:02 03 1E 00 00 00 03 00 00 00 00 00 00 00 00 00 00 00 00 00 00 00 00 00 00 00 00 00 00 00 00 00 00 6D 7D
13:35:31.405 设备发送:02 03 05 B1 00 03 55 13
13:35:32.394 设备接收:02 03 06 00 00 00 00 00 00 35 85
13:35:32.423 设备发送:02 03 04 2B 00 01 F5 01
13:35:33.440 设备接收:02 03 02 02 E2 7D 6D
13:35:33.456 设备发送:02 03 04 20 00 01 84 C3
13:35:34.453 设备发送:02 03 04 20 00 01 84 C3
13:35:35.468 设备接收:02 03 02 00 44 FC 77
13:35:35.483 设备发送:02 03 04 05 00 01 95 08
13:35:36.499 设备接收:02 03 02 00 00 FC 44
13:35:36.515 设备发送:03 03 04 84 00 04 04 F2
13:35:37.519 设备接收:03 03 08 13 8C 1E 87 00 36 1E 87 8C D2
13:35:37.534 设备发送:03 03 04 8D 00 21 15 2B
13:35:38.550 设备接收:03 03 42 09 03 2B AC 00 00 00 00 00 00 00 00 00 00 00 00 00 00 00 00 00 00 09 30 2B 9C 00 00 00 00 00 00 00 00 00 00 00 00 00 00 00 00 00 00 09 1D 2B AA 00 00 00 00 00 00 00 00 00 00 00 00 00 00 00 00 00 00 69 66
13:35:38.566 设备发送:03 03 06 84 00 04 05 4A
13:35:39.563 设备接收:03 03 08 00 00 6C 66 00 13 F7 AC 28 83
13:35:39.585 设备发送:03 03 04 04 00 01 C5 19
13:35:40.558 设备接收:03 03 02 00 02 40 45
13:35:40.606 设备发送:03 03 05 84 00 0F 44 C9
13:35:41.594 设备接收:03 03 1E 1E D6 06 AA 05 43 1E 98 06 B8 05 43 1E B9 06 8C 05 26 1E 65 06 9C 05 25 16 90 06 AC 03 DB C4 22
13:35:41.607 设备发送:03 03 05 93 00 0F F4 CD
13:35:42.606 设备接收:03 03 1E 05 0E 00 00 00 00 13 6D 04 92 02 46 1B 3C 03 5E 02 59 1B 33 03 60 02 5A 05 10 00 00 00 00 46 1E
13:35:42.638 设备发送:03 03 05 A2 00 0F A5 02
13:35:43.636 设备接收:03 03 1E 00 0C 00 00 00 00 00 00 00 00 00 00 00 00 00 00 00 00 00 00 00 00 00 00 00 00 00 00 00 00 01 73
13:35:43.656 设备发送:03 03 05 B1 00 03 54 C2
13:35:44.679 设备接收:03 03 06 00 00 00 00 00 00 38 15
13:35:44.694 设备发送:03 03 04 2B 00 01 F4 D0
13:35:45.664 设备接收:03 03 02 02 E2 40 AD
13:35:45.679 设备发送:03 03 04 20 00 01 85 12
13:35:46.694 设备接收:03 03 02 00 25 00 5F
13:35:46.725 设备发送:03 03 04 05 00 01 94 D9
13:35:47.711 设备接收:03 03 02 00 00 C1 84
13:35:47.726 设备发送:01 03 04 84 00 04 05 10
13:35:48.756 设备接收:01 03 08 13 8B 1D DE FF C0 1D DF 3C B8
13:35:48.772 设备发送:01 03 04 8D 00 21 14 C9
13:35:49.755 设备接收:01 03 42 09 04 2A B9 00 00 00 00 00 00 00 00 00 00 00 00 00 00 00 00 00 00 09 2B 2A C4 00 00 00 00 00 00 00 00 00 00 00 00 00 00 00 00 00 00 09 1D 2A C5 00 00 00 00 00 00 00 00 00 00 00 00 00 00 00 00 00 00 F3 26
13:35:49.771 设备发送:01 03 06 84 00 04 04 A8
13:35:50.799 设备接收:01 03 08 00 00 68 F5 00 13 26 19 3B 45
13:35:50.814 设备发送:01 03 04 04 00 01 C4 FB
13:35:51.812 设备接收:01 03 02 00 02 39 85
13:35:51.828 设备发送:01 03 05 84 00 0F 45 2B
13:35:52.826 设备接收:01 03 1E 1F 0A 06 51 05 04 1F 07 06 5B 05 0D 1E CF 06 4C 04 F7 1F 20 06 4F 05 06 16 F9 03 39 01 E5 8B 43
13:35:52.842 设备发送:01 03 05 93 00 0F F5 2F
13:35:53.843 设备接收:01 03 1E 00 00 00 01 00 00 19 DD 06 A4 04 65 1C 07 03 3C 02 52 1B CF 03 47 02 55 00 00 00 05 00 00 B6 83
13:35:53.858 设备发送:01 03 05 A2 00 0F A4 E0
13:35:54.857 设备接收:01 03 1E 00 00 00 00 00 00 00 00 00 00 00 00 00 00 00 00 00 00 00 00 00 00 00 00 00 00 00 00 00 00 D8 BA
13:35:54.888 设备发送:01 03 05 B1 00 03 55 20
13:35:55.874 设备接收:01 03 06 00 00 00 00 00 00 21 75
13:35:55.888 设备发送:01 03 04 2B 00 01 F5 32
13:35:56.909 设备接收:01 03 02 02 E1 79 6C
13:35:56.925 设备发送:01 03 04 20 00 01 84 F0
13:35:57.937 设备接收:01 03 02 00 23 F9 9D
13:35:57.952 设备发送:01 03 04 05 00 01 95 3B
13:35:58.936 设备接收:01 03 02 00 00 B8 44
13:35:58.957 设备发送:02 03 04 84 00 04 05 23
13:35:59.950 设备接收:02 03 08 13 8C 1C 7C FF C6 1C 7C 1C DC
13:35:59.966 设备发送:02 03 04 8D 00 21 14 FA
13:36:01.001 设备接收:02 03 42 09 05 28 B7 00 00 00 00 00 00 00 00 00 00 00 00 00 00 00 00 00 00 09 2C 28 D7 00 00 00 00 00 00 00 00 00 00 00 00 00 00 00 00 00 00 09 16 28 D1 00 00 00 00 00 00 00 00 00 00 00 00 00 00 00 00 00 00 FC DA
13:36:01.017 设备发送:02 03 06 84 00 04 04 9B
13:36:01.998 设备接收:02 03 08 00 00 64 B0 00 13 6E B7 4E BE
13:36:02.013 设备发送:02 03 04 04 00 01 C4 C8
13:36:03.054 设备接收:02 03 02 00 02 7D 85
13:36:03.069 设备发送:02 03 05 84 00 0F 45 18
13:36:04.052 设备发送:02 03 05 84 00 0F 45 18
13:36:05.083 设备接收:02 03 1E 1E DD 03 0F 02 6B 1E CC 03 0E 02 69 1E E5 03 18 02 72 1F 76 06 05 04 D9 1E F1 03 09 02 68 2C 7A
13:36:05.098 设备发送:02 03 05 93 00 0F F5 1C
13:36:06.095 设备接收:02 03 1E 1E B0 03 0D 02 65 1F 0D 03 16 02 74 1E EE 06 3D 04 F1 1E F2 03 1F 02 79 1F 00 03 40 02 94 38 C5
13:36:06.111 设备发送:02 03 05 A2 00 0F A4 D3
13:36:07.125 设备接收:02 03 1E 00 00 00 04 00 00 00 00 00 00 00 00 00 00 00 00 00 00 00 00 00 00 00 00 00 00 00 00 00 00 92 31
13:36:07.140 设备发送:02 03 05 B1 00 03 55 13
13:36:08.137 设备接收:02 03 06 00 00 00 00 00 00 35 85
13:36:08.151 设备发送:02 03 04 2B 00 01 F5 01
13:36:09.152 设备接收:02 03 02 02 E2 7D 6D
13:36:09.168 设备发送:02 03 04 20 00 01 84 C3
13:36:10.180 设备接收:02 03 02 00 44 FC 77
13:36:10.211 设备发送:02 03 04 05 00 01 95 08
13:36:11.179 设备接收:02 03 02 00 00 FC 44
13:36:11.194 设备发送:03 03 04 84 00 04 04 F2
13:36:12.212 设备接收:03 03 08 13 8B 1E 68 00 35 1E 68 9E 49
13:36:12.228 设备发送:03 03 04 8D 00 21 15 2B
13:36:13.224 设备接收:03 03 42 09 05 2B 91 00 00 00 00 00 00 00 00 00 00 00 00 00 00 00 00 00 00 09 2E 2B 6D 00 00 00 00 00 00 00 00 00 00 00 00 00 00 00 00 00 00 09 19 2B 79 00 00 00 00 00 00 00 00 00 00 00 00 00 00 00 00 00 00 BD 42
13:36:13.240 设备发送:03 03 06 84 00 04 05 4A
13:36:14.255 设备接收:03 03 08 00 00 6C B1 00 13 F7 B3 1D 59
13:36:14.286 设备发送:03 03 04 04 00 01 C5 19
13:36:15.286 设备接收:03 03 02 00 02 40 45
13:36:15.302 设备发送:03 03 05 84 00 0F 44 C9
13:36:16.301 设备接收:03 03 1E 1E AF 06 A8 05 3A 1E C1 06 A4 05 3A 1E B9 06 80 05 1D 1E 65 06 8E 05 1A 16 69 06 AB 03 D3 C4 65
13:36:16.317 设备发送:03 03 05 93 00 0F F4 CD
13:36:17.304 设备接收:03 03 1E 05 0C 00 00 00 00 13 67 04 8A 02 41 1B 14 03 5D 02 55 1B 0C 03 5E 02 55 05 0E 00 00 00 00 5A DD
13:36:17.318 设备发送:03 03 05 A2 00 0F A5 02
13:36:18.335 设备接收:03 03 1E 00 0E 00 00 00 00 00 00 00 00 00 00 00 00 00 00 00 00 00 00 00 00 00 00 00 00 00 00 00 00 81 70
13:36:18.366 设备发送:03 03 05 B1 00 03 54 C2
13:36:19.366 设备接收:03 03 06 00 00 00 00 00 00 38 15
13:36:19.381 设备发送:03 03 04 2B 00 01 F4 D0
13:36:20.384 设备接收:03 03 02 02 E2 40 AD
13:36:20.400 设备发送:03 03 04 20 00 01 85 12
13:36:21.385 设备接收:03 03 02 00 25 00 5F
13:36:21.400 设备发送:03 03 04 05 00 01 94 D9
13:36:22.414 设备接收:03 03 02 00 00 C1 84
13:36:22.446 设备发送:01 03 04 84 00 04 05 10
13:36:23.432 设备接收:01 03 08 13 8C 1D 97 FF C2 1D 97 36 40
13:36:23.448 设备发送:01 03 04 8D 00 21 14 C9
13:36:24.433 设备接收:01 03 42 09 04 2A 4D 00 00 00 00 00 00 00 00 00 00 00 00 00 00 00 00 00 00 09 2B 2A 58 00 00 00 00 00 00 00 00 00 00 00 00 00 00 00 00 00 00 09 1D 2A 55 00 00 00 00 00 00 00 00 00 00 00 00 00 00 00 00 00 00 F9 09
13:36:24.480 设备发送:01 03 06 84 00 04 04 A8
13:36:25.466 设备接收:01 03 08 00 00 69 3D 00 13 26 21 DA 96
13:36:25.482 设备发送:01 03 04 04 00 01 C4 FB
13:36:26.499 设备接收:01 03 02 00 02 39 85
13:36:26.515 设备发送:01 03 05 84 00 0F 45 2B
13:36:27.515 设备接收:01 03 1E 1F 0B 06 42 04 F9 1F 07 06 4D 05 01 1E F5 06 32 04 E9 1F 46 06 33 04 F7 16 D1 03 36 01 E0 03 F8
13:36:27.530 设备发送:01 03 05 93 00 0F F5 2F
13:36:28.528 设备接收:01 03 1E 00 00 00 00 00 00 19 DA 06 95 04 5B 1B B4 03 3F 02 4D 1B CD 03 42 02 51 00 00 00 04 00 00 53 CC
13:36:28.543 设备发送:01 03 05 A2 00 0F A4 E0
13:36:29.542 设备接收:01 03 1E 00 00 00 00 00 00 00 00 00 00 00 00 00 00 00 00 00 00 00 00 00 00 00 00 00 00 00 00 00 00 D8 BA
13:36:29.573 设备发送:01 03 05 B1 00 03 55 20
13:36:30.587 设备接收:01 03 06 00 00 00 00 00 00 21 75
13:36:30.602 设备发送:01 03 04 2B 00 01 F5 32
13:36:31.583 设备接收:01 03 02 02 E1 79 6C
13:36:31.599 设备发送:01 03 04 20 00 01 84 F0
13:36:31.78900

