16:36:01.492 设备发送:0A 03 04 05 00 01 94 40
16:36:06.530 设备发送:0A 03 04 05 00 01 94 40
16:36:11.540 设备发送:0A 03 04 05 00 01 94 40
16:36:16.551 设备发送:01 03 04 84 00 04 05 10
16:36:21.579 设备发送:01 03 04 84 00 04 05 10
16:36:26.586 设备接收:01 03 08 13 86 01 A6 FF F8 01 A7 CB 01
16:36:26.617 设备发送:01 03 04 8D 00 05 14 D2
16:36:31.599 设备发送:01 03 04 98 00 05 05 16
16:36:31.616 设备接收:01 03 0A 08 DB 02 98 00 00 00 00 00 00 D3 B9
16:36:36.627 设备接收:01 03 0A 08 D4 02 AA 00 00 00 00 00 00 81 8A
16:36:36.642 设备发送:01 03 04 A3 00 05 74 DB
16:36:41.623 设备接收:01 03 0A 08 DE 02 C2 00 00 00 00 00 00 16 EC
16:36:41.647 设备发送:01 03 06 84 00 04 04 A8
16:36:46.665 设备接收:01 03 08 00 00 B4 33 00 13 3D 48 6B 04
16:36:46.697 设备发送:01 03 04 04 00 01 C4 FB
16:36:51.692 设备接收:01 03 02 00 02 39 85
16:36:51.707 设备发送:01 03 05 84 00 0F 45 2B
16:36:56.678 设备接收:01 03 1E 1F 63 00 75 00 5E 1F 8E 00 5C 00 4A 1F 91 00 51 00 41 1F E2 00 5E 00 4D 17 E8 00 2D 00 1B 51 5C
16:36:56.709 设备发送:01 03 05 93 00 0F F5 2F
16:37:01.697 设备接收:01 03 1E 00 00 00 00 00 00 1B 16 00 61 00 43 1B F4 00 27 00 1C 1C DB 00 2F 00 22 00 00 00 03 00 00 16 2C
16:37:01.744 设备发送:01 03 05 A2 00 0F A4 E0
16:37:06.751 设备接收:01 03 1E 00 00 00 00 00 00 00 00 00 00 00 00 00 00 00 00 00 00 00 00 00 00 00 00 00 00 00 00 00 00 D8 BA
16:37:06.783 设备发送:01 03 05 B1 00 03 55 20
16:37:11.764 设备接收:01 03 06 00 00 00 00 00 00 21 75
16:37:11.779 设备发送:01 03 04 2B 00 01 F5 32
16:37:16.766 设备接收:01 03 02 02 CE 38 B0
16:37:16.782 设备发送:01 03 04 20 00 01 84 F0
16:37:21.797 设备接收:01 03 02 00 2D 78 59
16:37:21.829 设备发送:01 03 04 05 00 01 95 3B
16:37:26.809 设备接收:01 03 02 00 00 B8 44
16:37:26.825 设备发送:02 03 04 84 00 04 05 23
16:37:31.836 设备接收:02 03 08 13 85 01 7D FF F7 01 7D 22 CE
16:37:31.868 设备发送:02 03 04 8D 00 05 14 E1
16:37:36.875 设备接收:02 03 0A 08 D7 02 74 00 00 00 00 00 00 AE B4
16:37:36.884 设备发送:02 03 04 98 00 05 05 25
16:37:41.862 设备接收:02 03 0A 08 D1 02 98 00 00 00 00 00 00 A8 DA
16:37:41.894 设备发送:02 03 04 A3 00 05 74 E8
16:37:46.889 设备接收:02 03 0A 08 DD 02 A9 00 00 00 00 00 00 DD 19
16:37:46.937 设备发送:02 03 06 84 00 04 04 9B
16:37:51.943 设备接收:02 03 08 00 00 AC 3D 00 13 84 E8 7D B1
16:37:51.974 设备发送:02 03 04 04 00 01 C4 C8
16:37:56.932 设备接收:02 03 02 00 02 7D 85
16:37:57.322 设备发送:02 03 05 84 00 0F 45 18
16:38:01.966 设备接收:02 03 1E 20 81 00 29 00 22 1F DD 00 21 00 1B 20 1B 00 2A 00 22 1E 99 00 65 00 4F 20 02 00 26 00 1F 25 5A
16:38:01.982 设备发送:02 03 05 93 00 0F F5 1C
16:38:06.978 设备接收:02 03 1E 1F D4 00 1F 00 19 1D 84 00 3D 00 2E 1F 88 00 56 00 45 21 32 00 29 00 23 19 C7 00 3C 00 27 D2 63
16:38:06.993 设备发送:02 03 05 A2 00 0F A4 D3
16:38:11.990 设备接收:02 03 1E 00 00 00 01 00 00 00 00 00 00 00 00 00 00 00 00 00 00 00 00 00 00 00 00 00 00 00 00 00 00 92 38
16:38:12.006 设备发送:02 03 05 B1 00 03 55 13
16:38:17.018 设备接收:02 03 06 00 00 00 00 00 00 35 85
16:38:17.034 设备发送:02 03 04 2B 00 01 F5 01
16:38:22.035 设备接收:02 03 02 02 C9 3D 72
16:38:22.051 设备发送:02 03 04 20 00 01 84 C3
16:38:27.045 设备接收:02 03 02 00 34 FD 93
16:38:27.076 设备发送:02 03 04 05 00 01 95 08
16:38:32.094 设备接收:02 03 02 00 00 FC 44
16:38:32.110 设备发送:03 03 04 84 00 04 04 F2
16:38:37.084 设备接收:03 03 08 13 86 01 E3 FF E2 01 E4 6D 40
16:38:37.115 设备发送:03 03 04 8D 00 05 15 30
16:38:42.131 设备接收:03 03 0A 08 D1 02 F9 00 00 00 00 00 00 DA 9D
16:38:42.147 设备发送:03 03 04 98 00 05 04 F4
16:38:47.157 设备接收:03 03 0A 08 D1 02 FB 00 00 00 00 00 00 F9 5D
16:38:47.173 设备发送:03 03 04 A3 00 05 75 39
16:38:52.168 设备接收:03 03 0A 08 DC 03 2E 00 00 00 00 00 00 E4 CC
16:38:52.185 设备发送:03 03 06 84 00 04 05 4A
16:38:57.176 设备接收:03 03 08 00 00 BF F0 00 14 10 94 88 DE
16:38:57.192 设备发送:03 03 04 04 00 01 C5 19
16:39:02.192 设备接收:03 03 02 00 02 40 45
16:39:02.208 设备发送:03 03 05 84 00 0F 44 C9
16:39:07.237 设备接收:03 03 1E 1F 3C 00 7F 00 66 1F 6E 00 7A 00 62 1B 51 00 64 00 45 20 07 00 64 00 52 17 4C 00 59 00 35 FE C8
16:39:07.252 设备发送:03 03 05 93 00 0F F4 CD
16:39:12.270 设备接收:03 03 1E 05 B9 00 00 00 00 12 9B 00 58 00 2A 1C 3E 00 45 00 32 1B 60 00 4C 00 35 05 33 00 00 00 00 4B FB
16:39:12.285 设备发送:03 03 05 A2 00 0F A5 02
16:39:17.263 设备接收:03 03 1E 00 0E 00 00 00 00 00 00 00 00 00 00 00 00 00 00 00 00 00 00 00 00 00 00 00 00 00 00 00 00 81 70
16:39:17.278 设备发送:03 03 05 B1 00 03 54 C2
16:39:22.314 设备接收:03 03 06 00 00 00 00 00 00 38 15
16:39:22.329 设备发送:03 03 04 2B 00 01 F4 D0
16:39:27.320 设备接收:03 03 02 02 D1 00 B8
16:39:27.336 设备发送:03 03 04 20 00 01 85 12
16:39:32.337 设备接收:03 03 02 00 2C C0 59
16:39:32.352 设备发送:03 03 04 05 00 01 94 D9
16:39:37.361 设备接收:03 03 02 00 00 C1 84
16:39:37.377 设备发送:04 03 04 84 00 04 05 45
16:39:42.386 设备接收:04 03 08 13 85 01 67 FF F8 01 67 D4 4C
16:39:42.405 设备发送:04 03 04 8D 00 05 14 87
16:39:47.406 设备接收:04 03 0A 08 D6 02 62 00 00 00 00 00 00 DD 23
16:39:47.422 设备发送:04 03 04 98 00 05 05 43
16:39:52.427 设备接收:04 03 0A 08 CF 02 50 00 00 00 00 00 00 69 70
16:39:52.443 设备发送:04 03 04 A3 00 05 74 8E
16:39:57.445 设备接收:04 03 0A 08 DA 02 8A 00 00 00 00 00 00 E0 2D
16:39:57.476 设备发送:04 03 06 84 00 04 04 FD
16:40:02.470 设备接收:04 03 08 00 00 A1 55 00 11 4E 3D 35 12
16:40:02.486 设备发送:04 03 04 04 00 01 C4 AE
16:40:07.483 设备接收:04 03 02 00 02 F5 85
16:40:07.513 设备发送:04 03 05 84 00 0F 45 7E
16:40:12.506 设备接收:04 03 1E 1A D7 00 23 00 18 1C 8C 00 52 00 3C 1A 51 00 27 00 1A 1C B3 00 57 00 40 1B 78 00 7B 00 57 98 68
16:40:12.522 设备发送:04 03 05 93 00 0F F5 7A
16:40:17.506 设备接收:04 03 1E 1C 0E 00 69 00 4B 1C 64 00 58 00 40 04 A6 00 02 00 00 04 C4 00 03 00 00 04 B8 00 00 00 00 63 11
16:40:17.537 设备发送:04 03 05 A2 00 0F A4 B5
16:40:22.543 设备接收:04 03 1E 00 00 00 00 00 00 00 01 00 04 00 00 00 00 00 00 00 00 00 00 00 00 00 00 00 00 00 00 00 00 8C A3
16:40:22.559 设备发送:04 03 05 B1 00 03 55 75
16:40:27.565 设备接收:04 03 06 00 00 00 00 00 00 1E 25
16:40:27.581 设备发送:04 03 04 2B 00 01 F5 67
16:40:32.574 设备接收:04 03 02 02 CB 34 B3
16:40:32.604 设备发送:04 03 04 20 00 01 84 A5
16:40:37.622 设备接收:04 03 02 00 33 34 51
16:40:37.638 设备发送:04 03 04 05 00 01 95 6E
16:40:42.627 设备接收:04 03 02 00 00 74 44
16:40:42.643 设备发送:05 03 04 84 00 04 04 94
16:40:47.656 设备发送:05 03 04 84 00 04 04 94
16:40:52.694 设备发送:05 03 04 84 00 04 04 94
16:40:57.694 设备接收:05 03 08 13 89 00 F8 FF D3 00 FC B9 4E FF FF FF FF FF FF FF FF FF FF FF FF
16:40:57.710 设备发送:05 03 04 8D 00 05 15 56
16:41:02.719 设备发送:05 03 04 8D 00 05 15 56
16:41:07.733 设备发送:05 03 04 8D 00 05 15 56
16:41:12.775 设备发送:05 03 04 98 00 05 04 92
16:41:17.770 设备发送:05 03 04 98 00 05 04 92
16:41:22.798 设备发送:05 03 04 98 00 05 04 92
16:41:27.829 设备发送:05 03 04 A3 00 05 75 5F
16:41:32.841 设备发送:05 03 04 A3 00 05 75 5F
16:41:37.848 设备发送:05 03 04 A3 00 05 75 5F
16:41:42.885 设备发送:05 03 06 84 00 04 05 2C
16:41:47.892 设备发送:05 03 06 84 00 04 05 2C
16:41:52.927 设备发送:05 03 06 84 00 04 05 2C
16:41:57.950 设备发送:05 03 04 04 00 01 C5 7F
16:42:02.966 设备发送:05 03 04 04 00 01 C5 7F
16:42:07.983 设备发送:05 03 04 04 00 01 C5 7F
16:42:12.994 设备发送:05 03 05 84 00 0F 44 AF
16:42:18.029 设备发送:05 03 05 84 00 0F 44 AF
16:42:23.056 设备发送:05 03 05 84 00 0F 44 AF
16:42:28.093 设备发送:05 03 05 93 00 0F F4 AB
16:42:33.088 设备发送:05 03 05 93 00 0F F4 AB
16:42:38.110 设备发送:05 03 05 93 00 0F F4 AB
16:42:43.115 设备发送:05 03 05 A2 00 0F A5 64
16:42:48.146 设备发送:05 03 05 A2 00 0F A5 64
16:42:53.165 设备发送:05 03 05 A2 00 0F A5 64
16:42:58.166 设备发送:05 03 05 B1 00 03 54 A4
16:43:03.220 设备发送:05 03 05 B1 00 03 54 A4
16:43:08.219 设备发送:05 03 05 B1 00 03 54 A4
16:43:13.252 设备发送:05 03 04 2B 00 01 F4 B6
16:43:18.253 设备发送:05 03 04 2B 00 01 F4 B6
16:43:23.273 设备发送:05 03 04 2B 00 01 F4 B6
16:43:28.319 设备发送:05 03 04 20 00 01 85 74
16:43:33.318 设备发送:05 03 04 20 00 01 85 74
16:43:38.328 设备发送:05 03 04 20 00 01 85 74
16:43:43.363 设备发送:05 03 04 05 00 01 94 BF
16:43:48.380 设备发送:05 03 04 05 00 01 94 BF
16:43:53.408 设备发送:05 03 04 05 00 01 94 BF
16:43:58.424 设备发送:06 03 04 84 00 04 04 A7
16:44:03.436 设备发送:06 03 04 84 00 04 04 A7
16:44:08.464 设备发送:06 03 04 84 00 04 04 A7
16:44:13.474 设备发送:06 03 04 8D 00 05 15 65
16:44:18.512 设备发送:06 03 04 8D 00 05 15 65
16:44:23.525 设备发送:06 03 04 8D 00 05 15 65
16:44:28.537 设备发送:06 03 04 98 00 05 04 A1
16:44:33.549 设备发送:06 03 04 98 00 05 04 A1
16:44:38.600 设备发送:06 03 04 98 00 05 04 A1
16:44:43.591 设备发送:06 03 04 A3 00 05 75 6C
16:44:48.609 设备发送:06 03 04 A3 00 05 75 6C
16:44:53.651 设备发送:06 03 04 A3 00 05 75 6C
16:44:58.650 设备发送:06 03 06 84 00 04 05 1F
16:45:03.691 设备发送:06 03 06 84 00 04 05 1F
16:45:08.704 设备发送:06 03 06 84 00 04 05 1F
16:45:13.709 设备发送:06 03 04 04 00 01 C5 4C
16:45:18.747 设备发送:06 03 04 04 00 01 C5 4C
16:45:23.775 设备发送:06 03 04 04 00 01 C5 4C
16:45:28.767 设备发送:06 03 05 84 00 0F 44 9C
16:45:33.794 设备发送:06 03 05 84 00 0F 44 9C
16:45:38.798 设备接收:06 03 1E 04 80 00 04 00 00 1A F3 00 43 00 2E 1B F3 00 3F 00 2D 1A B5 00 24 00 18 1D 7B 00 43 00 33 5E CB
16:45:38.811 设备发送:06 03 05 93 00 0F F4 98
16:45:43.839 设备接收:06 03 1E 04 7D 00 00 00 00 04 6F 00 00 00 00 16 DB 00 42 00 27 04 70 00 05 00 00 15 37 00 46 00 26 4C A9
16:45:43.860 设备发送:06 03 05 A2 00 0F A5 57
16:45:48.856 设备接收:06 03 1E 00 08 00 00 00 00 00 00 00 00 00 00 00 00 00 00 00 00 00 00 00 00 00 00 00 00 00 00 00 00 DD 75
16:45:48.868 设备发送:06 03 05 B1 00 03 54 97
16:45:53.873 设备接收:06 03 06 00 00 00 00 00 00 07 45
16:45:53.883 设备发送:06 03 04 2B 00 01 F4 85
16:45:58.895 设备接收:06 03 02 02 C7 4D 76
16:45:58.907 设备发送:06 03 04 20 00 01 85 47
16:46:03.902 设备接收:06 03 02 00 20 0C 5C
16:46:03.925 设备发送:06 03 04 05 00 01 94 8C
16:46:08.914 设备接收:06 03 02 00 00 0D 84
16:46:08.936 设备发送:07 03 04 84 00 04 05 76
16:46:13.941 设备接收:07 03 08 13 8B 00 70 FF D9 00 98 50 C0
16:46:13.961 设备发送:07 03 04 8D 00 05 14 B4
16:46:18.987 设备接收:07 03 0A 08 E4 00 EA 00 00 00 00 00 00 1C 50
16:46:18.998 设备发送:07 03 04 98 00 05 05 70
16:46:24.016 设备接收:07 03 0A 08 DC 00 D6 00 00 00 00 00 00 D3 92
16:46:24.029 设备发送:07 03 04 A3 00 05 74 BD
16:46:29.018 设备接收:07 03 0A 08 E2 00 DF 00 00 00 00 00 00 52 F3
16:46:29.038 设备发送:07 03 06 84 00 04 04 CE
16:46:34.067 设备接收:07 03 08 00 00 45 B3 00 07 39 85 E2 22
16:46:34.077 设备发送:07 03 04 04 00 01 C4 9D
16:46:39.073 设备接收:07 03 02 00 02 B1 85
16:46:39.083 设备发送:07 03 05 84 00 0F 45 4D
16:46:44.087 设备接收:07 03 1E 18 8B 00 37 00 22 19 4D 00 26 00 18 1A 6E 00 18 00 10 18 D4 00 48 00 2E 00 00 00 00 00 00 E8 EF
16:46:44.097 设备发送:07 03 05 93 00 0F F5 49
16:46:49.098 设备接收:07 03 1E 00 00 00 00 00 00 00 00 00 00 00 00 00 00 00 00 00 00 00 00 00 00 00 00 00 00 00 00 00 00 B0 BB
16:46:49.149 设备发送:07 03 05 A2 00 0F A4 86
16:46:54.139 设备接收:07 03 1E 00 00 00 00 00 00 00 00 00 00 00 00 00 00 00 00 00 00 00 00 00 00 00 00 00 00 00 00 00 00 B0 BB
16:46:54.149 设备发送:07 03 05 B1 00 03 55 46
16:46:59.163 设备接收:07 03 06 00 00 00 00 00 00 0A D5
16:46:59.182 设备发送:07 03 04 2B 00 01 F5 54
16:47:04.180 设备接收:07 03 02 01 D1 F1 88
16:47:04.203 设备发送:07 03 04 20 00 01 84 96
16:47:09.198 设备接收:07 03 02 00 15 F1 8B
16:47:09.219 设备发送:07 03 04 05 00 01 95 5D
16:47:14.221 设备接收:07 03 02 00 00 30 44
16:47:14.242 设备发送:08 03 04 84 00 04 05 89
16:47:19.244 设备接收:08 03 08 13 85 00 A2 FF C9 00 AB 76 D6
16:47:19.253 设备发送:08 03 04 8D 00 05 14 4B
16:47:24.271 设备接收:08 03 0A 08 DC 01 C7 00 00 00 00 00 00 07 50
16:47:24.293 设备发送:08 03 04 98 00 05 05 8F
16:47:29.294 设备接收:08 03 0A 08 D0 01 B4 00 00 00 00 00 00 10 97
16:47:29.745 设备发送:08 03 04 A3 00 05 74 42
16:47:34.297 设备接收:08 03 0A 08 DD 01 D6 00 00 00 00 00 00 0B C1
16:47:34.309 设备发送:08 03 06 84 00 04 04 31
16:47:39.339 设备接收:08 03 08 00 00 93 A9 00 0F BA 79 78 B1
16:47:39.354 设备发送:08 03 04 04 00 01 C4 62
16:47:44.365 设备接收:08 03 02 00 02 E5 84
16:47:44.380 设备发送:08 03 05 84 00 0F 45 B2
16:51:00.173 设备接收:08 03 1E 19 27 00 26 00 18 18 E7 00 0E 00 09 1A 03 00 13 00 0C 19 51 00 38 00 24 19 4D 00 32 00 20 A9 AF
16:51:00.471 设备发送:08 03 05 93 00 0F F5 B6
16:51:00.580 设备接收:08 03 1E 1D 48 00 2D 00 22 1D 67 00 21 00 19 19 B1 00 1E 00 13 17 AF 00 1C 00 11 19 93 00 39 00 25 7F B6
16:51:00.628 设备发送:08 03 05 A2 00 0F A4 79
16:51:05.228 设备发送:0A 03 05 84 00 0F 44 50
16:51:10.244 设备发送:0A 03 05 93 00 0F F4 54
16:51:15.260 设备发送:0A 03 05 93 00 0F F4 54
16:51:20.272 设备发送:0A 03 05 93 00 0F F4 54
16:51:25.322 设备发送:0A 03 05 A2 00 0F A5 9B
16:51:30.328 设备发送:0A 03 05 A2 00 0F A5 9B
16:51:35.363 设备发送:0A 03 05 A2 00 0F A5 9B
16:51:40.379 设备发送:0A 03 05 B1 00 03 54 5B
16:51:45.389 设备发送:0A 03 05 B1 00 03 54 5B
16:51:50.418 设备发送:0A 03 05 B1 00 03 54 5B
16:51:55.461 设备发送:0A 03 04 2B 00 01 F4 49
16:52:00.469 设备发送:0A 03 04 2B 00 01 F4 49
16:52:05.498 设备发送:0A 03 04 2B 00 01 F4 49
16:52:10.518 设备发送:0A 03 04 20 00 01 85 8B
16:52:15.509 设备发送:0A 03 04 20 00 01 85 8B
16:52:20.532 设备发送:0A 03 04 20 00 01 85 8B
16:52:25.555 设备发送:0A 03 04 05 00 01 94 40
16:52:30.595 设备发送:0A 03 04 05 00 01 94 40
16:52:35.600 设备发送:0A 03 04 05 00 01 94 40
16:52:40.609 设备发送:01 03 04 84 00 04 05 10
16:52:45.626 设备接收:01 03 08 13 85 00 AA FF C9 00 B3 B9 81
16:52:45.642 设备发送:01 03 04 8D 00 05 14 D2
16:52:50.635 设备接收:01 03 0A 08 D8 01 F5 00 00 00 00 00 00 3B 9A
16:52:50.651 设备发送:01 03 04 98 00 05 05 16
16:52:55.689 设备接收:01 03 0A 08 D2 01 FE 00 00 00 00 00 00 FF FA
16:52:55.705 设备发送:01 03 04 A3 00 05 74 DB
16:53:00.688 设备接收:01 03 0A 08 DD 02 20 00 00 00 00 00 00 C0 12
16:53:00.703 设备发送:01 03 06 84 00 04 04 A8
16:53:05.708 设备接收:01 03 08 00 00 B4 7F 00 13 3D 4F 3B 08
16:53:05.718 设备发送:01 03 04 04 00 01 C4 FB
16:53:10.731 设备接收:01 03 02 00 02 39 85
16:53:10.751 设备发送:01 03 05 84 00 0F 45 2B
16:53:15.727 设备接收:01 03 1E 1F 13 00 2D 00 24 1E A0 00 2B 00 22 1C 6F 00 28 00 1D 1E F0 00 2B 00 22 16 F9 00 15 00 0C 9F C0
16:53:15.748 设备发送:01 03 05 93 00 0F F5 2F
16:53:20.749 设备接收:01 03 1E 00 00 00 00 00 00 19 87 00 30 00 1F 1B A4 00 10 00 0B 1B 4B 00 19 00 12 00 00 00 00 00 00 80 D2
16:53:20.765 设备发送:01 03 05 A2 00 0F A4 E0
16:53:25.793 设备接收:01 03 1E 00 00 00 00 00 00 00 00 00 00 00 00 00 00 00 00 00 00 00 00 00 00 00 00 00 00 00 00 00 00 D8 BA
16:53:25.809 设备发送:01 03 05 B1 00 03 55 20
16:53:30.812 设备接收:01 03 06 00 00 00 00 00 00 21 75
16:53:30.828 设备发送:01 03 04 2B 00 01 F5 32
16:53:35.808 设备接收:01 03 02 02 CE 38 B0
16:53:35.829 设备发送:01 03 04 20 00 01 84 F0
16:53:40.845 设备接收:01 03 02 00 33 F8 51
16:53:40.860 设备发送:01 03 04 05 00 01 95 3B
16:53:45.864 设备接收:01 03 02 00 00 B8 44
16:53:45.879 设备发送:02 03 04 84 00 04 05 23
16:53:50.892 设备接收:02 03 08 13 88 00 9B FF CA 00 A4 A7 CF
16:53:50.907 设备发送:02 03 04 8D 00 05 14 E1
16:53:55.910 设备接收:02 03 0A 08 D8 01 F6 00 00 00 00 00 00 0D 59
16:53:55.942 设备发送:02 03 04 98 00 05 05 25
16:54:00.927 设备接收:02 03 0A 08 D3 01 A1 00 00 00 00 00 00 58 AC
16:54:00.949 设备发送:02 03 04 A3 00 05 74 E8
16:54:05.930 设备接收:02 03 0A 08 E0 01 AE 00 00 00 00 00 00 E7 5D
16:54:05.950 设备发送:02 03 06 84 00 04 04 9B
16:54:10.958 设备接收:02 03 08 00 00 AC 82 00 13 84 EF 29 A8
16:54:10.979 设备发送:02 03 04 04 00 01 C4 C8
16:54:15.980 设备接收:02 03 02 00 02 7D 85
16:54:16.001 设备发送:02 03 05 84 00 0F 45 18
16:54:21.023 设备接收:02 03 1E 1E CC 00 0F 00 0C 1E 9C 00 0B 00 09 1E DA 00 13 00 0F 1D A9 00 28 00 1F 1D D2 00 12 00 0E 20 B5
16:54:21.039 设备发送:02 03 05 93 00 0F F5 1C
16:54:26.032 设备发送:02 03 05 A2 00 0F A4 D3
16:54:26.048 设备接收:02 03 1E 1E 95 00 0B 00 09 1E 76 00 1C 00 16 1D F8 00 29 00 1F 1E 66 00 15 00 11 1E 77 00 17 00 12 6A 2F
16:54:31.057 设备接收:02 03 1E 00 00 00 03 00 00 00 00 00 00 00 00 00 00 00 00 00 00 00 00 00 00 00 00 00 00 00 00 00 00 6D 7D
16:54:31.073 设备发送:02 03 05 B1 00 03 55 13
16:54:36.076 设备接收:02 03 06 00 00 00 00 00 00 35 85
16:54:36.091 设备发送:02 03 04 2B 00 01 F5 01
16:54:41.070 设备接收:02 03 02 02 C9 3D 72
16:54:41.085 设备发送:02 03 04 20 00 01 84 C3
16:54:46.115 设备接收:02 03 02 00 35 3C 53
16:54:46.130 设备发送:02 03 04 05 00 01 95 08
16:54:51.105 设备接收:02 03 02 00 00 FC 44
16:54:51.128 设备发送:03 03 04 84 00 04 04 F2
16:54:56.140 设备接收:03 03 08 13 89 00 A2 FF CC 00 AB 8F F3
16:54:56.159 设备发送:03 03 04 8D 00 05 15 30
16:55:01.162 设备接收:03 03 0A 08 D4 01 DB 00 00 00 00 00 00 A7 DA
16:55:01.182 设备发送:03 03 04 98 00 05 04 F4
16:55:06.194 设备接收:03 03 0A 08 D4 01 DA 00 00 00 00 00 00 B7 1A
16:55:06.204 设备发送:03 03 04 A3 00 05 75 39
16:55:11.198 设备接收:03 03 0A 08 DC 01 DC 00 00 00 00 00 00 B6 DA
16:55:11.218 设备发送:03 03 06 84 00 04 05 4A
16:55:16.203 设备接收:03 03 08 00 00 C0 41 00 14 10 9C FE CD
16:55:16.222 设备发送:03 03 04 04 00 01 C5 19
16:55:21.227 设备接收:03 03 02 00 02 40 45
16:55:21.277 设备发送:03 03 05 84 00 0F 44 C9
16:55:26.253 设备接收:03 03 1E 1E 4D 00 2F 00 24 1D 90 00 2D 00 22 1E 6E 00 2D 00 23 1E 28 00 2A 00 21 16 AD 00 2C 00 19 13 97
16:55:26.272 设备发送:03 03 05 93 00 0F F4 CD
16:55:31.277 设备接收:03 03 1E 04 FB 00 00 00 00 11 AB 00 2E 00 15 1A AE 00 17 00 0F 1A C0 00 1B 00 12 04 FD 00 00 00 00 6A A7
16:55:31.290 设备发送:03 03 05 A2 00 0F A5 02
16:55:36.296 设备接收:03 03 1E 00 0D 00 00 00 00 00 00 00 00 00 00 00 00 00 00 00 00 00 00 00 00 00 00 00 00 00 00 00 00 C1 72
16:55:36.319 设备发送:03 03 05 B1 00 03 54 C2
16:55:41.306 设备接收:03 03 06 00 00 00 00 00 00 38 15
16:55:41.349 设备发送:03 03 04 2B 00 01 F4 D0
16:55:46.328 设备接收:03 03 02 02 D1 00 B8
16:55:46.358 设备发送:03 03 04 20 00 01 85 12
16:55:51.360 设备接收:03 03 02 00 33 81 91
16:55:51.376 设备发送:03 03 04 05 00 01 94 D9
16:55:56.378 设备接收:03 03 02 00 00 C1 84
16:55:56.393 设备发送:04 03 04 84 00 04 05 45
16:56:01.399 设备接收:04 03 08 13 85 00 82 00 07 00 82 58 74
16:56:01.430 设备发送:04 03 04 8D 00 05 14 87
16:56:06.441 设备接收:04 03 0A 08 D5 01 9B 00 00 00 00 00 00 E0 C9
16:56:06.456 设备发送:04 03 04 98 00 05 05 43
16:56:11.431 设备接收:04 03 0A 08 D1 01 65 00 00 00 00 00 00 CD C6
16:56:11.462 设备发送:04 03 04 A3 00 05 74 8E
16:56:16.477 设备接收:04 03 0A 08 DA 01 A7 00 00 00 00 00 00 5D 3A
16:56:16.491 设备发送:04 03 06 84 00 04 04 FD
16:56:21.491 设备接收:04 03 08 00 00 A1 94 00 11 4E 43 88 E3
16:56:21.506 设备发送:04 03 04 04 00 01 C4 AE
16:56:26.494 设备接收:04 03 02 00 02 F5 85
16:56:26.509 设备发送:04 03 05 84 00 0F 45 7E
16:56:31.514 设备接收:04 03 1E 19 48 00 10 00 0A 1A FE 00 28 00 1C 18 C3 00 12 00 0B 19 E3 00 26 00 19 1A 37 00 2C 00 1D 22 14
16:56:31.530 设备发送:04 03 05 93 00 0F F5 7A
16:56:36.529 设备接收:04 03 1E 1A 2D 00 29 00 1B 1A 34 00 2C 00 1E 04 5B 00 00 00 00 04 79 00 04 00 00 04 6E 00 00 00 00 3D 0F
16:56:36.560 设备发送:04 03 05 A2 00 0F A4 B5
16:56:41.563 设备接收:04 03 1E 00 00 00 00 00 00 00 00 00 04 00 00 00 00 00 00 00 00 00 00 00 00 00 00 00 00 00 00 00 00 41 3F
16:56:41.609 设备发送:04 03 05 B1 00 03 55 75
16:56:46.605 设备接收:04 03 06 00 00 00 00 00 00 1E 25
16:56:46.621 设备发送:04 03 04 2B 00 01 F5 67
16:56:51.621 设备接收:04 03 02 02 CB 34 B3
16:56:51.643 设备发送:04 03 04 20 00 01 84 A5
16:56:56.613 设备接收:04 03 02 00 33 34 51
16:56:56.634 设备发送:04 03 04 05 00 01 95 6E
16:57:01.667 设备接收:04 03 02 00 00 74 44
16:57:01.693 设备发送:05 03 04 84 00 04 04 94
16:57:06.678 设备接收:05 03 08 13 85 00 4D FF FC 00 4D 09 29 FF FF FF FF FF FF FF FF FF FF FF
16:57:06.692 设备发送:05 03 04 8D 00 05 15 56
16:57:11.713 设备发送:05 03 04 8D 00 05 15 56
16:57:16.745 设备发送:05 03 04 8D 00 05 15 56
16:57:21.773 设备发送:05 03 04 98 00 05 04 92
16:57:26.776 设备发送:05 03 04 98 00 05 04 92
16:57:31.801 设备发送:05 03 04 98 00 05 04 92
16:57:36.809 设备发送:05 03 04 A3 00 05 75 5F
16:57:41.848 设备发送:05 03 04 A3 00 05 75 5F
16:57:46.854 设备发送:05 03 04 A3 00 05 75 5F
16:57:51.885 设备发送:05 03 06 84 00 04 05 2C
16:57:56.899 设备发送:05 03 06 84 00 04 05 2C
16:58:01.912 设备发送:05 03 06 84 00 04 05 2C
16:58:06.935 设备发送:05 03 04 04 00 01 C5 7F
16:58:11.941 设备发送:05 03 04 04 00 01 C5 7F
16:58:16.988 设备发送:05 03 04 04 00 01 C5 7F
16:58:21.984 设备发送:05 03 05 84 00 0F 44 AF
16:58:27.034 设备发送:05 03 05 84 00 0F 44 AF
16:58:32.023 设备发送:05 03 05 84 00 0F 44 AF
16:58:37.079 设备发送:05 03 05 93 00 0F F4 AB
16:58:42.080 设备发送:05 03 05 93 00 0F F4 AB
16:58:47.086 设备发送:05 03 05 93 00 0F F4 AB
16:58:52.126 设备发送:05 03 05 A2 00 0F A5 64
16:58:57.140 设备发送:05 03 05 A2 00 0F A5 64
16:59:02.156 设备发送:05 03 05 A2 00 0F A5 64
16:59:07.165 设备发送:05 03 05 B1 00 03 54 A4
16:59:12.197 设备发送:05 03 05 B1 00 03 54 A4
16:59:17.199 设备发送:05 03 05 B1 00 03 54 A4
16:59:22.238 设备发送:05 03 04 2B 00 01 F4 B6
16:59:27.284 设备发送:05 03 04 2B 00 01 F4 B6
16:59:32.291 设备发送:05 03 04 2B 00 01 F4 B6
16:59:37.300 设备发送:05 03 04 20 00 01 85 74
16:59:42.315 设备发送:05 03 04 20 00 01 85 74
16:59:47.329 设备发送:05 03 04 20 00 01 85 74
16:59:52.347 设备发送:05 03 04 05 00 01 94 BF
16:59:57.368 设备发送:05 03 04 05 00 01 94 BF
17:00:02.379 设备发送:05 03 04 05 00 01 94 BF
17:00:07.414 设备发送:06 03 04 84 00 04 04 A7
17:00:12.456 设备发送:06 03 04 84 00 04 04 A7
17:00:17.453 设备发送:06 03 04 84 00 04 04 A7
17:00:22.465 设备发送:06 03 04 8D 00 05 15 65
17:00:27.506 设备发送:06 03 04 8D 00 05 15 65
17:00:32.496 设备发送:06 03 04 8D 00 05 15 65
17:00:37.519 设备发送:06 03 04 98 00 05 04 A1
17:00:42.564 设备发送:06 03 04 98 00 05 04 A1
17:00:47.581 设备发送:06 03 04 98 00 05 04 A1
17:00:52.591 设备发送:06 03 04 A3 00 05 75 6C
17:00:57.604 设备发送:06 03 04 A3 00 05 75 6C
17:01:02.634 设备发送:06 03 04 A3 00 05 75 6C
17:01:07.634 设备发送:06 03 06 84 00 04 05 1F
17:01:12.660 设备发送:06 03 06 84 00 04 05 1F
17:01:17.689 设备发送:06 03 06 84 00 04 05 1F
17:01:22.698 设备发送:06 03 04 04 00 01 C5 4C
17:01:27.731 设备发送:06 03 04 04 00 01 C5 4C
17:01:32.748 设备发送:06 03 04 04 00 01 C5 4C
17:01:37.771 设备发送:06 03 05 84 00 0F 44 9C
17:01:42.782 设备接收:06 03 1E 03 7D 00 03 00 00 16 4A 00 1A 00 0F 16 4A 00 1A 00 0F 16 24 00 13 00 0A 15 DB 00 1E 00 11 83 2D
17:01:42.792 设备发送:06 03 05 93 00 0F F4 98
17:01:47.823 设备接收:06 03 1E 03 78 00 00 00 00 03 6A 00 00 00 00 16 46 00 17 00 0D 03 6C 00 01 00 00 13 A9 00 16 00 0B 2E DC
17:01:47.831 设备发送:06 03 05 A2 00 0F A5 57
17:01:52.848 设备接收:06 03 1E 00 06 00 00 00 00 00 00 00 00 00 00 00 00 00 00 00 00 00 00 00 00 00 00 00 00 00 00 00 00 5D 7F
17:01:52.856 设备发送:06 03 05 B1 00 03 54 97
17:01:57.850 设备接收:06 03 06 00 00 00 00 00 00 07 45
17:01:57.860 设备发送:06 03 04 2B 00 01 F4 85
17:02:02.852 设备接收:06 03 02 02 C7 4D 76
17:02:02.902 设备发送:06 03 04 20 00 01 85 47
17:02:07.909 设备接收:06 03 02 00 28 0D 9A
17:02:07.921 设备发送:06 03 04 05 00 01 94 8C
17:02:12.928 设备接收:06 03 02 00 00 0D 84
17:02:12.947 设备发送:07 03 04 84 00 04 05 76
17:02:17.942 设备接收:07 03 08 13 8B 00 1E FF D1 00 73 78 84
17:02:17.961 设备发送:07 03 04 8D 00 05 14 B4
17:02:22.959 设备接收:07 03 0A 08 E4 00 98 00 00 00 00 00 00 4E 57
17:02:22.972 设备发送:07 03 04 98 00 05 05 70
17:02:27.996 设备接收:07 03 0A 08 DA 00 95 00 00 00 00 00 00 8A F6
17:02:28.014 设备发送:07 03 04 A3 00 05 74 BD
17:02:32.998 设备接收:07 03 0A 08 DF 00 A5 00 00 00 00 00 00 85 A5
17:02:33.017 设备发送:07 03 06 84 00 04 04 CE
17:02:38.032 设备接收:07 03 08 00 00 45 C4 00 07 39 87 97 E8
17:02:38.053 设备发送:07 03 04 04 00 01 C4 9D
17:02:43.057 设备接收:07 03 02 00 02 B1 85
17:02:43.076 设备发送:07 03 05 84 00 0F 45 4D
17:02:48.064 设备接收:07 03 1E 16 FA 00 15 00 0C 18 AF 00 11 00 0B 15 BE 00 07 00 04 16 55 00 1D 00 10 00 00 00 00 00 00 44 1F
17:02:48.095 设备发送:07 03 05 93 00 0F F5 49
17:02:53.101 设备接收:07 03 1E 00 00 00 00 00 00 00 00 00 00 00 00 00 00 00 00 00 00 00 00 00 00 00 00 00 00 00 00 00 00 B0 BB
17:02:53.117 设备发送:07 03 05 A2 00 0F A4 86
17:02:58.113 设备接收:07 03 1E 00 00 00 00 00 00 00 00 00 00 00 00 00 00 00 00 00 00 00 00 00 00 00 00 00 00 00 00 00 00 B0 BB
17:02:58.128 设备发送:07 03 05 B1 00 03 55 46
17:03:03.138 设备接收:07 03 06 00 00 00 00 00 00 0A D5
17:03:03.153 设备发送:07 03 04 2B 00 01 F5 54
17:03:08.143 设备接收:07 03 02 01 D1 F1 88
17:03:08.159 设备发送:07 03 04 20 00 01 84 96
17:03:13.152 设备接收:07 03 02 00 17 70 4A
17:03:13.200 设备发送:07 03 04 05 00 01 95 5D
17:03:18.197 设备接收:07 03 02 00 00 30 44
17:03:18.212 设备发送:08 03 04 84 00 04 05 89
17:03:23.203 设备接收:08 03 08 13 8B 00 36 00 00 00 36 89 48
17:03:23.223 设备发送:08 03 04 8D 00 05 14 4B
17:03:28.214 设备接收:08 03 0A 08 DD 01 1E 00 00 00 00 00 00 42 0D
17:03:28.264 设备发送:08 03 04 98 00 05 05 8F
17:03:33.230 设备接收:08 03 0A 08 D7 01 28 00 00 00 00 00 00 6A AE
17:03:33.283 设备发送:08 03 04 A3 00 05 74 42
17:03:38.259 设备接收:08 03 0A 08 E0 01 20 00 00 00 00 00 00 91 5F
17:03:38.268 设备发送:08 03 06 84 00 04 04 31
17:03:43.289 设备接收:08 03 08 00 00 93 C0 00 0F BA 7B A5 79
17:03:43.300 设备发送:08 03 04 04 00 01 C4 62
17:03:48.311 设备接收:08 03 02 00 02 E5 84
17:03:48.326 设备发送:08 03 05 84 00 0F 45 B2
17:03:53.332 设备接收:08 03 1E 16 0A 00 0D 00 07 15 E6 00 03 00 02 16 0A 00 07 00 04 16 5A 00 0E 00 08 16 0A 00 17 00 0D 91 6C
17:03:53.352 设备发送:08 03 05 93 00 0F F5 B6
17:03:58.353 设备接收:08 03 1E 15 BF 00 0D 00 07 15 DE 00 0F 00 08 16 59 00 0D 00 07 15 92 00 0A 00 05 15 39 00 0E 00 08 5F 49
17:03:58.369 设备发送:08 03 05 A2 00 0F A4 79
17:04:03.383 设备接收:08 03 1E 00 00 00 05 00 00 00 00 00 01 00 00 00 00 00 00 00 00 00 00 00 00 00 00 00 00 00 00 00 00 C4 61
17:04:03.398 设备发送:08 03 05 B1 00 03 55 B9
17:04:08.377 设备接收:08 03 06 00 00 00 00 00 00 4B 25
17:04:08.393 设备发送:08 03 04 2B 00 01 F5 AB
17:04:13.415 设备接收:08 03 02 02 85 A4 86
17:04:13.432 设备发送:08 03 04 20 00 01 84 69
17:04:18.414 设备接收:08 03 02 00 2B 24 5A
17:04:18.446 设备发送:08 03 04 05 00 01 95 A2
17:04:23.440 设备接收:08 03 02 00 00 64 45
17:04:23.461 设备发送:09 03 04 84 00 04 04 58
17:04:28.476 设备接收:09 03 08 13 8B 00 2C 00 16 00 31 74 70
17:04:28.487 设备发送:09 03 04 8D 00 05 15 9A
17:04:33.507 设备接收:09 03 0A 08 E4 01 0F 00 00 00 00 00 00 7F DC
17:04:33.523 设备发送:09 03 04 98 00 05 04 5E
17:04:38.530 设备接收:09 03 0A 08 E0 01 2C 00 00 00 00 00 00 5F DE
17:04:38.545 设备发送:09 03 04 A3 00 05 75 93
17:04:43.538 设备接收:09 03 0A 08 EA 01 20 00 00 00 00 00 00 ED 7E
17:04:43.559 设备发送:09 03 06 84 00 04 05 E0
17:04:48.545 设备接收:09 03 08 00 00 84 7D 00 0E 4E EB D9 D5
17:04:48.557 设备发送:09 03 04 04 00 01 C5 B3
17:04:53.569 设备接收:09 03 02 00 02 D8 44
17:04:53.588 设备发送:09 03 05 84 00 0F 44 63
17:04:58.590 设备接收:09 03 1E 16 26 00 00 00 00 14 9E 00 00 00 00 15 95 00 00 00 00 16 22 00 05 00 03 16 57 00 03 00 02 FE B3
17:04:58.606 设备发送:09 03 05 93 00 0F F4 67
17:05:03.620 设备接收:09 03 1E 16 48 00 0F 00 09 15 CE 00 06 00 03 15 D3 00 0E 00 07 15 DA 00 00 00 00 14 DD 00 02 00 01 F9 2C
17:05:03.636 设备发送:09 03 05 A2 00 0F A5 A8
17:05:08.618 设备接收:09 03 1E 00 01 00 00 00 00 00 00 00 00 00 00 00 00 00 00 00 00 00 00 00 00 00 00 00 00 00 00 00 00 79 78
17:05:08.639 设备发送:09 03 05 B1 00 03 54 68
17:05:13.642 设备接收:09 03 06 00 00 00 00 00 00 46 B5
17:05:13.652 设备发送:09 03 04 2B 00 01 F4 7A
17:05:18.667 设备接收:09 03 02 02 76 D9 03
17:05:18.687 设备发送:09 03 04 20 00 01 85 B8
17:05:23.673 设备接收:09 03 02 00 2E D9 99
17:05:23.694 设备发送:09 03 04 05 00 01 94 73
17:05:28.725 设备接收:09 03 02 00 00 59 85
17:05:28.732 设备发送:0A 03 04 84 00 04 04 6B
17:05:33.757 设备发送:0A 03 04 84 00 04 04 6B
17:05:35.50600

