
13:07:01.485 设备发送:07 03 04 8D 00 21 14 AF
13:07:03.521 设备发送:07 03 04 8D 00 21 14 AF
13:07:05.530 设备发送:07 03 04 8D 00 21 14 AF
13:07:07.543 设备发送:07 03 06 84 00 04 04 CE
13:07:09.584 设备发送:07 03 06 84 00 04 04 CE
13:07:11.583 设备发送:07 03 06 84 00 04 04 CE
13:07:13.612 设备发送:07 03 04 04 00 01 C4 9D
13:07:15.638 设备发送:07 03 04 04 00 01 C4 9D
13:07:17.650 设备发送:07 03 04 04 00 01 C4 9D
13:07:19.677 设备发送:08 03 04 84 00 04 05 89
13:07:21.702 设备发送:08 03 04 84 00 04 05 89
13:07:23.701 设备发送:08 03 04 84 00 04 05 89
13:07:25.713 设备发送:08 03 04 8D 00 21 14 50
13:07:27.769 设备发送:08 03 04 8D 00 21 14 50
13:07:29.763 设备发送:08 03 04 8D 00 21 14 50
13:07:31.775 设备发送:08 03 06 84 00 04 04 31
13:07:33.815 设备发送:08 03 06 84 00 04 04 31
13:07:35.825 设备发送:08 03 06 84 00 04 04 31
13:07:37.839 设备发送:08 03 04 04 00 01 C4 62
13:07:39.866 设备发送:08 03 04 04 00 01 C4 62
13:07:41.891 设备发送:08 03 04 04 00 01 C4 62
13:07:43.903 设备发送:09 03 04 84 00 04 04 58
13:07:45.945 设备发送:09 03 04 84 00 04 04 58
13:07:47.955 设备发送:09 03 04 84 00 04 04 58
13:07:49.968 设备发送:09 03 04 8D 00 21 15 81
13:07:52.000 设备发送:09 03 04 8D 00 21 15 81
13:07:53.994 设备发送:09 03 04 8D 00 21 15 81
13:07:56.007 设备发送:09 03 06 84 00 04 05 E0
13:07:58.047 设备发送:09 03 06 84 00 04 05 E0
13:08:00.080 设备发送:09 03 06 84 00 04 05 E0
13:08:02.095 设备发送:09 03 04 04 00 01 C5 B3
13:08:04.108 设备发送:09 03 04 04 00 01 C5 B3
13:08:06.139 设备发送:09 03 04 04 00 01 C5 B3
13:08:08.133 设备发送:0A 03 04 84 00 04 04 6B
13:08:10.161 设备发送:0A 03 04 84 00 04 04 6B
13:08:12.170 设备发送:0A 03 04 84 00 04 04 6B
13:08:14.194 设备发送:0A 03 04 8D 00 21 15 B2
13:08:16.203 设备接收:FF FF FF FF FF FF 0A 03 42 09 09 06 F2 00 00 00 00 00 00 00 00 00 00 00 00 00 00 00 00 00 00 09 00 06 F2 00 00 00 00 00 00 00 00 00 00 00 00 00 00 00 00 00 00 09 0A 06 ED 00 00 00 00 00 00 00 00 00 00 00 00 00 00 00 00 00 00 EF 20
13:08:16.218 设备发送:0A 03 06 84 00 04 05 D3
13:08:18.234 设备接收:FF FF FF FF FF FF
13:08:18.250 设备发送:0A 03 04 04 00 01 C5 80
13:08:20.247 设备接收:FF FF FF FF FF FF FF
13:08:20.262 设备发送:01 03 04 84 00 04 05 10
13:08:22.278 设备接收:FF FF FF FF FF FF FF FF
13:08:22.294 设备发送:01 03 04 8D 00 21 14 C9
13:08:24.294 设备接收:FF FF FF FF FF FF FF 01 03 42 09 09 27 3C 00 00 00 00 00 00 00 00 00 00 00 00 00 00 00 00 00 00 09 2A 27 47 00 00 00 00 00 00 00 00 00 00 00 00 00 00 00 00 00 00 09 21 27 46 00 00 00 00 00 00 00 00 00 00 00 00 00 00 00 00 00 00 47 C1
13:08:24.325 设备发送:01 03 06 84 00 04 04 A8
13:08:26.332 设备接收:FF FF FF FF FF FF FF
13:08:26.356 设备发送:01 03 04 04 00 01 C4 FB
13:08:28.325 设备接收:FF FF FF FF FF FF FF
13:08:28.341 设备发送:02 03 04 84 00 04 05 23
13:08:30.337 设备接收:FF FF FF FF FF FF FF
13:08:30.353 设备发送:02 03 04 8D 00 21 14 FA
13:08:32.360 设备接收:FF FF FF FF FF FF 02 03 42 09 06 25 D5 00 00 00 00 00 00 00 00 00 00 00 00 00 00 00 00 00 00 09 27 25 E3 00 00 00 00 00 00 00 00 00 00 00 00 00 00 00 00 00 00 09 17 25 E2 00 00 00 00 00 00 00 00 00 00 00 00 00 00 00 00 00 00 AF 9C
13:08:32.391 设备发送:02 03 06 84 00 04 04 9B
13:08:34.383 设备接收:FF FF FF FF FF FF
13:08:34.400 设备发送:02 03 04 04 00 01 C4 C8
13:08:36.424 设备接收:FF FF FF FF FF FF FF
13:08:36.439 设备发送:03 03 04 84 00 04 04 F2
13:08:38.419 设备接收:FF FF FF FF FF FF FF
13:08:38.449 设备发送:03 03 04 8D 00 21 15 2B
13:08:40.441 设备接收:FF FF FF FF FF FF FF FF 03 03 42 09 06 28 68 00 00 00 00 00 00 00 00 00 00 00 00 00 00 00 00 00 00 09 2C 28 59 00 00 00 00 00 00 00 00 00 00 00 00 00 00 00 00 00 00 09 1E 28 60 00 00 00 00 00 00 00 00 00 00 00 00 00 00 00 00 00 00 1A 07
13:08:40.457 设备发送:03 03 06 84 00 04 05 4A
13:08:42.484 设备接收:FF FF FF FF FF FF FF FF
13:08:42.500 设备发送:03 03 04 04 00 01 C5 19
13:08:44.495 设备接收:FF FF FF FF FF FF FF
13:08:44.511 设备发送:04 03 04 84 00 04 05 45
13:08:46.508 设备接收:FF FF FF FF FF FF FF
13:08:46.523 设备发送:04 03 04 8D 00 21 14 9C
13:08:48.537 设备接收:FF FF FF FF FF FF 04 03 42 09 16 22 8B 00 00 00 00 00 00 00 00 00 00 00 00 00 00 00 00 00 00 08 FE 22 76 00 00 00 00 00 00 00 00 00 00 00 00 00 00 00 00 00 00 09 20 22 75 00 00 00 00 00 00 00 00 00 00 00 00 00 00 00 00 00 00 99 23
13:08:48.568 设备发送:04 03 06 84 00 04 04 FD
13:08:50.533 设备接收:FF FF FF FF FF FF
13:08:50.580 设备发送:04 03 04 04 00 01 C4 AE
13:08:52.574 设备接收:FF FF FF FF FF FF FF
13:08:52.590 设备发送:05 03 04 84 00 04 04 94
13:08:54.586 设备接收:FF FF FF FF FF FF 1F
13:08:54.603 设备发送:05 03 04 8D 00 21 15 4D
13:08:56.636 设备接收:FF FF FF FF FF FF FF FF 05 03 42 09 0D 1D 0C 00 00 00 00 00 00 00 00 00 00 00 00 00 00 00 00 00 00 09 17 1C EB 00 00 00 00 00 00 00 00 00 00 00 00 00 00 00 00 00 00 09 17 1C F8 00 00 00 00 00 00 00 00 00 00 00 00 00 00 00 00 00 00 24 E1
13:08:56.652 设备发送:05 03 06 84 00 04 05 2C
13:08:58.634 设备接收:FF FF FF FF FF FF BF BC
13:08:58.650 设备发送:05 03 04 04 00 01 C5 7F
13:09:00.683 设备发送:05 03 04 04 00 01 C5 7F
13:09:02.686 设备发送:05 03 04 04 00 01 C5 7F
13:09:04.687 设备接收:FF FF FF FF FF FF FF
13:09:04.703 设备发送:06 03 04 84 00 04 04 A7
13:09:06.717 设备接收:FF FF FF
13:09:06.733 设备发送:06 03 04 8D 00 21 15 7E
13:09:08.726 设备接收:FF FF FF FF FF FF FF 06 03 42 09 0D 1C 9B 00 00 00 00 00 00 00 00 00 00 00 00 00 00 00 00 00 00 09 18 1C 93 00 00 00 00 00 00 00 00 00 00 00 00 00 00 00 00 00 00 09 1C 1C A4 00 00 00 00 00 00 00 00 00 00 00 00 00 00 00 00 00 00 A1 33
13:09:08.742 设备发送:06 03 06 84 00 04 05 1F
13:09:10.734 设备接收:FF FF FF FF FF FF FF
13:09:10.766 设备发送:06 03 04 04 00 01 C5 4C
13:09:12.795 设备发送:06 03 04 04 00 01 C5 4C
13:09:14.770 设备接收:3F 7D F3 FF FF FF FF
13:09:14.817 设备发送:07 03 04 84 00 04 05 76
13:09:16.812 设备接收:FF FF FF FF FF FF FF FF 07 03 08 13 8B 0A 75 FF B9 0A 7D 5B 5F
13:09:16.828 设备发送:07 03 04 8D 00 21 14 AF
13:09:18.822 设备接收:FF FF FF FF FF FF FF 07 03 42 09 0B 0F 11 00 00 00 00 00 00 00 00 00 00 00 00 00 00 00 00 00 00 09 04 0F 2F 00 00 00 00 00 00 00 00 00 00 00 00 00 00 00 00 00 00 09 07 0F 27 00 00 00 00 00 00 00 00 00 00 00 00 00 00 00 00 00 00 23 FF
13:09:18.870 设备发送:07 03 06 84 00 04 04 CE
13:09:20.852 设备接收:FF FF FF FF FF FF FF 07 03 08 00 00 21 58 00 07 09 9E 9A 1A
13:09:20.868 设备发送:07 03 04 04 00 01 C4 9D
13:09:22.875 设备接收:FF FF FF FF FF FF FF 07 03 02 00 02 B1 85
13:09:22.891 设备发送:08 03 04 84 00 04 05 89
13:09:24.883 设备接收:FF FF FF FF FF FF 08 03 08 13 8C 17 20 FF CE 17 20 6A B9
13:09:24.914 设备发送:08 03 04 8D 00 21 14 50
13:09:26.910 设备接收:FF FF FF FF FF FF FF 08 03 42 08 FF 21 9C 00 00 00 00 00 00 00 00 00 00 00 00 00 00 00 00 00 00 08 EE 21 8E 00 00 00 00 00 00 00 00 00 00 00 00 00 00 00 00 00 00 09 00 21 95 00 00 00 00 00 00 00 00 00 00 00 00 00 00 00 00 00 00 6F 2A
13:09:26.926 设备发送:08 03 06 84 00 04 04 31
13:09:28.942 设备接收:FF FF FF FF FF FF FF 08 03 08 00 00 46 B2 00 0F 55 0A 02 A3
13:09:28.958 设备发送:08 03 04 04 00 01 C4 62
13:09:30.955 设备接收:FF FF FF FF FF FF FF 08 03 02 00 02 E5 84
13:09:30.971 设备发送:09 03 04 84 00 04 04 58
13:09:32.969 设备接收:FF FF FF FF FF FF FF FF 09 03 08 13 8B 14 7C FF 85 14 7E 39 A5
13:09:32.985 设备发送:09 03 04 8D 00 21 15 81
13:09:34.978 设备接收:FF FF FF FF FF FF FF 09 03 42 09 04 1D 93 00 00 00 00 00 00 00 00 00 00 00 00 00 00 00 00 00 00 08 F7 1D A1 00 00 00 00 00 00 00 00 00 00 00 00 00 00 00 00 00 00 09 0D 1D 9E 00 00 00 00 00 00 00 00 00 00 00 00 00 00 00 00 00 00 2A 98
13:09:34.994 设备发送:09 03 06 84 00 04 05 E0
13:09:37.006 设备接收:FF FF FF FF FF FF FF 09 03 08 00 00 3F 55 00 0D F3 95 A3 E8
13:09:37.022 设备发送:09 03 04 04 00 01 C5 B3
13:09:39.033 设备接收:FF FF FF FF FF FF FF 09 03 02 00 02 D8 44
13:09:39.049 设备发送:0A 03 04 84 00 04 04 6B
13:09:41.030 设备接收:FF FF FF FF FF FF
13:09:41.062 设备发送:0A 03 04 8D 00 21 15 B2
13:09:43.077 设备接收:FF FF FF FF FF FF 0A 03 42 09 05 06 F9 00 00 00 00 00 00 00 00 00 00 00 00 00 00 00 00 00 00 09 01 06 F8 00 00 00 00 00 00 00 00 00 00 00 00 00 00 00 00 00 00 09 0B 06 F6 00 00 00 00 00 00 00 00 00 00 00 00 00 00 00 00 00 00 E9 47
13:09:43.093 设备发送:0A 03 06 84 00 04 05 D3
13:09:45.075 设备接收:FF FF FF FF FF FF
13:09:45.121 设备发送:0A 03 04 04 00 01 C5 80
13:09:47.104 设备接收:FF FF FF FF FF FF FF
13:09:47.135 设备发送:01 03 04 84 00 04 05 10
13:09:49.134 设备接收:FF FF FF FF FF FF FF FF
13:09:49.149 设备发送:01 03 04 8D 00 21 14 C9
13:09:51.137 设备接收:FF FF FF FF FF FF FF 01 03 42 09 06 27 90 00 00 00 00 00 00 00 00 00 00 00 00 00 00 00 00 00 00 09 2B 27 A1 00 00 00 00 00 00 00 00 00 00 00 00 00 00 00 00 00 00 09 20 27 9B 00 00 00 00 00 00 00 00 00 00 00 00 00 00 00 00 00 00 C5 D8
13:09:51.185 设备发送:01 03 06 84 00 04 04 A8
13:09:53.182 设备接收:FF FF FF FF FF FF FF
13:09:53.197 设备发送:01 03 04 04 00 01 C4 FB
13:09:55.206 设备接收:FF FF FF FF FF FF FF
13:09:55.222 设备发送:02 03 04 84 00 04 05 23
13:09:57.205 设备接收:FF FF FF FF FF FF FF
13:09:57.237 设备发送:02 03 04 8D 00 21 14 FA
13:09:59.211 设备接收:FF FF FF FF FF FF 02 03 42 09 06 26 1F 00 00 00 00 00 00 00 00 00 00 00 00 00 00 00 00 00 00 09 29 26 32 00 00 00 00 00 00 00 00 00 00 00 00 00 00 00 00 00 00 09 18 26 3A 00 00 00 00 00 00 00 00 00 00 00 00 00 00 00 00 00 00 0B E2
13:09:59.243 设备发送:02 03 06 84 00 04 04 9B
13:10:01.247 设备接收:FF FF FF FF FF FF
13:10:01.262 设备发送:02 03 04 04 00 01 C4 C8
13:10:03.279 设备接收:FF FF FF FF FF FF FF
13:10:03.295 设备发送:03 03 04 84 00 04 04 F2
13:10:05.289 设备接收:FF FF FF FF FF FF FF
13:10:05.303 设备发送:03 03 04 8D 00 21 15 2B
13:10:07.312 设备接收:FF FF FF FF FF FF FF FF 03 03 42 09 06 28 8F 00 00 00 00 00 00 00 00 00 00 00 00 00 00 00 00 00 00 09 30 28 79 00 00 00 00 00 00 00 00 00 00 00 00 00 00 00 00 00 00 09 20 28 8E 00 00 00 00 00 00 00 00 00 00 00 00 00 00 00 00 00 00 DD 29
13:10:07.328 设备发送:03 03 06 84 00 04 05 4A
13:10:09.322 设备接收:FF FF FF FF FF FF FF FF
13:10:09.337 设备发送:03 03 04 04 00 01 C5 19
13:10:11.350 设备接收:FF FF FF FF FF FF FF
13:10:11.366 设备发送:04 03 04 84 00 04 05 45
13:21:28.312 设备接收:FF FF FF FF FF FF FF
13:21:28.553 设备发送:04 03 04 8D 00 21 14 9C
13:21:28.631 设备接收:FF FF FF FF FF FF 04 03 42 09 10 22 C2 00 00 00 00 00 00 00 00 00 00 00 00 00 00 00 00 00 00 08 FD 22 B3 00 00 00 00 00 00 00 00 00 00 00 00 00 00 00 00 00 00 09 1E 22 A7 00 00 00 00 00 00 00 00 00 00 00 00 00 00 00 00 00 00 CF EF
13:21:28.678 设备发送:04 03 06 84 00 04 04 FD
13:21:28.710 设备接收:FF FF FF FF FF FF
13:21:29.148 设备发送:04 03 04 04 00 01 C4 AE
13:21:30.086 设备接收:FF FF FF FF FF FF 04 03 42 09 0C 1E DB 00 00 00 00 00 00 00 00 00 00 00 00 00 00 00 00 00 00 08 FB 1E D4 00 00 00 00 00 00 00 00 00 00 00 00 00 00 00 00 00 00 09 1B 1E D5 00 00 00 00 00 00 00 00 00 00 00 00 00 00 00 00 00 00 7F 1F
13:21:30.102 设备发送:04 03 06 84 00 04 04 FD
13:21:32.097 设备接收:FF FF FF FF FF FF
13:21:32.112 设备发送:04 03 04 04 00 01 C4 AE
13:21:34.117 设备接收:FF FF FF FF FF FF FF
13:21:34.132 设备发送:05 03 04 84 00 04 04 94
13:21:36.131 设备接收:FF FF FF FF FF FF FF
13:21:36.161 设备发送:05 03 04 8D 00 21 15 4D
13:21:38.173 设备接收:FF FF FF FF FF FF FF FF 05 03 42 09 02 17 97 00 00 00 00 00 00 00 00 00 00 00 00 00 00 00 00 00 00 09 0B 17 7A 00 00 00 00 00 00 00 00 00 00 00 00 00 00 00 00 00 00 09 0C 17 86 00 00 00 00 00 00 00 00 00 00 00 00 00 00 00 00 00 00 32 48
13:21:38.189 设备发送:05 03 06 84 00 04 05 2C
13:21:40.172 设备接收:FF FF FF FF FF FF FF FF
13:21:40.249 设备发送:05 03 04 04 00 01 C5 7F
13:21:40.75300

