
15:44:16.733 设备接收:01 03 08 00 00 9A EF 00 12 7E 46 5D AD
15:44:16.753 设备发送:01 03 04 04 00 01 C4 FB
15:44:17.554 设备接收:01 03 02 00 02 39 85
15:44:17.593 设备发送:02 03 04 84 00 04 05 23
15:44:18.389 设备接收:02 03 08 13 85 07 FB 00 0F 07 FB 98 91
15:44:18.405 设备发送:02 03 04 8D 00 21 14 FA
15:44:19.215 设备接收:02 03 42 08 EB 0B AC 00 00 00 00 00 00 00 00 00 00 00 00 00 00 00 00 00 00 08 EC 0B B1 00 00 00 00 00 00 00 00 00 00 00 00 00 00 00 00 00 00 08 F3 0B D0 00 00 00 00 00 00 00 00 00 00 00 00 00 00 00 00 00 00 11 1A
15:44:19.231 设备发送:02 03 06 84 00 04 04 9B
15:44:20.043 设备接收:02 03 08 00 00 9E C6 00 12 CC 82 7B 98
15:44:20.059 设备发送:02 03 04 04 00 01 C4 C8
15:44:20.837 设备接收:02 03 02 00 02 7D 85
15:44:20.852 设备发送:03 03 04 84 00 04 04 F2
15:44:21.664 设备接收:03 03 08 13 84 0A F7 FF EA 0A F7 B8 C7
15:44:21.695 设备发送:03 03 04 8D 00 21 15 2B
15:44:22.507 设备接收:03 03 42 08 E6 10 0F 00 00 00 00 00 00 00 00 00 00 00 00 00 00 00 00 00 00 08 F1 10 08 00 00 00 00 00 00 00 00 00 00 00 00 00 00 00 00 00 00 08 F4 10 30 00 00 00 00 00 00 00 00 00 00 00 00 00 00 00 00 00 00 FD 2C
15:44:22.523 设备发送:03 03 06 84 00 04 05 4A
15:44:23.332 设备接收:03 03 08 00 00 AE B2 00 13 43 AA FF 71
15:44:23.349 设备发送:03 03 04 04 00 01 C5 19
15:44:24.131 设备接收:03 03 02 00 02 40 45
15:44:24.147 设备发送:04 03 04 84 00 04 05 45
15:44:24.961 设备接收:04 03 08 13 85 08 84 00 10 08 84 E6 FA
15:44:24.977 设备发送:04 03 04 8D 00 21 14 9C
15:44:25.786 设备接收:04 03 42 08 EC 0C 80 00 00 00 00 00 00 00 00 00 00 00 00 00 00 00 00 00 00 08 E1 0C 7B 00 00 00 00 00 00 00 00 00 00 00 00 00 00 00 00 00 00 08 F5 0C 95 00 00 00 00 00 00 00 00 00 00 00 00 00 00 00 00 00 00 2E 93
15:44:25.816 设备发送:04 03 06 84 00 04 04 FD
15:44:26.629 设备接收:04 03 08 00 00 91 3C 00 10 A0 97 F0 F4
15:44:26.644 设备发送:04 03 04 04 00 01 C4 AE
15:44:27.422 设备接收:04 03 02 00 02 F5 85
15:44:27.438 设备发送:05 03 04 84 00 04 04 94
15:44:28.234 设备接收:05 03 08 13 85 06 47 FF E1 06 47 82 EF
15:44:28.264 设备发送:05 03 04 8D 00 21 15 4D
15:44:29.077 设备接收:05 03 42 08 E4 09 40 00 00 00 00 00 00 00 00 00 00 00 00 00 00 00 00 00 00 08 E8 09 39 00 00 00 00 00 00 00 00 00 00 00 00 00 00 00 00 00 00 08 F1 09 5D 00 00 00 00 00 00 00 00 00 00 00 00 00 00 00 00 00 00 8A DC
15:44:29.109 设备发送:05 03 06 84 00 04 05 2C
15:44:29.916 设备接收:05 03 08 00 00 79 63 00 0E 09 D8 28 8F
15:44:29.932 设备发送:05 03 04 04 00 01 C5 7F
15:44:30.711 设备接收:05 03 02 00 02 C8 45
15:44:30.727 设备发送:06 03 04 84 00 04 04 A7
15:44:31.537 设备接收:06 03 08 13 85 05 BB 00 00 05 BB BD 1F
15:44:31.553 设备发送:06 03 04 8D 00 21 15 7E
15:44:32.362 设备接收:06 03 42 08 E8 08 67 00 00 00 00 00 00 00 00 00 00 00 00 00 00 00 00 00 00 08 E4 08 71 00 00 00 00 00 00 00 00 00 00 00 00 00 00 00 00 00 00 08 F0 08 95 00 00 00 00 00 00 00 00 00 00 00 00 00 00 00 00 00 00 74 45
15:44:32.378 设备发送:06 03 06 84 00 04 05 1F
15:44:33.187 设备接收:06 03 08 00 00 74 50 00 0D FE AE 15 04
15:44:33.203 设备发送:06 03 04 04 00 01 C5 4C
15:44:33.982 设备接收:06 03 02 00 02 8C 45
15:44:34.014 设备发送:07 03 04 84 00 04 05 76
15:44:34.830 设备接收:07 03 08 13 85 02 F5 FF DA 02 FA 03 B5
15:44:34.845 设备发送:07 03 04 8D 00 21 14 AF
15:44:35.635 设备接收:07 03 42 08 ED 04 58 00 00 00 00 00 00 00 00 00 00 00 00 00 00 00 00 00 00 08 E4 04 5E 00 00 00 00 00 00 00 00 00 00 00 00 00 00 00 00 00 00 08 EC 04 54 00 00 00 00 00 00 00 00 00 00 00 00 00 00 00 00 00 00 57 D4
15:44:35.646 设备发送:07 03 06 84 00 04 04 CE
15:44:36.457 设备接收:07 03 08 00 00 40 0F 00 06 EE B9 BD 8D
15:44:36.473 设备发送:07 03 04 04 00 01 C4 9D
15:44:37.284 设备接收:07 03 02 00 02 B1 85
15:44:37.300 设备发送:08 03 04 84 00 04 05 89
15:44:38.109 设备接收:08 03 08 13 85 07 00 00 0C 07 00 ED 1E
15:44:38.124 设备发送:08 03 04 8D 00 21 14 50
15:44:38.906 设备接收:08 03 42 08 E2 0A 71 00 00 00 00 00 00 00 00 00 00 00 00 00 00 00 00 00 00 08 D7 0A 5C 00 00 00 00 00 00 00 00 00 00 00 00 00 00 00 00 00 00 08 E6 0A A3 00 00 00 00 00 00 00 00 00 00 00 00 00 00 00 00 00 00 25 95
15:44:38.937 设备发送:08 03 06 84 00 04 04 31
15:44:39.748 设备接收:08 03 08 00 00 87 26 00 0F 1B FC 96 49
15:44:39.764 设备发送:08 03 04 04 00 01 C4 62
15:44:40.548 设备接收:08 03 02 00 02 E5 84
15:44:40.563 设备发送:09 03 04 84 00 04 04 58
15:44:41.392 设备接收:09 03 08 13 85 06 72 FF D9 06 72 70 61
15:44:41.407 设备发送:09 03 04 8D 00 21 15 81
15:44:42.188 设备接收:09 03 42 08 E4 09 6E 00 00 00 00 00 00 00 00 00 00 00 00 00 00 00 00 00 00 08 DA 09 7C 00 00 00 00 00 00 00 00 00 00 00 00 00 00 00 00 00 00 08 EB 09 94 00 00 00 00 00 00 00 00 00 00 00 00 00 00 00 00 00 00 79 C3
15:44:42.219 设备发送:09 03 06 84 00 04 05 E0
15:44:43.029 设备接收:09 03 08 00 00 7A 42 00 0D BF E5 EC 5A
15:44:43.044 设备发送:09 03 04 04 00 01 C5 B3
15:44:43.855 设备接收:09 03 02 00 02 D8 44
15:44:43.871 设备发送:0A 03 04 84 00 04 04 6B
15:44:44.680 设备发送:0A 03 04 84 00 04 04 6B
15:44:45.491 设备发送:0A 03 04 84 00 04 04 6B
15:44:46.318 设备发送:0A 03 04 8D 00 21 15 B2
15:44:47.127 设备发送:0A 03 04 8D 00 21 15 B2
15:44:47.972 设备发送:0A 03 04 8D 00 21 15 B2
15:44:48.785 设备发送:0A 03 06 84 00 04 05 D3
15:44:49.587 设备发送:0A 03 06 84 00 04 05 D3
15:44:50.11400

