
14:24:10.680 设备接收:01 03 08 00 00 B4 4A 00 13 C9 8B F0 5F
14:24:10.700 设备发送:01 03 04 04 00 01 C4 FB
14:24:15.716 设备接收:01 03 02 00 02 39 85
14:24:15.732 设备发送:01 03 05 84 00 0F 45 2B
14:24:20.712 设备接收:01 03 1E 1F B6 06 6D 05 37 1F DE 06 6A 05 3C 1F 9A 06 68 05 2F 20 11 06 74 05 4C 17 87 03 44 01 F7 C7 C3
14:24:20.758 设备发送:01 03 05 93 00 0F F5 2F
14:24:25.757 设备接收:01 03 1E 00 00 00 00 00 00 1A 90 06 C6 04 9B 1C 30 03 5D 02 6D 1C 1E 03 5E 02 6C 00 00 00 03 00 00 B6 33
14:24:25.773 设备发送:01 03 05 A2 00 0F A4 E0
14:24:30.756 设备接收:01 03 1E 00 00 00 00 00 00 00 00 00 00 00 00 00 00 00 00 00 00 00 00 00 00 00 00 00 00 00 00 00 00 D8 BA
14:24:30.766 设备发送:01 03 05 B1 00 03 55 20
14:24:35.793 设备接收:01 03 06 00 00 00 00 00 00 21 75
14:24:35.808 设备发送:01 03 04 2B 00 01 F5 32
14:24:40.807 设备接收:01 03 02 02 E1 79 6C
14:24:40.822 设备发送:01 03 04 20 00 01 84 F0
14:24:45.824 设备接收:01 03 02 00 1D 78 4D
14:24:45.840 设备发送:01 03 04 05 00 01 95 3B
14:24:50.825 设备接收:01 03 02 00 00 B8 44
14:24:50.856 设备发送:02 03 04 84 00 04 05 23
14:24:55.855 设备接收:02 03 08 13 87 1D D1 FF C5 1D D1 3A 38
14:24:55.870 设备发送:02 03 04 8D 00 05 14 E1
14:25:00.869 设备接收:02 03 0A 09 01 2A C6 00 00 00 00 00 00 D8 A1
14:25:00.889 设备发送:02 03 04 98 00 05 05 25
14:25:05.899 设备接收:02 03 0A 09 28 2A D7 00 00 00 00 00 00 2A 31
14:25:05.909 设备发送:02 03 04 A3 00 05 74 E8
14:25:10.909 设备接收:02 03 0A 09 13 2A C6 00 00 00 00 00 00 0C 01
14:25:10.929 设备发送:02 03 06 84 00 04 04 9B
14:25:15.932 设备接收:02 03 08 00 00 AC 29 00 14 0B E8 98 43
14:25:15.952 设备发送:02 03 04 04 00 01 C4 C8
14:25:20.970 设备接收:02 03 02 00 02 7D 85
14:25:20.993 设备发送:02 03 05 84 00 0F 45 18
14:25:25.975 设备接收:02 03 1E 1F 9A 03 24 02 8A 1F E3 03 22 02 8F 1F D8 03 28 02 93 1F DD 06 3D 05 17 1F E6 03 19 02 87 2A 58
14:25:25.996 设备发送:02 03 05 93 00 0F F5 1C
14:25:31.016 设备接收:02 03 1E 1F D3 03 17 02 84 1F E2 03 24 02 90 1F C7 06 59 05 2A 20 01 03 2B 02 98 1F CB 03 49 02 AC 8F 4E
14:25:31.038 设备发送:02 03 05 A2 00 0F A4 D3
14:25:36.021 设备接收:02 03 1E 00 00 00 04 00 00 00 00 00 00 00 00 00 00 00 00 00 00 00 00 00 00 00 00 00 00 00 00 00 00 92 31
14:25:36.046 设备发送:02 03 05 B1 00 03 55 13
14:25:41.070 设备接收:02 03 06 00 00 00 00 00 00 35 85
14:25:41.081 设备发送:02 03 04 2B 00 01 F5 01
14:25:46.065 设备接收:02 03 02 02 E2 7D 6D
14:25:46.086 设备发送:02 03 04 20 00 01 84 C3
14:25:51.098 设备接收:02 03 02 00 3D 3D 95
14:25:51.121 设备发送:02 03 04 05 00 01 95 08
14:25:56.124 设备接收:02 03 02 00 00 FC 44
14:25:56.144 设备发送:03 03 04 84 00 04 04 F2
14:26:01.148 设备接收:03 03 08 13 8A 1F 78 FF BF 1F 78 5F 39
14:26:01.169 设备发送:03 03 04 8D 00 05 15 30
14:26:06.188 设备接收:03 03 0A 08 FF 2D 35 00 00 00 00 00 00 41 68
14:26:06.197 设备发送:03 03 04 98 00 05 04 F4
14:26:11.175 设备接收:03 03 0A 09 2D 2C F4 00 00 00 00 00 00 85 08
14:26:11.195 设备发送:03 03 04 A3 00 05 75 39
14:26:16.213 设备接收:03 03 0A 09 16 2D 04 00 00 00 00 00 00 93 FA
14:26:16.233 设备发送:03 03 06 84 00 04 05 4A
14:26:21.225 设备接收:03 03 08 00 00 BC 96 00 14 A5 9F B7 B2
14:26:21.258 设备发送:03 03 04 04 00 01 C5 19
14:26:26.261 设备接收:03 03 02 00 02 40 45
14:26:26.280 设备发送:03 03 05 84 00 0F 44 C9
14:26:31.261 设备接收:03 03 1E 1F 62 06 B4 05 63 1F 6A 06 B4 05 64 1F 8F 06 9E 05 59 1F 6E 06 9A 05 50 17 24 06 D2 04 0A 08 61
14:26:31.284 设备发送:03 03 05 93 00 0F F4 CD
14:26:36.295 设备接收:03 03 1E 05 32 00 00 00 00 13 FE 04 B3 02 67 1C 48 03 53 02 68 1C 5A 03 50 02 67 05 38 00 00 00 00 93 BD
14:26:36.315 设备发送:03 03 05 A2 00 0F A5 02
14:26:41.297 设备接收:03 03 1E 00 0D 00 00 00 00 00 00 00 00 00 00 00 00 00 00 00 00 00 00 00 00 00 00 00 00 00 00 00 00 C1 72
14:26:41.320 设备发送:03 03 05 B1 00 03 54 C2
14:26:46.326 设备接收:03 03 06 00 00 00 00 00 00 38 15
14:26:46.347 设备发送:03 03 04 2B 00 01 F4 D0
14:26:51.356 设备接收:03 03 02 02 E2 40 AD
14:26:51.375 设备发送:03 03 04 20 00 01 85 12
14:26:56.353 设备接收:03 03 02 00 1F 80 4C
14:26:56.373 设备发送:03 03 04 05 00 01 94 D9
14:27:01.382 设备接收:03 03 02 00 00 C1 84
14:27:01.402 设备发送:04 03 04 84 00 04 05 45
14:27:06.408 设备接收:04 03 08 13 85 1A 8D FF C8 1A 8D 45 00
14:27:06.429 设备发送:04 03 04 8D 00 05 14 87
14:27:11.423 设备接收:04 03 0A 09 0D 26 47 00 00 00 00 00 00 15 3A
14:27:11.443 设备发送:04 03 04 98 00 05 05 43
14:27:16.458 设备接收:04 03 0A 08 F6 26 40 00 00 00 00 00 00 45 0B
14:27:16.478 设备发送:04 03 04 A3 00 05 74 8E
14:27:21.475 设备接收:04 03 0A 09 18 26 2F 00 00 00 00 00 00 0E 6C
14:27:21.497 设备发送:04 03 06 84 00 04 04 FD
14:27:26.497 设备接收:04 03 08 00 00 A0 75 00 11 CC E6 95 FF
14:27:26.518 设备发送:04 03 04 04 00 01 C4 AE
14:27:31.489 设备接收:04 03 02 00 02 F5 85
14:27:31.538 设备发送:04 03 05 84 00 0F 45 7E
14:27:36.533 设备接收:04 03 1E 1A DC 03 25 02 2A 1C 6F 06 56 04 9C 1A C7 03 3A 02 36 1C 8E 06 7A 04 BC 1C 4B 06 57 04 97 7B 64
14:27:36.553 设备发送:04 03 05 93 00 0F F5 7A
14:27:41.546 设备接收:04 03 1E 1C 90 06 7D 04 BF 1C C3 05 F8 04 65 04 A8 00 02 00 00 04 C6 00 00 00 00 04 BB 00 00 00 00 6A 81
14:27:41.556 设备发送:04 03 05 A2 00 0F A4 B5
14:27:46.561 设备接收:04 03 1E 00 00 00 00 00 00 00 00 00 04 00 00 00 00 00 00 00 00 00 00 00 00 00 00 00 00 00 00 00 00 41 3F
14:27:46.581 设备发送:04 03 05 B1 00 03 55 75
14:27:51.588 设备接收:04 03 06 00 00 00 00 00 00 1E 25
14:27:51.609 设备发送:04 03 04 2B 00 01 F5 67
14:27:56.608 设备接收:04 03 02 02 E9 B4 AA
14:27:56.618 设备发送:04 03 04 20 00 01 84 A5
14:28:01.624 设备接收:04 03 02 00 28 74 5A
14:28:01.635 设备发送:04 03 04 05 00 01 95 6E
14:28:06.652 设备接收:04 03 02 00 00 74 44
14:28:06.662 设备发送:05 03 04 84 00 04 04 94
14:28:11.651 设备接收:05 03 08 13 86 16 6A FF D2 16 6B E3 6B
14:28:11.674 设备发送:05 03 04 8D 00 05 15 56
14:28:16.669 设备接收:05 03 0A 08 FF 20 46 00 00 00 00 00 00 CB F0
14:28:16.691 设备发送:05 03 04 98 00 05 04 92
14:28:21.700 设备接收:05 03 0A 09 13 20 31 00 00 00 00 00 00 01 F6
14:28:21.710 设备发送:05 03 04 A3 00 05 75 5F
14:28:26.716 设备接收:05 03 0A 09 0A 20 35 00 00 00 00 00 00 E3 A6
14:28:26.736 设备发送:05 03 06 84 00 04 05 2C
14:28:31.753 设备接收:05 03 08 00 00 86 EE 00 0F 03 F6 C7 E3
14:28:31.764 设备发送:05 03 04 04 00 01 C5 7F
14:28:36.757 设备接收:05 03 02 00 02 C8 45
14:28:36.779 设备发送:05 03 05 84 00 0F 44 AF
14:28:41.786 设备接收:05 03 1E 04 B1 00 00 00 00 17 86 06 63 03 D9 17 92 06 29 03 B7 17 9D 06 13 03 AC 1E 38 03 03 02 54 F8 10
14:28:41.808 设备发送:05 03 05 93 00 0F F4 AB
14:28:46.816 设备接收:05 03 1E 1E 70 03 01 02 57 04 9E 00 05 00 00 19 44 06 38 04 06 04 AB 00 00 00 00 15 DC 06 12 03 65 E5 CF
14:28:46.838 设备发送:05 03 05 A2 00 0F A5 64
14:28:51.833 设备接收:05 03 1E 00 06 00 00 00 00 00 00 00 04 00 00 00 00 00 00 00 00 00 00 00 00 00 00 00 00 00 00 00 00 AC FB
14:28:51.853 设备发送:05 03 05 B1 00 03 54 A4
14:28:56.837 设备接收:05 03 06 00 00 00 00 00 00 13 B5
14:28:56.848 设备发送:05 03 04 2B 00 01 F4 B6
14:29:01.855 设备接收:05 03 02 02 E8 48 AA
14:29:01.875 设备发送:05 03 04 20 00 01 85 74
14:29:06.872 设备接收:05 03 02 00 2C 48 59
14:29:06.926 设备发送:05 03 04 05 00 01 94 BF
14:29:11.907 设备接收:05 03 02 00 00 49 84
14:29:11.917 设备发送:06 03 04 84 00 04 04 A7
14:29:16.935 设备接收:06 03 08 13 86 16 26 FF D3 16 26 6C 14
14:29:16.946 设备发送:06 03 04 8D 00 05 15 65
14:29:21.959 设备接收:06 03 0A 09 02 1F F1 00 00 00 00 00 00 47 3D
14:29:21.981 设备发送:06 03 04 98 00 05 04 A1
14:29:26.953 设备接收:06 03 0A 09 13 1F D8 00 00 00 00 00 00 3F AF
14:29:27.025 设备发送:06 03 04 A3 00 05 75 6C
14:29:31.990 设备接收:06 03 0A 09 0E 1F EA 00 00 00 00 00 00 B9 3C
14:29:31.999 设备发送:06 03 06 84 00 04 05 1F
14:29:37.015 设备接收:06 03 08 00 00 84 66 00 0E EE AC B5 F1
14:29:37.025 设备发送:06 03 04 04 00 01 C5 4C
14:29:42.037 设备接收:06 03 02 00 02 8C 45
14:29:42.060 设备发送:06 03 05 84 00 0F 44 9C
14:29:47.060 设备接收:06 03 1E 04 9D 00 06 00 00 1C B5 05 FE 04 67 1C B0 06 04 04 6B 1A F9 03 10 02 1D 1E 77 06 45 04 E4 0D D2
14:29:47.418 设备发送:06 03 05 93 00 0F F4 98
14:29:52.080 设备接收:06 03 1E 04 9E 00 01 00 00 04 8C 00 00 00 00 17 8C 06 4E 03 CC 04 8E 00 05 00 00 15 CE 06 46 03 80 7C 47
14:29:52.096 设备发送:06 03 05 A2 00 0F A5 57
14:29:57.088 设备接收:06 03 1E 00 09 00 00 00 00 00 00 00 00 00 00 00 00 00 00 00 00 00 00 00 00 00 00 00 00 00 00 00 00 1D 74
14:29:57.109 设备发送:06 03 05 B1 00 03 54 97
14:30:02.116 设备接收:06 03 06 00 00 00 00 00 00 07 45
14:30:02.137 设备发送:06 03 04 2B 00 01 F4 85
14:30:07.148 设备接收:06 03 02 02 E9 CD 6A
14:30:07.164 设备发送:06 03 04 20 00 01 85 47
14:30:12.178 设备接收:06 03 02 00 36 8D 92
14:30:12.194 设备发送:06 03 04 05 00 01 94 8C
14:30:17.166 设备接收:06 03 02 00 00 0D 84
14:30:17.197 设备发送:07 03 04 84 00 04 05 76
14:30:22.185 设备接收:07 03 08 13 8C 0B 74 FF BC 0B 7B 80 1D
14:30:22.200 设备发送:07 03 04 8D 00 05 14 B4
14:30:27.227 设备接收:07 03 0A 08 F7 10 A5 00 00 00 00 00 00 7A A8
14:30:27.242 设备发送:07 03 04 98 00 05 05 70
14:30:32.254 设备接收:07 03 0A 08 F6 10 B2 00 00 00 00 00 00 10 39
14:30:32.269 设备发送:07 03 04 A3 00 05 74 BD
14:30:37.256 设备接收:07 03 0A 08 F9 10 AE 00 00 00 00 00 00 8C 08
14:30:37.270 设备发送:07 03 06 84 00 04 04 CE
14:30:42.293 设备接收:07 03 08 00 00 45 DF 00 07 70 10 85 D4
14:30:42.309 设备发送:07 03 04 04 00 01 C4 9D
14:30:47.303 设备接收:07 03 02 00 02 B1 85
14:30:47.319 设备发送:07 03 05 84 00 0F 45 4D
14:30:52.314 设备接收:07 03 1E 19 37 06 0C 03 E7 1A C2 02 F6 02 07 1A 75 02 F5 02 00 19 5C 05 DF 03 CF 00 00 00 00 00 00 53 BD
14:30:52.330 设备发送:07 03 05 93 00 0F F5 49
14:30:57.338 设备接收:07 03 1E 00 00 00 00 00 00 00 00 00 00 00 00 00 00 00 00 00 00 00 00 00 00 00 00 00 00 00 00 00 00 B0 BB
14:30:57.354 设备发送:07 03 05 A2 00 0F A4 86
14:31:02.373 设备接收:07 03 1E 00 00 00 00 00 00 00 00 00 00 00 00 00 00 00 00 00 00 00 00 00 00 00 00 00 00 00 00 00 00 B0 BB
14:31:02.388 设备发送:07 03 05 B1 00 03 55 46
14:31:07.385 设备接收:07 03 06 00 00 00 00 00 00 0A D5
14:31:07.400 设备发送:07 03 04 2B 00 01 F5 54
14:31:12.409 设备接收:07 03 02 01 DA B0 4F
14:31:12.440 设备发送:07 03 04 20 00 01 84 96
14:31:17.441 设备接收:07 03 02 00 22 B0 5D
14:31:17.456 设备发送:07 03 04 05 00 01 95 5D
14:31:22.453 设备接收:07 03 02 00 00 30 44
14:31:22.469 设备发送:08 03 04 84 00 04 05 89
14:31:27.483 设备接收:08 03 08 13 8B 17 CB FF CD 17 CC C9 E3
14:31:27.496 设备发送:08 03 04 8D 00 05 14 4B
14:31:32.515 设备接收:08 03 0A 08 EA 22 D1 00 00 00 00 00 00 4D 3D
14:31:32.531 设备发送:08 03 04 98 00 05 05 8F
14:31:37.506 设备接收:08 03 0A 08 DE 22 BC 00 00 00 00 00 00 97 3A
14:31:37.537 设备发送:08 03 04 A3 00 05 74 42
14:31:42.546 设备接收:08 03 0A 08 EB 22 C3 00 00 00 00 00 00 72 AC
14:31:42.554 设备发送:08 03 06 84 00 04 04 31
14:31:47.558 设备接收:08 03 08 00 00 94 7A 00 10 2E 58 63 CA
14:31:47.573 设备发送:08 03 04 04 00 01 C4 62
14:31:52.589 设备接收:08 03 02 00 02 E5 84
14:31:52.605 设备发送:08 03 05 84 00 0F 45 B2
14:31:57.586 设备接收:08 03 1E 12 13 02 9F 01 36 1B BB 02 10 01 76 1A E5 02 38 01 87 1A 57 04 CE 03 3D 19 96 05 66 03 89 80 98
14:31:57.632 设备发送:08 03 05 93 00 0F F5 B6
14:32:02.645 设备接收:08 03 1E 1E 47 05 8E 04 4E 1E 4A 02 D7 02 34 1A C3 02 94 01 C4 19 30 02 B3 01 BD 1A 79 05 5D 03 A2 89 53
14:32:02.665 设备发送:08 03 05 A2 00 0F A4 79
14:32:07.644 设备接收:08 03 1E 00 01 00 09 00 00 00 00 00 06 00 00 00 00 00 00 00 00 00 00 00 00 00 00 00 00 00 00 00 00 73 0B
14:32:07.695 设备发送:08 03 05 B1 00 03 55 B9
14:32:12.684 设备接收:08 03 06 00 00 00 00 00 00 4B 25
14:32:12.700 设备发送:08 03 04 2B 00 01 F5 AB
14:32:17.718 设备接收:08 03 02 02 DD A5 7C
14:32:17.733 设备发送:08 03 04 20 00 01 84 69
14:32:22.741 设备接收:08 03 02 00 24 64 5E
14:32:22.757 设备发送:08 03 04 05 00 01 95 A2
14:32:27.758 设备接收:08 03 02 00 00 64 45
14:32:27.774 设备发送:09 03 04 84 00 04 04 58
14:32:32.793 设备接收:09 03 08 13 86 15 49 00 23 15 49 F8 C1
14:32:32.802 设备发送:09 03 04 8D 00 05 15 9A
14:32:37.795 设备接收:09 03 0A 08 F0 1F 10 00 00 00 00 00 00 EE 9D
14:32:37.825 设备发送:09 03 04 98 00 05 04 5E
14:32:42.836 设备接收:09 03 0A 08 E4 1F 0E 00 00 00 00 00 00 EF 9C
14:32:42.913 设备发送:09 03 04 A3 00 05 75 93
14:32:47.853 设备接收:09 03 0A 08 F9 1E F1 00 00 00 00 00 00 B4 0F
14:32:47.869 设备发送:09 03 06 84 00 04 05 E0
14:32:52.833 设备接收:09 03 08 00 00 84 8C 00 0E B6 79 66 6D
14:32:52.878 设备发送:09 03 04 04 00 01 C5 B3
14:32:57.874 设备接收:09 03 02 00 02 D8 44
14:32:57.889 设备发送:09 03 05 84 00 0F 44 63
14:33:02.884 设备接收:09 03 1E 1E 5D 01 FF 01 8D 1E E8 02 00 01 95 1E 6B 02 36 01 B8 1E 7E 02 80 01 F3 1E A4 02 0D 01 9C 55 40
14:33:02.946 设备发送:09 03 05 93 00 0F F4 67
14:33:07.923 设备接收:09 03 1E 1D 99 05 12 03 D7 1E 47 02 68 01 DD 1E 4D 05 6C 04 34 1D F6 02 72 01 E0 1E 31 02 75 01 E6 76 A0
14:33:07.943 设备发送:09 03 05 A2 00 0F A5 A8
14:33:12.942 设备接收:09 03 1E 00 05 00 00 00 00 00 03 00 03 00 00 00 00 00 00 00 00 00 00 00 00 00 00 00 00 00 00 00 00 1E A9
14:33:12.966 设备发送:09 03 05 B1 00 03 54 68
14:33:17.982 设备接收:09 03 06 00 00 00 00 00 00 46 B5
14:33:17.993 设备发送:09 03 04 2B 00 01 F4 7A
14:33:23.008 设备接收:09 03 02 02 CF 18 B1
14:33:23.027 设备发送:09 03 04 20 00 01 85 B8
14:33:28.015 设备接收:09 03 02 00 28 59 9B
14:33:28.036 设备发送:09 03 04 05 00 01 94 73
14:33:33.022 设备接收:09 03 02 00 00 59 85
14:33:33.034 设备发送:0A 03 04 84 00 04 04 6B
14:33:38.042 设备接收:0A 03 08 13 89 05 2D FF CD 05 32 66 1F
14:33:38.053 设备发送:0A 03 04 8D 00 05 15 A9
14:33:43.060 设备接收:0A 03 0A 08 F5 07 8D 00 00 00 00 00 00 98 6D
14:33:43.079 设备发送:0A 03 04 98 00 05 04 6D
14:33:48.091 设备接收:0A 03 0A 08 F1 07 91 00 00 00 00 00 00 77 6C
14:33:48.103 设备发送:0A 03 04 A3 00 05 75 A0
14:33:53.109 设备接收:0A 03 0A 08 FD 07 88 00 00 00 00 00 00 AA AD
14:33:53.120 设备发送:0A 03 06 84 00 04 05 D3
14:33:58.121 设备接收:0A 03 08 00 00 20 4D 00 03 52 79 97 1F
14:33:58.139 设备发送:0A 03 04 04 00 01 C5 80
14:34:03.142 设备接收:0A 03 02 00 02 9C 44
14:34:03.162 设备发送:0A 03 05 84 00 0F 44 50
14:34:08.164 设备接收:0A 03 1E 18 EF 02 AF 01 B7 18 F8 02 CB 01 C9 19 5D 02 CC 01 D1 0C 0E 00 00 00 00 00 00 00 00 00 00 20 CB
14:34:08.186 设备发送:0A 03 05 93 00 0F F4 54
14:34:13.176 设备接收:0A 03 1E 00 00 00 00 00 00 00 00 00 00 00 00 00 00 00 00 00 00 00 00 00 00 00 00 00 00 00 00 00 00 0D 79
14:34:13.201 设备发送:0A 03 05 A2 00 0F A5 9B
14:34:18.214 设备接收:0A 03 1E 00 00 00 00 00 00 00 00 00 00 00 00 00 00 00 00 00 00 00 00 00 00 00 00 00 00 00 00 00 00 0D 79
14:34:18.234 设备发送:0A 03 05 B1 00 03 54 5B
14:34:23.234 设备接收:0A 03 06 00 00 00 00 00 00 52 45
14:34:23.255 设备发送:0A 03 04 2B 00 01 F4 49
14:34:28.243 设备接收:0A 03 02 01 DE 9C 4D
14:34:28.265 设备发送:0A 03 04 20 00 01 85 8B
14:34:33.257 设备接收:0A 03 02 00 2A 9C 5A
14:34:33.279 设备发送:0A 03 04 05 00 01 94 40
14:34:38.300 设备接收:0A 03 02 00 00 1D 85
14:34:38.323 设备发送:01 03 04 84 00 04 05 10
14:34:43.305 设备接收:01 03 08 13 8B 1D CF FF C4 1D CF 80 B6
14:34:43.315 设备发送:01 03 04 8D 00 05 14 D2
14:34:48.339 设备接收:01 03 0A 08 FA 2A D7 00 00 00 00 00 00 FA 92
14:34:48.360 设备发送:01 03 04 98 00 05 05 16
14:34:53.353 设备接收:01 03 0A 09 1E 2A ED 00 00 00 00 00 00 CA 50
14:34:53.373 设备发送:01 03 04 A3 00 05 74 DB
14:34:58.363 设备接收:01 03 0A 09 0F 2A E1 00 00 00 00 00 00 C6 00
14:34:58.385 设备发送:01 03 06 84 00 04 04 A8
14:34:59.18500

