
13:51:09.655 设备接收:01 03 08 13 85 1C FC FF C5 1C FC 7A E6
13:51:09.671 设备发送:01 03 04 8D 00 05 14 D2
13:51:14.700 设备接收:01 03 0A 09 07 29 83 00 00 00 00 00 00 A2 13
13:51:14.716 设备发送:01 03 04 98 00 05 05 16
13:51:19.708 设备接收:01 03 0A 09 26 29 87 00 00 00 00 00 00 73 82
13:51:19.739 设备发送:01 03 04 A3 00 05 74 DB
13:51:24.728 设备接收:01 03 0A 09 1B 29 88 00 00 00 00 00 00 80 13
13:51:24.743 设备发送:01 03 06 84 00 04 04 A8
13:51:29.741 设备接收:01 03 08 00 00 89 41 00 13 38 FC 54 C5
13:51:29.756 设备发送:01 03 04 04 00 01 C4 FB
13:51:34.774 设备接收:01 03 02 00 02 39 85
13:51:34.790 设备发送:01 03 05 84 00 0F 45 2B
13:51:39.791 设备接收:01 03 1E 1F 3C 06 16 04 DE 1E F1 06 2E 04 E5 1E F1 06 16 04 D2 1F 45 06 26 04 EC 16 F9 03 21 01 D7 9A 9B
13:51:39.807 设备发送:01 03 05 93 00 0F F5 2F
13:51:44.794 设备接收:01 03 1E 00 00 00 00 00 00 19 FE 06 6D 04 47 1B CC 03 2B 02 41 1B EA 03 2C 02 44 00 00 00 05 00 00 A6 0E
13:51:44.840 设备发送:01 03 05 A2 00 0F A4 E0
13:51:49.845 设备接收:01 03 1E 00 00 00 00 00 00 00 00 00 00 00 00 00 00 00 00 00 00 00 00 00 00 00 00 00 00 00 00 00 00 D8 BA
13:51:49.876 设备发送:01 03 05 B1 00 03 55 20
13:51:54.879 设备接收:01 03 06 00 00 00 00 00 00 21 75
13:51:54.895 设备发送:01 03 04 2B 00 01 F5 32
13:51:59.866 设备接收:01 03 02 02 CE 38 B0
13:51:59.882 设备发送:01 03 04 20 00 01 84 F0
13:52:04.900 设备发送:01 03 04 05 00 01 95 3B
13:52:04.912 设备接收:01 03 02 00 20 B9 9C
13:52:09.903 设备接收:01 03 02 00 00 B8 44
13:52:09.925 设备发送:02 03 04 84 00 04 05 23
13:52:14.925 设备接收:02 03 08 13 85 1B AD 00 30 1B AE 2A 32
13:52:14.933 设备发送:02 03 04 8D 00 05 14 E1
13:52:19.963 设备接收:02 03 0A 09 01 27 A2 00 00 00 00 00 00 3C FE
13:52:19.983 设备发送:02 03 04 98 00 05 05 25
13:52:24.987 设备接收:02 03 0A 09 23 27 DF 00 00 00 00 00 00 11 58
13:52:25.007 设备发送:02 03 04 A3 00 05 74 E8
13:52:29.975 设备接收:02 03 0A 09 12 27 D2 00 00 00 00 00 00 94 09
13:52:29.995 设备发送:02 03 06 84 00 04 04 9B
13:52:35.024 设备接收:02 03 08 00 00 83 61 00 13 80 D2 28 F0
13:52:35.045 设备发送:02 03 04 04 00 01 C4 C8
13:52:40.052 设备接收:02 03 02 00 02 7D 85
13:52:40.072 设备发送:02 03 05 84 00 0F 45 18
13:52:45.068 设备接收:02 03 1E 1F 1D 02 FC 02 60 1E EC 02 FD 02 5D 1F 04 03 04 02 65 1F 13 05 F9 04 C0 1F 14 02 F3 02 59 50 7C
13:52:45.087 设备发送:02 03 05 93 00 0F F5 1C
13:52:50.062 设备接收:02 03 1E 1F 0E 02 F0 02 55 1E ED 03 08 02 67 1E E9 06 1F 04 D8 1E DD 03 11 02 6C 1E F0 03 2A 02 82 5E 89
13:52:50.082 设备发送:02 03 05 A2 00 0F A4 D3
13:52:55.112 设备接收:02 03 1E 00 00 00 03 00 00 00 00 00 00 00 00 00 00 00 00 00 00 00 00 00 00 00 00 00 00 00 00 00 00 6D 7D
13:52:55.131 设备发送:02 03 05 B1 00 03 55 13
13:53:00.094 设备接收:02 03 06 00 00 00 00 00 00 35 85
13:53:00.146 设备发送:02 03 04 2B 00 01 F5 01
13:53:05.143 设备接收:02 03 02 02 C9 3D 72
13:53:05.153 设备发送:02 03 04 20 00 01 84 C3
13:53:10.152 设备接收:02 03 02 00 41 3C 74
13:53:10.162 设备发送:02 03 04 05 00 01 95 08
13:53:15.163 设备接收:02 03 02 00 00 FC 44
13:53:15.172 设备发送:03 03 04 84 00 04 04 F2
13:53:20.195 设备接收:03 03 08 13 86 1D EB FF 50 1D ED E6 3C
13:53:20.205 设备发送:03 03 04 8D 00 05 15 30
13:53:25.202 设备接收:03 03 0A 09 02 2A DD 00 00 00 00 00 00 65 D1
13:53:25.210 设备发送:03 03 04 98 00 05 04 F4
13:53:30.226 设备接收:03 03 0A 09 2A 2A A0 00 00 00 00 00 00 36 D7
13:53:30.272 设备发送:03 03 04 A3 00 05 75 39
13:53:35.246 设备接收:03 03 0A 09 17 2A E5 00 00 00 00 00 00 2E 82
13:53:35.258 设备发送:03 03 06 84 00 04 05 4A
13:53:40.266 设备接收:03 03 08 00 00 91 01 00 14 0B E3 B9 93
13:53:40.275 设备发送:03 03 04 04 00 01 C5 19
13:53:45.307 设备接收:03 03 02 00 02 40 45
13:53:45.319 设备发送:03 03 05 84 00 0F 44 C9
13:53:50.312 设备接收:03 03 1E 1F 12 06 6A 05 1A 1E A8 06 7E 05 18 1E E6 06 60 05 0B 1E C7 06 63 05 08 16 AB 06 82 03 C7 10 CB
13:53:50.332 设备发送:03 03 05 93 00 0F F4 CD
13:53:55.330 设备接收:03 03 1E 05 19 00 00 00 00 13 85 04 8F 02 47 1B 9E 03 3E 02 4B 1B D8 03 37 02 4B 05 1E 00 00 00 00 14 31
13:53:55.351 设备发送:03 03 05 A2 00 0F A5 02
13:54:00.363 设备接收:03 03 1E 00 0D 00 00 00 00 00 00 00 00 00 00 00 00 00 00 00 00 00 00 00 00 00 00 00 00 00 00 00 00 C1 72
13:54:00.384 设备发送:03 03 05 B1 00 03 54 C2
13:54:05.384 设备接收:03 03 06 00 00 00 00 00 00 38 15
13:54:05.843 设备发送:03 03 04 2B 00 01 F4 D0
13:54:10.398 设备接收:03 03 02 02 D1 00 B8
13:54:10.418 设备发送:03 03 04 20 00 01 85 12
13:54:15.429 设备接收:03 03 02 00 22 41 9D
13:54:15.440 设备发送:03 03 04 05 00 01 94 D9
13:54:20.448 设备接收:03 03 02 00 00 C1 84
13:54:20.470 设备发送:04 03 04 84 00 04 05 45
13:54:25.457 设备接收:04 03 08 13 8B 19 1B 00 2A 19 1B F2 52
13:54:25.478 设备发送:04 03 04 8D 00 05 14 87
13:54:30.483 设备接收:04 03 0A 09 0D 24 27 00 00 00 00 00 00 F4 E5
13:54:30.502 设备发送:04 03 04 98 00 05 05 43
13:54:35.486 设备接收:04 03 0A 08 FB 24 11 00 00 00 00 00 00 DC 87
13:54:35.507 设备发送:04 03 04 A3 00 05 74 8E
13:54:40.502 设备接收:04 03 0A 09 1C 24 0E 00 00 00 00 00 00 8C 77
13:54:40.553 设备发送:04 03 06 84 00 04 04 FD
13:54:45.549 设备接收:04 03 08 00 00 7B 2E 00 11 4A 6C 01 1E
13:54:45.570 设备发送:04 03 04 04 00 01 C4 AE
13:54:50.580 设备接收:04 03 02 00 02 F5 85
13:54:50.592 设备发送:04 03 05 84 00 0F 45 7E
13:54:55.597 设备接收:04 03 1E 1A 5F 03 06 02 0A 1B EB 06 04 04 4D 19 DA 03 1E 02 10 1B 4A 06 4E 04 67 1B A0 06 2B 04 5D 56 A6
13:54:55.611 设备发送:04 03 05 93 00 0F F5 7A
13:55:00.590 设备接收:04 03 1E 1B E1 06 42 04 77 1B 72 05 FF 04 36 04 80 00 03 00 00 04 9F 00 01 00 00 04 93 00 00 00 00 66 C3
13:55:00.651 设备发送:04 03 05 A2 00 0F A4 B5
13:55:05.622 设备接收:04 03 1E 00 00 00 00 00 00 00 00 00 04 00 00 00 00 00 00 00 00 00 00 00 00 00 00 00 00 00 00 00 00 41 3F
13:55:05.644 设备发送:04 03 05 B1 00 03 55 75
13:55:10.649 设备接收:04 03 06 00 00 00 00 00 00 1E 25
13:55:10.668 设备发送:04 03 04 2B 00 01 F5 67
13:55:15.668 设备接收:04 03 02 02 CB 34 B3
13:55:15.689 设备发送:04 03 04 20 00 01 84 A5
13:55:20.672 设备接收:04 03 02 00 29 B5 9A
13:55:20.693 设备发送:04 03 04 05 00 01 95 6E
13:55:25.709 设备接收:04 03 02 00 00 74 44
13:55:25.721 设备发送:05 03 04 84 00 04 04 94
13:55:30.744 设备接收:05 03 08 13 88 14 F1 FF 82 14 F3 68 4E
13:55:30.765 设备发送:05 03 04 8D 00 05 15 56
13:55:35.750 设备接收:05 03 0A 09 01 1E 28 00 00 00 00 00 00 DF 0F
13:55:35.771 设备发送:05 03 04 98 00 05 04 92
13:55:40.750 设备接收:05 03 0A 09 15 1E 1D 00 00 00 00 00 00 45 0C
13:55:40.801 设备发送:05 03 04 A3 00 05 75 5F
13:55:45.771 设备接收:05 03 0A 09 10 1E 25 00 00 00 00 00 00 C3 9F
13:55:45.822 设备发送:05 03 06 84 00 04 05 2C
13:55:50.820 设备接收:05 03 08 00 00 67 07 00 0E 97 1F 73 0B
13:55:50.840 设备发送:05 03 04 04 00 01 C5 7F
13:55:55.817 设备接收:05 03 02 00 02 C8 45
13:55:55.829 设备发送:05 03 05 84 00 0F 44 AF
13:56:00.835 设备接收:05 03 1E 04 8B 00 00 00 00 16 82 06 46 03 9D 16 E3 05 FD 03 82 16 F0 05 EA 03 79 1D 58 02 E5 02 2D FE 51
13:56:00.859 设备发送:05 03 05 93 00 0F F4 AB
13:56:05.879 设备接收:05 03 1E 1D 5C 02 EA 02 31 04 76 00 05 00 00 18 60 06 10 03 C8 04 84 00 00 00 00 14 FC 05 EB 03 2D BC A3
13:56:05.899 设备发送:05 03 05 A2 00 0F A5 64
13:56:10.914 设备接收:05 03 1E 00 06 00 00 00 00 00 01 00 03 00 00 00 00 00 00 00 00 00 00 00 00 00 00 00 00 00 00 00 00 17 D0
13:56:10.925 设备发送:05 03 05 B1 00 03 54 A4
13:56:15.928 设备接收:05 03 06 00 00 00 00 00 00 13 B5
13:56:15.939 设备发送:05 03 04 2B 00 01 F4 B6
13:56:20.946 设备接收:05 03 02 02 CB 09 73
13:56:20.966 设备发送:05 03 04 20 00 01 85 74
13:56:25.977 设备接收:05 03 02 00 33 09 91
13:56:25.997 设备发送:05 03 04 05 00 01 94 BF
13:56:30.968 设备接收:05 03 02 00 00 49 84
13:56:30.990 设备发送:06 03 04 84 00 04 04 A7
13:56:35.980 设备接收:06 03 08 13 89 14 95 FF 84 14 97 E7 E8
13:56:36.001 设备发送:06 03 04 8D 00 05 15 65
13:56:41.032 设备接收:06 03 0A 09 04 1D 99 00 00 00 00 00 00 04 82
13:56:41.043 设备发送:06 03 04 98 00 05 04 A1
13:56:46.029 设备接收:06 03 0A 09 18 1D 83 00 00 00 00 00 00 27 83
13:56:46.049 设备发送:06 03 04 A3 00 05 75 6C
13:56:51.040 设备接收:06 03 0A 09 12 1D 8C 00 00 00 00 00 00 A6 23
13:56:51.094 设备发送:06 03 06 84 00 04 05 1F
13:56:56.079 设备接收:06 03 08 00 00 64 89 00 0E 85 CD 98 9E
13:56:56.099 设备发送:06 03 04 04 00 01 C5 4C
13:57:01.089 设备接收:06 03 02 00 02 8C 45
13:57:01.108 设备发送:06 03 05 84 00 0F 44 9C
13:57:06.129 设备接收:06 03 1E 04 75 00 05 00 00 1C 0A 05 A5 04 0D 1B C8 05 C7 04 1C 1A 3A 02 EC 01 F6 1D 78 05 F5 04 7F 49 93
13:57:06.138 设备发送:06 03 05 93 00 0F F4 98
13:57:11.158 设备接收:06 03 1E 04 76 00 01 00 00 04 63 00 00 00 00 16 DC 05 FA 03 7F 04 65 00 02 00 00 14 E9 06 04 03 38 58 E3
13:57:11.179 设备发送:06 03 05 A2 00 0F A5 57
13:57:16.169 设备接收:06 03 1E 00 08 00 00 00 00 00 00 00 00 00 00 00 00 00 00 00 00 00 00 00 00 00 00 00 00 00 00 00 00 DD 75
13:57:16.191 设备发送:06 03 05 B1 00 03 54 97
13:57:21.208 设备接收:06 03 06 00 00 00 00 00 00 07 45
13:57:21.227 设备发送:06 03 04 2B 00 01 F4 85
13:57:26.225 设备接收:06 03 02 02 C7 4D 76
13:57:26.238 设备发送:06 03 04 20 00 01 85 47
13:57:31.225 设备接收:06 03 02 00 34 0C 53
13:57:31.247 设备发送:06 03 04 05 00 01 94 8C
13:57:36.256 设备接收:06 03 02 00 00 0D 84
13:57:36.269 设备发送:07 03 04 84 00 04 05 76
13:57:41.277 设备接收:07 03 08 13 89 0A D9 FF D8 0A DF 38 E0
13:57:41.291 设备发送:07 03 04 8D 00 05 14 B4
13:57:46.307 设备接收:07 03 0A 09 00 0F B5 00 00 00 00 00 00 59 D4
13:57:46.331 设备发送:07 03 04 98 00 05 05 70
13:57:51.304 设备接收:07 03 0A 08 FF 0F B9 00 00 00 00 00 00 81 E5
13:57:51.326 设备发送:07 03 04 A3 00 05 74 BD
13:57:56.344 设备接收:07 03 0A 09 02 0F B8 00 00 00 00 00 00 9C 74
13:57:56.353 设备发送:07 03 06 84 00 04 04 CE
13:58:01.351 设备接收:07 03 08 00 00 36 5B 00 07 37 FC 4C B4
13:58:01.375 设备发送:07 03 04 04 00 01 C4 9D
13:58:06.374 设备接收:07 03 02 00 02 B1 85
13:58:06.395 设备发送:07 03 05 84 00 0F 45 4D
13:58:11.397 设备接收:07 03 1E 18 8B 05 CD 03 A5 1A 3E 02 EF 01 F8 19 CF 02 E0 01 E6 18 AC 05 C5 03 A5 00 00 00 00 00 00 65 67
13:58:11.407 设备发送:07 03 05 93 00 0F F5 49
13:58:16.427 设备接收:07 03 1E 00 00 00 00 00 00 00 00 00 00 00 00 00 00 00 00 00 00 00 00 00 00 00 00 00 00 00 00 00 00 B0 BB
13:58:16.446 设备发送:07 03 05 A2 00 0F A4 86
13:58:21.432 设备接收:07 03 1E 00 00 00 00 00 00 00 00 00 00 00 00 00 00 00 00 00 00 00 00 00 00 00 00 00 00 00 00 00 00 B0 BB
13:58:21.455 设备发送:07 03 05 B1 00 03 55 46
13:58:26.451 设备接收:07 03 06 00 00 00 00 00 00 0A D5
13:58:26.472 设备发送:07 03 04 2B 00 01 F5 54
13:58:31.483 设备接收:07 03 02 01 D1 F1 88
13:58:31.493 设备发送:07 03 04 20 00 01 84 96
13:58:36.504 设备接收:07 03 02 00 27 70 5E
13:58:36.526 设备发送:07 03 04 05 00 01 95 5D
13:58:41.536 设备接收:07 03 02 00 00 30 44
13:58:41.558 设备发送:08 03 04 84 00 04 05 89
13:58:46.537 设备接收:08 03 08 13 88 16 BA FF CD 16 BA 07 4F
13:58:46.548 设备发送:08 03 04 8D 00 05 14 4B
13:58:51.572 设备接收:08 03 0A 08 F0 21 14 00 00 00 00 00 00 2B 44
13:58:51.593 设备发送:08 03 04 98 00 05 05 8F
13:58:56.591 设备接收:08 03 0A 08 E8 20 F9 00 00 00 00 00 00 7D 86
13:58:56.611 设备发送:08 03 04 A3 00 05 74 42
13:59:01.604 设备接收:08 03 0A 08 F7 20 FA 00 00 00 00 00 00 C2 B6
13:59:01.617 设备发送:08 03 06 84 00 04 04 31
13:59:06.621 设备接收:08 03 08 00 00 73 D2 00 0F B7 4A CE 5E
13:59:06.642 设备发送:08 03 04 04 00 01 C4 62
13:59:11.657 设备接收:08 03 02 00 02 E5 84
13:59:11.669 设备发送:08 03 05 84 00 0F 45 B2
13:59:16.679 设备接收:08 03 1E 13 87 02 03 01 01 1A 9E 02 11 01 68 1A 78 02 2A 01 77 1A 18 05 1D 03 6A 19 9A 05 3E 03 6F F0 4C
13:59:16.699 设备发送:08 03 05 93 00 0F F5 B6
13:59:21.702 设备接收:08 03 1E 1C 08 05 4C 03 CD 1D B7 02 B6 02 10 1A 53 02 86 01 B3 18 C7 02 A2 01 AB 1A 35 05 3B 03 82 15 DE
13:59:21.722 设备发送:08 03 05 A2 00 0F A4 79
13:59:26.730 设备接收:08 03 1E 00 00 00 09 00 00 00 00 00 04 00 00 00 00 00 00 00 00 00 00 00 00 00 00 00 00 00 00 00 00 90 E8
13:59:26.739 设备发送:08 03 05 B1 00 03 55 B9
13:59:31.738 设备接收:08 03 06 00 00 00 00 00 00 4B 25
13:59:31.758 设备发送:08 03 04 2B 00 01 F5 AB
13:59:36.785 设备接收:08 03 02 02 85 A4 86
13:59:36.807 设备发送:08 03 04 20 00 01 84 69
13:59:41.777 设备接收:08 03 02 00 29 A5 9B
13:59:41.798 设备发送:08 03 04 05 00 01 95 A2
13:59:46.810 设备接收:08 03 02 00 00 64 45
13:59:46.831 设备发送:09 03 04 84 00 04 04 58
13:59:51.830 设备接收:09 03 08 13 87 14 67 FF D4 14 67 01 BC
13:59:51.852 设备发送:09 03 04 8D 00 05 15 9A
13:59:56.843 设备接收:09 03 0A 08 FE 1D B0 00 00 00 00 00 00 83 2E
13:59:56.852 设备发送:09 03 04 98 00 05 04 5E
14:00:01.868 设备接收:09 03 0A 08 F4 1D AF 00 00 00 00 00 00 13 4F
14:00:01.878 设备发送:09 03 04 A3 00 05 75 93
14:00:06.874 设备接收:09 03 0A 09 07 1D AE 00 00 00 00 00 00 42 BE
14:00:06.895 设备发送:09 03 06 84 00 04 05 E0
14:00:11.910 设备接收:09 03 08 00 00 67 9C 00 0E 4C 08 33 79
14:00:11.931 设备发送:09 03 04 04 00 01 C5 B3
14:00:16.926 设备接收:09 03 02 00 02 D8 44
14:00:16.936 设备发送:09 03 05 84 00 0F 44 63
14:00:21.929 设备接收:09 03 1E 1D B4 01 F2 01 7A 1D D4 01 FD 01 85 1D C7 02 27 01 A4 1D ED 02 64 01 D5 1D DB 02 0E 01 92 31 E0
14:00:21.949 设备发送:09 03 05 93 00 0F F4 67
14:00:26.948 设备接收:09 03 1E 1E 02 04 CF 03 B2 1D B3 02 58 01 C8 1D 75 05 49 03 FC 1D 4E 02 68 01 CE 1D 4C 02 70 01 D4 4B 73
14:00:26.999 设备发送:09 03 05 A2 00 0F A5 A8
14:00:32.000 设备接收:09 03 1E 00 03 00 00 00 00 00 01 00 04 00 00 00 00 00 00 00 00 00 00 00 00 00 00 00 00 00 00 00 00 71 63
14:00:32.020 设备发送:09 03 05 B1 00 03 54 68
14:00:37.007 设备接收:09 03 06 00 00 00 00 00 00 46 B5
14:00:37.028 设备发送:09 03 04 2B 00 01 F4 7A
14:00:42.033 设备接收:09 03 02 02 76 D9 03
14:00:42.041 设备发送:09 03 04 20 00 01 85 B8
14:00:47.052 设备接收:09 03 02 00 2C 58 58
14:00:47.072 设备发送:09 03 04 05 00 01 94 73
14:00:52.078 设备接收:09 03 02 00 00 59 85
14:00:52.090 设备发送:0A 03 04 84 00 04 04 6B
14:00:57.123 设备发送:0A 03 04 84 00 04 04 6B
14:01:02.127 设备发送:0A 03 04 84 00 04 04 6B
14:01:07.147 设备发送:0A 03 04 8D 00 05 15 A9
14:01:12.181 设备发送:0A 03 04 8D 00 05 15 A9
14:01:17.193 设备发送:0A 03 04 8D 00 05 15 A9
14:01:22.220 设备发送:0A 03 04 98 00 05 04 6D
14:01:27.235 设备发送:0A 03 04 98 00 05 04 6D
14:01:32.263 设备发送:0A 03 04 98 00 05 04 6D
14:01:37.278 设备发送:0A 03 04 A3 00 05 75 A0
14:01:42.301 设备发送:0A 03 04 A3 00 05 75 A0
14:01:47.301 设备发送:0A 03 04 A3 00 05 75 A0
14:01:52.352 设备发送:0A 03 06 84 00 04 05 D3
14:01:57.340 设备发送:0A 03 06 84 00 04 05 D3
14:02:02.371 设备发送:0A 03 06 84 00 04 05 D3
14:02:07.390 设备发送:0A 03 04 04 00 01 C5 80
14:02:12.430 设备发送:0A 03 04 04 00 01 C5 80
14:02:17.437 设备发送:0A 03 04 04 00 01 C5 80
14:02:22.454 设备发送:0A 03 05 84 00 0F 44 50
14:02:27.451 设备发送:0A 03 05 84 00 0F 44 50
14:02:32.492 设备发送:0A 03 05 84 00 0F 44 50
14:02:37.516 设备发送:0A 03 05 93 00 0F F4 54
14:02:42.519 设备发送:0A 03 05 93 00 0F F4 54
14:02:47.555 设备发送:0A 03 05 93 00 0F F4 54
14:02:52.574 设备发送:0A 03 05 A2 00 0F A5 9B
14:02:57.591 设备发送:0A 03 05 A2 00 0F A5 9B
14:03:02.609 设备发送:0A 03 05 A2 00 0F A5 9B
14:03:07.623 设备发送:0A 03 05 B1 00 03 54 5B
14:03:12.636 设备发送:0A 03 05 B1 00 03 54 5B
14:03:17.664 设备发送:0A 03 05 B1 00 03 54 5B
14:03:22.692 设备发送:0A 03 04 2B 00 01 F4 49
14:03:27.716 设备发送:0A 03 04 2B 00 01 F4 49
14:03:32.744 设备发送:0A 03 04 2B 00 01 F4 49
14:03:37.751 设备发送:0A 03 04 20 00 01 85 8B
14:03:42.765 设备发送:0A 03 04 20 00 01 85 8B
14:03:47.796 设备发送:0A 03 04 20 00 01 85 8B
14:03:52.803 设备发送:0A 03 04 05 00 01 94 40
14:03:57.833 设备发送:0A 03 04 05 00 01 94 40
14:04:02.848 设备发送:0A 03 04 05 00 01 94 40
14:04:07.861 设备发送:01 03 04 84 00 04 05 10
14:04:12.886 设备接收:01 03 08 13 8A 1B B2 00 30 1B B2 4E 7D
14:04:12.896 设备发送:01 03 04 8D 00 05 14 D2
14:04:17.902 设备接收:01 03 0A 09 01 27 AD 00 00 00 00 00 00 C6 3D
14:04:17.921 设备发送:01 03 04 98 00 05 05 16
14:04:22.922 设备接收:01 03 0A 09 24 27 B1 00 00 00 00 00 00 BD 6D
14:04:22.934 设备发送:01 03 04 A3 00 05 74 DB
14:04:27.926 设备接收:01 03 0A 09 18 27 CA 00 00 00 00 00 00 77 6B
14:04:27.950 设备发送:01 03 06 84 00 04 04 A8
14:04:32.945 设备接收:01 03 08 00 00 8F 6B 00 13 39 9A CC DF
14:04:32.969 设备发送:01 03 04 04 00 01 C4 FB
14:04:37.957 设备接收:01 03 02 00 02 39 85
14:04:37.978 设备发送:01 03 05 84 00 0F 45 2B
14:04:42.982 设备接收:01 03 1E 1F 13 05 D6 04 A5 1E EF 05 EB 04 B0 1F 3D 05 C7 04 9E 1F 68 05 DF 04 B9 16 F8 03 01 01 C4 C5 38
14:04:43.004 设备发送:01 03 05 93 00 0F F5 2F
14:04:47.996 设备接收:01 03 1E 00 00 00 00 00 00 19 D7 06 3F 04 22 1B F5 03 08 02 2B 1B EB 03 0D 02 2E 00 00 00 03 00 00 39 1A
14:04:48.019 设备发送:01 03 05 A2 00 0F A4 E0
14:04:53.025 设备接收:01 03 1E 00 00 00 00 00 00 00 00 00 00 00 00 00 00 00 00 00 00 00 00 00 00 00 00 00 00 00 00 00 00 D8 BA
14:04:53.039 设备发送:01 03 05 B1 00 03 55 20
14:04:58.027 设备接收:01 03 06 00 00 00 00 00 00 21 75
14:04:58.047 设备发送:01 03 04 2B 00 01 F5 32
14:05:03.057 设备接收:01 03 02 02 CE 38 B0
14:05:03.068 设备发送:01 03 04 20 00 01 84 F0
14:05:08.079 设备接收:01 03 02 00 20 B9 9C
14:05:08.100 设备发送:01 03 04 05 00 01 95 3B
14:05:13.094 设备接收:01 03 02 00 00 B8 44
14:05:13.114 设备发送:02 03 04 84 00 04 05 23
14:05:18.109 设备接收:02 03 08 13 85 1A 97 FF C9 1A 98 92 45
14:05:18.131 设备发送:02 03 04 8D 00 05 14 E1
14:05:23.149 设备接收:02 03 0A 09 02 26 08 00 00 00 00 00 00 E3 C8
14:05:23.158 设备发送:02 03 04 98 00 05 05 25
14:05:28.156 设备接收:02 03 0A 09 23 26 0D 00 00 00 00 00 00 22 99
14:05:28.175 设备发送:02 03 04 A3 00 05 74 E8
14:05:33.182 设备接收:02 03 0A 09 10 26 11 00 00 00 00 00 00 BF A9
14:05:33.202 设备发送:02 03 06 84 00 04 04 9B
14:05:38.187 设备接收:02 03 08 00 00 89 43 00 13 81 68 50 7E
14:05:38.207 设备发送:02 03 04 04 00 01 C4 C8
14:05:43.207 设备接收:02 03 02 00 02 7D 85
14:05:43.225 设备发送:02 03 05 84 00 0F 45 18
14:05:48.249 设备接收:02 03 1E 1F 44 02 CF 02 40 1F 15 02 D0 02 3D 1E DB 02 DE 02 44 1F 37 05 A5 04 83 1E E7 02 D1 02 3B 3C 56
14:05:48.260 设备发送:02 03 05 93 00 0F F5 1C
14:05:53.239 设备接收:02 03 1E 1E E7 02 CC 02 36 1E C5 02 E5 02 48 1E EA 05 D1 04 9A 1E DF 02 E9 02 4D 1E C8 03 08 02 63 88 DF
14:05:53.260 设备发送:02 03 05 A2 00 0F A4 D3
14:05:58.281 设备接收:02 03 1E 00 00 00 04 00 00 00 00 00 00 00 00 00 00 00 00 00 00 00 00 00 00 00 00 00 00 00 00 00 00 92 31
14:05:58.303 设备发送:02 03 05 B1 00 03 55 13
14:06:03.290 设备接收:02 03 06 00 00 00 00 00 00 35 85
14:06:03.309 设备发送:02 03 04 2B 00 01 F5 01
14:06:08.336 设备接收:02 03 02 02 C9 3D 72
14:06:08.348 设备发送:02 03 04 20 00 01 84 C3
14:06:13.354 设备接收:02 03 02 00 42 7C 75
14:06:13.363 设备发送:02 03 04 05 00 01 95 08
14:06:18.365 设备接收:02 03 02 00 00 FC 44
14:06:18.377 设备发送:03 03 04 84 00 04 04 F2
14:06:23.373 设备接收:03 03 08 13 8B 1C 69 FF C5 1C 6A 12 ED
14:06:23.382 设备发送:03 03 04 8D 00 05 15 30
14:06:28.398 设备接收:03 03 0A 08 FF 28 BB 00 00 00 00 00 00 EF 5F
14:06:28.420 设备发送:03 03 04 98 00 05 04 F4
14:06:33.411 设备接收:03 03 0A 09 26 28 9F 00 00 00 00 00 00 2D 0D
14:06:33.431 设备发送:03 03 04 A3 00 05 75 39
14:06:38.445 设备接收:03 03 0A 09 16 28 87 00 00 00 00 00 00 E1 0D
14:06:38.466 设备发送:03 03 06 84 00 04 05 4A
14:06:43.454 设备接收:03 03 08 00 00 97 51 00 14 0C 84 3A 23
14:06:43.465 设备发送:03 03 04 04 00 01 C5 19
14:06:48.482 设备接收:03 03 02 00 02 40 45
14:06:48.501 设备发送:03 03 05 84 00 0F 44 C9
14:06:53.491 设备接收:03 03 1E 1E EE 06 20 04 DA 1E D0 06 26 04 D9 1E C3 06 0F 04 C5 1E F0 06 06 04 C5 16 85 06 30 03 91 56 AA
14:06:53.531 设备发送:03 03 05 93 00 0F F4 CD
14:06:58.514 设备接收:03 03 1E 05 18 00 00 00 00 13 71 04 58 02 29 1B 9E 03 0F 02 2A 1B 89 03 14 02 2C 05 1A 00 00 00 00 B1 B7
14:06:58.557 设备发送:03 03 05 A2 00 0F A5 02
14:07:03.567 设备接收:03 03 1E 00 0F 00 00 00 00 00 00 00 00 00 00 00 00 00 00 00 00 00 00 00 00 00 00 00 00 00 00 00 00 41 71
14:07:03.587 设备发送:03 03 05 B1 00 03 54 C2
14:07:08.575 设备接收:03 03 06 00 00 00 00 00 00 38 15
14:07:08.594 设备发送:03 03 04 2B 00 01 F4 D0
14:07:13.578 设备接收:03 03 02 02 D1 00 B8
14:07:13.599 设备发送:03 03 04 20 00 01 85 12
14:07:18.608 设备接收:03 03 02 00 22 41 9D
14:07:18.620 设备发送:03 03 04 05 00 01 94 D9
14:07:23.614 设备接收:03 03 02 00 00 C1 84
14:07:23.635 设备发送:04 03 04 84 00 04 05 45
14:07:28.643 设备接收:04 03 08 13 8B 17 DA FF CB 17 DA 6B 7F
14:07:28.654 设备发送:04 03 04 8D 00 05 14 87
14:07:33.664 设备接收:04 03 0A 09 0B 22 62 00 00 00 00 00 00 4B AB
14:07:33.685 设备发送:04 03 04 98 00 05 05 43
14:07:38.704 设备接收:04 03 0A 08 FA 22 60 00 00 00 00 00 00 30 3A
14:07:38.725 设备发送:04 03 04 A3 00 05 74 8E
14:07:43.719 设备接收:04 03 0A 09 1C 22 54 00 00 00 00 00 00 F6 58
14:07:43.739 设备发送:04 03 06 84 00 04 04 FD
14:07:48.737 设备接收:04 03 08 00 00 80 76 00 11 4A F3 75 30
14:07:48.749 设备发送:04 03 04 04 00 01 C4 AE
14:07:53.745 设备接收:04 03 02 00 02 F5 85
14:07:53.756 设备发送:04 03 05 84 00 0F 45 7E
14:07:58.754 设备接收:04 03 1E 1A 10 02 E7 01 EF 1B C6 05 C2 04 18 1A 2B 02 ED 01 F6 1B 4B 05 FC 04 2E 1B A3 05 DE 04 27 A3 B5
14:07:58.773 设备发送:04 03 05 93 00 0F F5 7A
14:08:03.781 设备接收:04 03 1E 1B 94 06 04 04 3F 1B 9D 05 A3 03 FC 04 86 00 02 00 00 04 A5 00 01 00 00 04 99 00 01 00 00 D5 5D
14:08:03.792 设备发送:04 03 05 A2 00 0F A4 B5
14:08:08.799 设备接收:04 03 1E 00 00 00 00 00 00 00 01 00 04 00 00 00 00 00 00 00 00 00 00 00 00 00 00 00 00 00 00 00 00 8C A3
14:08:08.820 设备发送:04 03 05 B1 00 03 55 75
14:08:13.816 设备接收:04 03 06 00 00 00 00 00 00 1E 25
14:08:13.826 设备发送:04 03 04 2B 00 01 F5 67
14:08:18.858 设备接收:04 03 02 02 CB 34 B3
14:08:18.870 设备发送:04 03 04 20 00 01 84 A5
14:08:23.854 设备接收:04 03 02 00 26 F5 9E
14:08:23.878 设备发送:04 03 04 05 00 01 95 6E
14:08:28.886 设备接收:04 03 02 00 00 74 44
14:08:28.896 设备发送:05 03 04 84 00 04 04 94
14:08:33.904 设备接收:05 03 08 13 8C 13 F8 FF 89 13 FA 43 CC
14:08:33.925 设备发送:05 03 04 8D 00 05 15 56
14:08:38.917 设备接收:05 03 0A 09 01 1C CF 00 00 00 00 00 00 C9 D8
14:08:38.926 设备发送:05 03 04 98 00 05 04 92
14:08:43.946 设备接收:05 03 0A 09 13 1C B0 00 00 00 00 00 00 93 BF
14:08:43.966 设备发送:05 03 04 A3 00 05 75 5F
14:08:48.978 设备接收:05 03 0A 09 13 1C B2 00 00 00 00 00 00 B0 7F
14:08:48.988 设备发送:05 03 06 84 00 04 05 2C
14:08:53.967 设备接收:05 03 08 00 00 6B 73 00 0E 97 90 82 68
14:08:53.991 设备发送:05 03 04 04 00 01 C5 7F
14:08:58.991 设备接收:05 03 02 00 02 C8 45
14:08:59.012 设备发送:05 03 05 84 00 0F 44 AF
14:09:04.021 设备接收:05 03 1E 04 8F 00 00 00 00 16 A8 05 EA 03 6E 16 BE 05 B2 03 50 16 F2 05 9A 03 4A 1D 59 02 BA 02 0C 95 64
14:09:04.033 设备发送:05 03 05 93 00 0F F4 AB
14:09:09.056 设备接收:05 03 1E 1D 84 02 C1 02 15 04 79 00 05 00 00 18 86 05 B6 03 96 04 87 00 00 00 00 15 49 05 87 03 03 9B 1D
14:09:09.077 设备发送:05 03 05 A2 00 0F A5 64
14:09:14.099 设备接收:05 03 1E 00 07 00 00 00 00 00 00 00 04 00 00 00 00 00 00 00 00 00 00 00 00 00 00 00 00 00 00 00 00 6C FA
14:09:14.111 设备发送:05 03 05 B1 00 03 54 A4
14:09:19.101 设备接收:05 03 06 00 00 00 00 00 00 13 B5
14:09:19.122 设备发送:05 03 04 2B 00 01 F4 B6
14:09:24.120 设备接收:05 03 02 02 CB 09 73
14:09:24.139 设备发送:05 03 04 20 00 01 85 74
14:09:29.129 设备接收:05 03 02 00 28 49 9A
14:09:29.179 设备发送:05 03 04 05 00 01 94 BF
14:09:34.178 设备接收:05 03 02 00 00 49 84
14:09:34.197 设备发送:06 03 04 84 00 04 04 A7
14:09:39.200 设备接收:06 03 08 13 8C 13 91 00 1F 13 91 81 56
14:09:39.210 设备发送:06 03 04 8D 00 05 15 65
14:09:44.207 设备接收:06 03 0A 09 04 1C 2A 00 00 00 00 00 00 47 85
14:09:44.236 设备发送:06 03 04 98 00 05 04 A1
14:09:49.238 设备接收:06 03 0A 09 15 1C 2F 00 00 00 00 00 00 D2 D5
14:09:49.256 设备发送:06 03 04 A3 00 05 75 6C
14:09:54.270 设备接收:06 03 0A 09 13 1C 42 00 00 00 00 00 00 45 B3
14:09:54.282 设备发送:06 03 06 84 00 04 05 1F
14:09:59.285 设备接收:06 03 08 00 00 68 DC 00 0E 86 3C 55 2A
14:09:59.307 设备发送:06 03 04 04 00 01 C5 4C
14:10:04.296 设备接收:06 03 02 00 02 8C 45
14:10:04.316 设备发送:06 03 05 84 00 0F 44 9C
14:10:09.306 设备接收:06 03 1E 04 78 00 04 00 00 1B E4 05 71 03 E2 1B F3 05 84 03 F2 1A 3D 02 CC 01 E1 1D A2 05 A8 04 4A DA B8
14:10:09.324 设备发送:06 03 05 93 00 0F F4 98
14:10:14.335 设备发送:06 03 05 A2 00 0F A5 57
14:10:14.357 设备接收:06 03 1E 04 78 00 00 00 00 04 65 00 00 00 00 17 01 05 B0 03 59 04 67 00 04 00 00 14 C1 05 CE 03 15 09 9F
14:10:19.367 设备接收:06 03 1E 00 09 00 00 00 00 00 00 00 00 00 00 00 00 00 00 00 00 00 00 00 00 00 00 00 00 00 00 00 00 1D 74
14:10:19.378 设备发送:06 03 05 B1 00 03 54 97
14:10:24.374 设备接收:06 03 06 00 00 00 00 00 00 07 45
14:10:24.394 设备发送:06 03 04 2B 00 01 F4 85
14:10:29.406 设备接收:06 03 02 02 C7 4D 76
14:10:29.425 设备发送:06 03 04 20 00 01 85 47
14:10:34.427 设备接收:06 03 02 00 2E 8D 98
14:10:34.453 设备发送:06 03 04 05 00 01 94 8C
14:10:39.436 设备接收:06 03 02 00 00 0D 84
14:10:39.457 设备发送:07 03 04 84 00 04 05 76
14:10:44.445 设备接收:07 03 08 13 8C 0A 53 FF ED 0A 5A 25 92
14:10:44.454 设备发送:07 03 04 8D 00 05 14 B4
14:10:49.474 设备接收:07 03 0A 09 02 0E F6 00 00 00 00 00 00 F3 BC
14:10:49.488 设备发送:07 03 04 98 00 05 05 70
14:10:54.499 设备接收:07 03 0A 09 04 0F 05 00 00 00 00 00 00 DA DF
14:10:54.510 设备发送:07 03 04 A3 00 05 74 BD
14:10:59.511 设备接收:07 03 0A 09 01 0F 0B 00 00 00 00 00 00 0A 4F
14:10:59.532 设备发送:07 03 06 84 00 04 04 CE
14:11:04.527 设备接收:07 03 08 00 00 38 A5 00 07 38 37 20 29
14:11:04.545 设备发送:07 03 04 04 00 01 C4 9D
14:11:09.551 设备接收:07 03 02 00 02 B1 85
14:11:09.561 设备发送:07 03 05 84 00 0F 45 4D
14:11:14.596 设备接收:07 03 1E 18 3B 05 92 03 75 19 EF 02 D0 01 DE 19 CE 02 BE 01 D0 18 AB 05 79 03 75 00 00 00 00 00 00 D5 1B
14:11:14.609 设备发送:07 03 05 93 00 0F F5 49
14:11:19.614 设备接收:07 03 1E 00 00 00 00 00 00 00 00 00 00 00 00 00 00 00 00 00 00 00 00 00 00 00 00 00 00 00 00 00 00 B0 BB
14:11:19.623 设备发送:07 03 05 A2 00 0F A4 86
14:11:24.612 设备接收:07 03 1E 00 00 00 00 00 00 00 00 00 00 00 00 00 00 00 00 00 00 00 00 00 00 00 00 00 00 00 00 00 00 B0 BB
14:11:24.621 设备发送:07 03 05 B1 00 03 55 46
14:11:29.660 设备接收:07 03 06 00 00 00 00 00 00 0A D5
14:11:29.669 设备发送:07 03 04 2B 00 01 F5 54
14:11:34.658 设备接收:07 03 02 01 D1 F1 88
14:11:34.678 设备发送:07 03 04 20 00 01 84 96
14:11:39.690 设备接收:07 03 02 00 26 B1 9E
14:11:39.711 设备发送:07 03 04 05 00 01 95 5D
14:11:44.700 设备接收:07 03 02 00 00 30 44
14:11:44.710 设备发送:08 03 04 84 00 04 05 89
14:11:49.719 设备接收:08 03 08 13 8B 15 A7 FF 7E 15 A8 A9 64
14:11:49.728 设备发送:08 03 04 8D 00 05 14 4B
14:11:54.737 设备接收:08 03 0A 08 F9 1F 8B 00 00 00 00 00 00 AC 85
14:11:54.757 设备发送:08 03 04 98 00 05 05 8F
14:11:59.744 设备接收:08 03 0A 08 EC 1F 8E 00 00 00 00 00 00 0B 15
14:11:59.764 设备发送:08 03 04 A3 00 05 74 42
14:12:04.781 设备接收:08 03 0A 08 FF 1F 97 00 00 00 00 00 00 5A E4
14:12:04.792 设备发送:08 03 06 84 00 04 04 31
14:12:09.806 设备接收:08 03 08 00 00 78 9F 00 0F B7 C4 63 4F
14:12:09.826 设备发送:08 03 04 04 00 01 C4 62
14:12:14.839 设备接收:08 03 02 00 02 E5 84
14:12:14.850 设备发送:08 03 05 84 00 0F 45 B2
14:12:19.855 设备接收:08 03 1E 11 80 02 4A 01 06 1A C5 01 F9 01 5A 1A A0 02 13 01 6A 19 EE 04 ED 03 45 19 4B 05 15 03 4A C6 27
14:12:19.867 设备发送:08 03 05 93 00 0F F5 B6
14:12:24.861 设备接收:08 03 1E 1D 48 04 DA 03 A3 1D 66 02 9F 01 F9 1A 52 02 6B 01 A1 18 C9 02 8A 01 9C 1A 35 05 06 03 5F EB F4
14:12:24.883 设备发送:08 03 05 A2 00 0F A4 79
14:12:29.891 设备接收:08 03 1E 00 00 00 09 00 00 00 00 00 04 00 00 00 00 00 00 00 00 00 00 00 00 00 00 00 00 00 00 00 00 90 E8
14:12:29.901 设备发送:08 03 05 B1 00 03 55 B9
14:12:34.896 设备接收:08 03 06 00 00 00 00 00 00 4B 25
14:12:34.917 设备发送:08 03 04 2B 00 01 F5 AB
14:12:39.944 设备接收:08 03 02 02 85 A4 86
14:12:39.954 设备发送:08 03 04 20 00 01 84 69
14:12:44.957 设备接收:08 03 02 00 25 A5 9E
14:12:44.977 设备发送:08 03 04 05 00 01 95 A2
14:12:49.958 设备接收:08 03 02 00 00 64 45
14:12:49.970 设备发送:09 03 04 84 00 04 04 58
14:12:54.974 设备接收:09 03 08 13 8B 13 D0 FF D3 13 D1 0A 56
14:12:54.994 设备发送:09 03 04 8D 00 05 15 9A
14:13:00.029 设备接收:09 03 0A 09 00 1C B9 00 00 00 00 00 00 C2 43
14:13:00.038 设备发送:09 03 04 98 00 05 04 5E
14:13:05.010 设备接收:09 03 0A 08 F6 1C B8 00 00 00 00 00 00 AC E2
14:13:05.031 设备发送:09 03 04 A3 00 05 75 93
14:13:10.035 设备接收:09 03 0A 09 09 1C B7 00 00 00 00 00 00 47 D3
14:13:10.056 设备发送:09 03 06 84 00 04 05 E0
14:13:15.071 设备接收:09 03 08 00 00 6B F3 00 0E 4C 77 A6 5C
14:13:15.081 设备发送:09 03 04 04 00 01 C5 B3
14:13:20.072 设备接收:09 03 02 00 02 D8 44
14:13:20.093 设备发送:09 03 05 84 00 0F 44 63
14:13:25.108 设备接收:09 03 1E 1D B6 01 DF 01 6C 1D FC 01 E7 01 75 1E 17 02 0D 01 94 1E 16 02 4A 01 C4 1D B3 01 FE 01 84 7D 90
14:13:25.128 设备发送:09 03 05 93 00 0F F4 67
14:13:30.121 设备接收:09 03 1E 1D AF 04 C8 03 A2 1D 88 02 46 01 B8 1D 9C 05 1C 03 E0 1D 4E 02 55 01 BF 1D 9A 02 56 01 C5 C0 EC
14:13:30.167 设备发送:09 03 05 A2 00 0F A5 A8
14:13:35.153 设备接收:09 03 1E 00 04 00 00 00 00 00 02 00 03 00 00 00 00 00 00 00 00 00 00 00 00 00 00 00 00 00 00 00 00 13 34
14:13:35.202 设备发送:09 03 05 B1 00 03 54 68
14:13:40.196 设备接收:09 03 06 00 00 00 00 00 00 46 B5
14:13:40.217 设备发送:09 03 04 2B 00 01 F4 7A
14:13:45.190 设备接收:09 03 02 02 76 D9 03
14:13:45.239 设备发送:09 03 04 20 00 01 85 B8
14:13:50.239 设备接收:09 03 02 00 32 D8 50
14:13:50.248 设备发送:09 03 04 05 00 01 94 73
14:13:55.256 设备接收:09 03 02 00 00 59 85
14:13:55.266 设备发送:0A 03 04 84 00 04 04 6B
14:14:00.252 设备接收:0A 03 08 13 8B 04 A3 FF D7 04 A8 8C 2D FF
14:14:00.273 设备发送:0A 03 04 8D 00 05 15 A9
14:14:05.310 设备发送:0A 03 04 8D 00 05 15 A9
14:14:10.335 设备发送:0A 03 04 8D 00 05 15 A9
14:14:15.336 设备发送:0A 03 04 98 00 05 04 6D
14:14:20.375 设备发送:0A 03 04 98 00 05 04 6D
14:14:25.385 设备发送:0A 03 04 98 00 05 04 6D
14:14:30.420 设备发送:0A 03 04 A3 00 05 75 A0
14:14:35.439 设备发送:0A 03 04 A3 00 05 75 A0
14:14:40.441 设备发送:0A 03 04 A3 00 05 75 A0
14:14:45.477 设备发送:0A 03 06 84 00 04 05 D3
14:14:50.491 设备发送:0A 03 06 84 00 04 05 D3
14:14:55.496 设备发送:0A 03 06 84 00 04 05 D3
14:15:00.516 设备发送:0A 03 04 04 00 01 C5 80
14:15:05.535 设备发送:0A 03 04 04 00 01 C5 80
14:15:10.550 设备发送:0A 03 04 04 00 01 C5 80
14:15:15.602 设备发送:0A 03 05 84 00 0F 44 50
14:15:20.617 设备发送:0A 03 05 84 00 0F 44 50
14:15:25.638 设备发送:0A 03 05 84 00 0F 44 50
14:15:30.632 设备发送:0A 03 05 93 00 0F F4 54
14:15:35.654 设备接收:0A 03 1E 00 00 00 00 00 00 00 00 00 00 00 00 00 00 00 00 00 00 00 00 00 00 00 00 00 00 00 00 00 00 0D 79 FF
14:15:35.674 设备发送:0A 03 05 A2 00 0F A5 9B
14:15:40.700 设备发送:0A 03 05 A2 00 0F A5 9B
14:15:45.708 设备发送:0A 03 05 A2 00 0F A5 9B
14:15:50.729 设备发送:0A 03 05 B1 00 03 54 5B
14:15:55.729 设备发送:0A 03 05 B1 00 03 54 5B
14:16:00.752 设备发送:0A 03 05 B1 00 03 54 5B
14:16:05.783 设备发送:0A 03 04 2B 00 01 F4 49
14:16:10.813 设备发送:0A 03 04 2B 00 01 F4 49
14:16:15.841 设备发送:0A 03 04 2B 00 01 F4 49
14:16:20.827 设备发送:0A 03 04 20 00 01 85 8B
14:16:25.863 设备发送:0A 03 04 20 00 01 85 8B
14:16:30.872 设备发送:0A 03 04 20 00 01 85 8B
14:16:35.912 设备发送:0A 03 04 05 00 01 94 40
14:16:40.903 设备发送:0A 03 04 05 00 01 94 40
14:16:45.949 设备发送:0A 03 04 05 00 01 94 40
14:16:50.972 设备发送:01 03 04 84 00 04 05 10
14:16:55.977 设备发送:01 03 04 84 00 04 05 10
14:17:00.999 设备发送:01 03 04 84 00 04 05 10
14:17:06.004 设备发送:01 03 04 8D 00 05 14 D2
14:17:11.046 设备发送:01 03 04 8D 00 05 14 D2
14:17:16.052 设备发送:01 03 04 8D 00 05 14 D2
14:17:21.076 设备发送:01 03 04 98 00 05 05 16
14:17:26.094 设备发送:01 03 04 98 00 05 05 16
14:17:31.104 设备发送:01 03 04 98 00 05 05 16
14:17:36.146 设备发送:01 03 04 A3 00 05 74 DB
14:17:41.151 设备发送:01 03 04 A3 00 05 74 DB
14:17:46.197 设备发送:01 03 04 A3 00 05 74 DB
14:17:51.189 设备发送:01 03 06 84 00 04 04 A8
14:17:56.213 设备接收:01 03 08 00 00 95 7A 00 13 3A 35 72 6A
14:17:56.232 设备发送:01 03 04 04 00 01 C4 FB
14:18:01.214 设备接收:01 03 02 00 02 39 85
14:18:01.224 设备发送:01 03 05 84 00 0F 45 2B
14:18:06.253 设备接收:01 03 1E 1F 3B 05 78 04 60 1F 3D 05 80 04 66 1F 16 05 71 04 55 1F 91 05 7F 04 71 17 20 02 CD 01 A8 09 5A
14:18:06.262 设备发送:01 03 05 93 00 0F F5 2F
14:18:11.262 设备接收:01 03 1E 00 00 00 00 00 00 1A 03 05 D7 03 E3 1B F8 02 D9 02 0A 1B EF 02 DE 02 0D 00 00 00 04 00 00 91 5B
14:18:11.281 设备发送:01 03 05 A2 00 0F A4 E0
14:18:16.282 设备接收:01 03 1E 00 00 00 00 00 00 00 00 00 00 00 00 00 00 00 00 00 00 00 00 00 00 00 00 00 00 00 00 00 00 D8 BA
14:18:16.300 设备发送:01 03 05 B1 00 03 55 20
14:18:21.315 设备接收:01 03 06 00 00 00 00 00 00 21 75
14:18:21.336 设备发送:01 03 04 2B 00 01 F5 32
14:18:26.328 设备接收:01 03 02 02 CE 38 B0
14:18:26.338 设备发送:01 03 04 20 00 01 84 F0
14:18:31.345 设备接收:01 03 02 00 2B F8 5B
14:18:31.366 设备发送:01 03 04 05 00 01 95 3B
14:18:36.350 设备接收:01 03 02 00 00 B8 44
14:18:36.371 设备发送:02 03 04 84 00 04 05 23
14:18:41.375 设备接收:02 03 08 13 85 19 22 FF CC 19 22 8E EE
14:18:41.429 设备发送:02 03 04 8D 00 05 14 E1
14:18:46.400 设备接收:02 03 0A 09 04 24 10 00 00 00 00 00 00 D1 B0
14:18:46.440 设备发送:02 03 04 98 00 05 05 25
14:18:51.427 设备接收:02 03 0A 09 25 24 2A 00 00 00 00 00 00 DF E2
14:18:51.448 设备发送:02 03 04 A3 00 05 74 E8
14:18:56.447 设备接收:02 03 0A 09 10 24 33 00 00 00 00 00 00 3C 72
14:18:56.463 设备发送:02 03 06 84 00 04 04 9B
14:19:01.471 设备接收:02 03 08 00 00 8F 04 00 13 81 FC E5 B8
14:19:01.481 设备发送:02 03 04 04 00 01 C4 C8
14:19:06.491 设备接收:02 03 02 00 02 7D 85
14:19:06.512 设备发送:02 03 05 84 00 0F 45 18
14:19:11.511 设备接收:02 03 1E 1F 6C 02 A6 02 21 1F 3C 02 A7 02 1F 1F 29 02 B1 02 26 1F 88 05 4A 04 45 1F 63 02 A0 02 1C EE 4E
14:19:11.523 设备发送:02 03 05 93 00 0F F5 1C
14:19:16.516 设备接收:02 03 1E 1F 0C 02 A1 02 17 1F 12 02 B7 02 28 1F 37 05 71 04 59 1F 2B 02 BA 02 2D 1E EC 02 DC 02 43 EC 91
14:19:16.538 设备发送:02 03 05 A2 00 0F A4 D3
14:19:21.558 设备接收:02 03 1E 00 00 00 04 00 00 00 00 00 00 00 00 00 00 00 00 00 00 00 00 00 00 00 00 00 00 00 00 00 00 92 31
14:19:21.579 设备发送:02 03 05 B1 00 03 55 13
14:19:26.559 设备接收:02 03 06 00 00 00 00 00 00 35 85
14:19:26.581 设备发送:02 03 04 2B 00 01 F5 01
14:19:31.605 设备接收:02 03 02 02 C9 3D 72
14:19:31.616 设备发送:02 03 04 20 00 01 84 C3
14:19:36.614 设备接收:02 03 02 00 41 3C 74
14:19:36.647 设备发送:02 03 04 05 00 01 95 08
14:19:41.641 设备接收:02 03 02 00 00 FC 44
14:19:41.660 设备发送:03 03 04 84 00 04 04 F2
14:19:46.650 设备接收:03 03 08 13 85 1B 09 00 30 1B 09 1E AD
14:19:46.674 设备发送:03 03 04 8D 00 05 15 30
14:19:51.672 设备接收:03 03 0A 09 02 26 DD 00 00 00 00 00 00 65 84
14:19:51.685 设备发送:03 03 04 98 00 05 04 F4
14:19:56.712 设备接收:03 03 0A 09 28 26 B6 00 00 00 00 00 00 58 23
14:19:56.721 设备发送:03 03 04 A3 00 05 75 39
14:20:01.716 设备接收:03 03 0A 09 19 26 C0 00 00 00 00 00 00 16 75
14:20:01.728 设备发送:03 03 06 84 00 04 05 4A
14:20:06.740 设备接收:03 03 08 00 00 9D 81 00 14 0D 23 BB 71
14:20:06.760 设备发送:03 03 04 04 00 01 C5 19
14:20:11.751 设备接收:03 03 02 00 02 40 45
14:20:11.790 设备发送:03 03 05 84 00 0F 44 C9
14:20:16.784 设备接收:03 03 1E 1E ED 05 DD 04 A4 1E F5 05 DC 04 A5 1F 11 05 C1 04 94 1E F0 05 C4 04 91 16 FB 05 D2 03 6D 45 1A
14:20:16.796 设备发送:03 03 05 93 00 0F F4 CD
14:20:21.814 设备接收:03 03 1E 05 1F 00 00 00 00 13 DF 03 9A 01 D5 1B 9E 02 F1 02 14 1B B1 02 F4 02 18 05 22 00 00 00 00 5E 57
14:20:21.835 设备发送:03 03 05 A2 00 0F A5 02
14:20:26.816 设备接收:03 03 1E 00 0D 00 00 00 00 00 00 00 00 00 00 00 00 00 00 00 00 00 00 00 00 00 00 00 00 00 00 00 00 C1 72
14:20:26.867 设备发送:03 03 05 B1 00 03 54 C2
14:20:31.838 设备接收:03 03 06 00 00 00 00 00 00 38 15
14:20:31.857 设备发送:03 03 04 2B 00 01 F4 D0
14:20:36.877 设备接收:03 03 02 02 D1 00 B8
14:20:36.886 设备发送:03 03 04 20 00 01 85 12
14:20:41.883 设备接收:03 03 02 00 2D 01 99
14:20:41.895 设备发送:03 03 04 05 00 01 94 D9
14:20:46.903 设备接收:03 03 02 00 00 C1 84
14:20:46.923 设备发送:04 03 04 84 00 04 05 45
14:20:51.950 设备接收:04 03 08 13 87 16 B1 FF CF 16 B1 82 D9
14:20:51.960 设备发送:04 03 04 8D 00 05 14 87
14:20:56.968 设备接收:04 03 0A 09 0C 20 BA 00 00 00 00 00 00 B4 4F
14:20:56.977 设备发送:04 03 04 98 00 05 05 43
14:21:01.970 设备接收:04 03 0A 08 F7 20 A3 00 00 00 00 00 00 1A 7F
14:21:01.991 设备发送:04 03 04 A3 00 05 74 8E
14:21:06.990 设备接收:04 03 0A 09 18 20 9B 00 00 00 00 00 00 7A 4D
14:21:07.008 设备发送:04 03 06 84 00 04 04 FD
14:21:12.001 设备接收:04 03 08 00 00 85 A6 00 11 4B 78 F5 40
14:21:12.022 设备发送:04 03 04 04 00 01 C4 AE
14:21:17.023 设备接收:04 03 02 00 02 F5 85
14:21:17.044 设备发送:04 03 05 84 00 0F 45 7E
14:21:22.046 设备接收:04 03 1E 1A 87 02 B8 01 D9 1B C6 05 7D 03 E7 1A 2B 02 CC 01 E0 1B 9B 05 AD 04 03 1B F1 05 89 03 F6 9E B0
14:21:22.070 设备发送:04 03 05 93 00 0F F5 7A
14:21:27.095 设备接收:04 03 1E 1B BE 05 BD 04 13 1B C5 05 55 03 CA 04 88 00 02 00 00 04 A6 00 04 00 00 04 9A 00 00 00 00 61 8C
14:21:27.116 设备发送:04 03 05 A2 00 0F A4 B5
14:21:32.081 设备接收:04 03 1E 00 00 00 00 00 00 00 00 00 05 00 00 00 00 00 00 00 00 00 00 00 00 00 00 00 00 00 00 00 00 51 EE
14:21:32.101 设备发送:04 03 05 B1 00 03 55 75
14:21:37.133 设备接收:04 03 06 00 00 00 00 00 00 1E 25
14:21:37.153 设备发送:04 03 04 2B 00 01 F5 67
14:21:42.143 设备接收:04 03 02 02 CB 34 B3
14:21:42.164 设备发送:04 03 04 20 00 01 84 A5
14:21:47.148 设备接收:04 03 02 00 35 B4 53
14:21:47.169 设备发送:04 03 04 05 00 01 95 6E
14:21:52.192 设备接收:04 03 02 00 00 74 44
14:21:52.204 设备发送:05 03 04 84 00 04 04 94
14:21:57.222 设备发送:05 03 04 84 00 04 04 94
14:22:02.198 设备接收:05 03 08 13 85 13 2E FF 8E 13 2F E3 40
14:22:02.249 设备发送:05 03 04 8D 00 05 15 56
14:22:07.225 设备接收:05 03 0A 09 01 1B 9E 00 00 00 00 00 00 C8 FB
14:22:07.246 设备发送:05 03 04 98 00 05 04 92
14:22:12.246 设备接收:05 03 0A 09 14 1B 74 00 00 00 00 00 00 71 A5
14:22:12.268 设备发送:05 03 04 A3 00 05 75 5F
14:22:17.283 设备接收:05 03 0A 09 10 1B 7D 00 00 00 00 00 00 DA 65
14:22:17.316 设备发送:05 03 06 84 00 04 05 2C
14:22:22.317 设备接收:05 03 08 00 00 6F D0 00 0E 98 00 42 69
14:22:22.333 设备发送:05 03 04 04 00 01 C5 7F
14:22:27.345 设备接收:05 03 02 00 02 C8 45
14:22:27.360 设备发送:05 03 05 84 00 0F 44 AF
14:22:32.342 设备接收:05 03 1E 04 90 00 00 00 00 16 AC 05 B0 03 4D 16 E4 05 6B 03 2D 17 40 05 4A 03 26 1D 80 02 95 01 F3 8C B8
14:22:32.374 设备发送:05 03 05 93 00 0F F4 AB
14:22:37.379 设备接收:05 03 1E 1D 86 02 A6 02 00 04 7C 00 03 00 00 18 89 05 7C 03 72 04 89 00 00 00 00 15 22 05 57 02 E3 36 B3
14:22:37.394 设备发送:05 03 05 A2 00 0F A5 64
14:22:42.408 设备接收:05 03 1E 00 06 00 00 00 00 00 00 00 04 00 00 00 00 00 00 00 00 00 00 00 00 00 00 00 00 00 00 00 00 AC FB
14:22:42.424 设备发送:05 03 05 B1 00 03 54 A4
14:22:47.436 设备接收:05 03 06 00 00 00 00 00 00 13 B5
14:22:47.452 设备发送:05 03 04 2B 00 01 F4 B6
14:22:52.454 设备接收:05 03 02 02 CB 09 73
14:22:52.470 设备发送:05 03 04 20 00 01 85 74
14:22:57.474 设备接收:05 03 02 00 2C 48 59
14:22:57.490 设备发送:05 03 04 05 00 01 94 BF
14:23:02.484 设备接收:05 03 02 00 00 49 84
14:23:02.516 设备发送:06 03 04 84 00 04 04 A7
14:23:07.515 设备接收:06 03 08 13 85 12 A4 FF D7 12 A4 E5 EE
14:23:07.531 设备发送:06 03 04 8D 00 05 15 65
14:23:12.515 设备接收:06 03 0A 09 06 1A CB 00 00 00 00 00 00 2F C1
14:23:12.546 设备发送:06 03 04 98 00 05 04 A1
14:23:17.562 设备接收:06 03 0A 09 14 1A B7 00 00 00 00 00 00 46 A6
14:23:17.593 设备发送:06 03 04 A3 00 05 75 6C
14:23:22.563 设备接收:06 03 0A 09 14 1A C2 00 00 00 00 00 00 62 61
14:23:22.578 设备发送:06 03 06 84 00 04 05 1F
14:23:27.567 设备接收:06 03 08 00 00 6D 23 00 0E 86 A9 81 04
14:23:27.583 设备发送:06 03 04 04 00 01 C5 4C
14:23:32.600 设备接收:06 03 02 00 02 8C 45
14:23:32.617 设备发送:06 03 05 84 00 0F 44 9C
14:23:37.619 设备接收:06 03 1E 04 7D 00 07 00 00 1C 31 05 20 03 B3 1C 42 05 31 03 C1 1A B4 02 9E 01 CA 1D A3 05 60 04 14 23 AE
14:23:37.635 设备发送:06 03 05 93 00 0F F4 98
14:23:42.633 设备接收:06 03 1E 04 7D 00 01 00 00 04 6D 00 00 00 00 17 03 05 69 03 2F 04 6F 00 02 00 00 15 11 05 71 02 EF 2F 85
14:23:42.648 设备发送:06 03 05 A2 00 0F A5 57
14:23:47.680 设备接收:06 03 1E 00 08 00 00 00 00 00 00 00 00 00 00 00 00 00 00 00 00 00 00 00 00 00 00 00 00 00 00 00 00 DD 75
14:23:47.696 设备发送:06 03 05 B1 00 03 54 97
14:23:52.672 设备接收:06 03 06 00 00 00 00 00 00 07 45
14:23:52.703 设备发送:06 03 04 2B 00 01 F4 85
14:23:57.697 设备接收:06 03 02 02 C7 4D 76
14:23:57.713 设备发送:06 03 04 20 00 01 85 47
14:24:02.732 设备接收:06 03 02 00 23 4C 5D
14:24:02.748 设备发送:06 03 04 05 00 01 94 8C
14:24:07.759 设备接收:06 03 02 00 00 0D 84
14:24:07.775 设备发送:07 03 04 84 00 04 05 76
14:24:12.781 设备接收:07 03 08 13 85 09 D9 FF D6 09 DF 95 E0
14:24:12.803 设备发送:07 03 04 8D 00 05 14 B4
14:24:17.787 设备接收:07 03 0A 09 05 0E 3F 00 00 00 00 00 00 8C 80
14:24:17.803 设备发送:07 03 04 98 00 05 05 70
14:24:22.814 设备接收:07 03 0A 09 06 0E 45 00 00 00 00 00 00 43 B7
14:24:22.845 设备发送:07 03 04 A3 00 05 74 BD
14:24:27.814 设备接收:07 03 0A 09 02 0E 4E 00 00 00 00 00 00 CB B7
14:24:27.846 设备发送:07 03 06 84 00 04 04 CE
14:24:32.842 设备接收:07 03 08 00 00 3A E6 00 07 38 71 E5 F6
14:24:32.858 设备发送:07 03 04 04 00 01 C4 9D
14:24:37.853 设备接收:07 03 02 00 02 B1 85
14:24:37.899 设备发送:07 03 05 84 00 0F 45 4D
14:24:42.894 设备接收:07 03 1E 18 8B 05 4D 03 54 19 EE 02 B5 01 CC 1A 1D 02 9E 01 C0 18 85 05 46 03 4F 00 00 00 00 00 00 C9 B3
14:24:42.917 设备发送:07 03 05 93 00 0F F5 49
14:24:47.913 设备接收:07 03 1E 00 00 00 00 00 00 00 00 00 00 00 00 00 00 00 00 00 00 00 00 00 00 00 00 00 00 00 00 00 00 B0 BB
14:24:47.934 设备发送:07 03 05 A2 00 0F A4 86
14:24:52.924 设备接收:07 03 1E 00 00 00 00 00 00 00 00 00 00 00 00 00 00 00 00 00 00 00 00 00 00 00 00 00 00 00 00 00 00 B0 BB
14:24:52.947 设备发送:07 03 05 B1 00 03 55 46
14:24:57.972 设备接收:07 03 06 00 00 00 00 00 00 0A D5
14:24:57.982 设备发送:07 03 04 2B 00 01 F5 54
14:25:02.970 设备接收:07 03 02 01 D1 F1 88
14:25:02.988 设备发送:07 03 04 20 00 01 84 96
14:25:08.008 设备接收:07 03 02 00 25 F1 9F
14:25:08.026 设备发送:07 03 04 05 00 01 95 5D
14:25:13.022 设备接收:07 03 02 00 00 30 44
14:25:13.042 设备发送:08 03 04 84 00 04 05 89
14:25:18.037 设备接收:08 03 08 13 86 14 D3 FF D1 14 DE 74 29
14:25:18.240 设备发送:08 03 04 8D 00 05 14 4B
14:25:23.051 设备接收:08 03 0A 08 F6 1E 28 00 00 00 00 00 00 BF B3
14:25:23.073 设备发送:08 03 04 98 00 05 05 8F
14:25:28.088 设备接收:08 03 0A 08 EB 1E 1A 00 00 00 00 00 00 39 20
14:25:28.109 设备发送:08 03 04 A3 00 05 74 42
14:25:33.094 设备接收:08 03 0A 08 FC 1E 1C 00 00 00 00 00 00 B4 D0
14:25:33.114 设备发送:08 03 06 84 00 04 04 31
14:25:38.122 设备接收:08 03 08 00 00 7D 5F 00 0F B8 3E E6 B8
14:25:38.143 设备发送:08 03 04 04 00 01 C4 62
14:25:43.145 设备接收:08 03 02 00 02 E5 84
14:25:43.156 设备发送:08 03 05 84 00 0F 45 B2
14:25:48.183 设备接收:08 03 1E 12 BF 02 15 01 00 1A 9D 01 D6 01 40 1A C9 01 EE 01 53 1A B7 04 4C 02 F0 18 FB 04 B2 03 01 F6 15
14:25:48.194 设备发送:08 03 05 93 00 0F F5 B6
14:25:53.199 设备接收:08 03 1E 1D 95 04 DB 03 AE 1D DD 02 73 01 DF 1A 78 02 42 01 88 19 17 02 5B 01 83 1A 5B 04 B0 03 2A 28 2E
14:25:53.220 设备发送:08 03 05 A2 00 0F A4 79
14:25:58.193 设备接收:08 03 1E 00 00 00 08 00 00 00 00 00 04 00 00 00 00 00 00 00 00 00 00 00 00 00 00 00 00 00 00 00 00 6E 6A
14:25:58.248 设备发送:08 03 05 B1 00 03 55 B9
14:26:03.248 设备接收:08 03 06 00 00 00 00 00 00 4B 25
14:26:03.258 设备发送:08 03 04 2B 00 01 F5 AB
14:26:08.266 设备接收:08 03 02 02 85 A4 86
14:26:08.288 设备发送:08 03 04 20 00 01 84 69
14:26:13.267 设备接收:08 03 02 00 33 24 50
14:26:13.286 设备发送:08 03 04 05 00 01 95 A2
14:26:18.295 设备接收:08 03 02 00 00 64 45
14:26:18.314 设备发送:09 03 04 84 00 04 04 58
14:26:23.312 设备接收:09 03 08 13 88 12 05 FF D7 12 05 75 5B
14:26:23.332 设备发送:09 03 04 8D 00 05 15 9A
14:26:28.329 设备接收:09 03 0A 08 FE 1A 2F 00 00 00 00 00 00 AD C1
14:26:28.348 设备发送:09 03 04 98 00 05 04 5E
14:26:33.366 设备接收:09 03 0A 08 F4 1A 33 00 00 00 00 00 00 0E A0
14:26:33.387 设备发送:09 03 04 A3 00 05 75 93
14:26:38.395 设备接收:09 03 0A 09 06 1A 29 00 00 00 00 00 00 F9 C0
14:26:38.404 设备发送:09 03 06 84 00 04 05 E0
14:26:43.411 设备接收:09 03 08 00 00 70 32 00 0E 4C E4 D8 0B
14:26:43.433 设备发送:09 03 04 04 00 01 C5 B3
14:26:48.417 设备接收:09 03 02 00 02 D8 44
14:26:48.429 设备发送:09 03 05 84 00 0F 44 63
14:26:53.451 设备接收:09 03 1E 1D B6 01 B3 01 4B 1E 4C 01 B5 01 53 1E 17 01 E1 01 72 1E 3F 02 14 01 9C 1D DD 01 D1 01 63 74 B7
14:26:53.470 设备发送:09 03 05 93 00 0F F4 67
14:26:58.464 设备接收:09 03 1E 1D 5F 04 5A 03 46 1D B1 02 12 01 93 1D 9B 04 B0 03 8D 1D 9E 02 1E 01 9B 1D 4B 02 2B 01 A0 9C 83
14:26:58.484 设备发送:09 03 05 A2 00 0F A5 A8
14:27:03.481 设备接收:09 03 1E 00 04 00 00 00 00 00 03 00 03 00 00 00 00 00 00 00 00 00 00 00 00 00 00 00 00 00 00 00 00 DE A8
14:27:03.500 设备发送:09 03 05 B1 00 03 54 68
14:27:08.501 设备接收:09 03 06 00 00 00 00 00 00 46 B5
14:27:08.516 设备发送:09 03 04 2B 00 01 F4 7A
14:27:13.502 设备接收:09 03 02 02 76 D9 03
14:27:13.550 设备发送:09 03 04 20 00 01 85 B8
14:27:18.531 设备接收:09 03 02 00 26 D8 5F
14:27:18.550 设备发送:09 03 04 05 00 01 94 73
14:27:23.551 设备接收:09 03 02 00 00 59 85
14:27:23.574 设备发送:0A 03 04 84 00 04 04 6B
14:27:28.598 设备接收:0A 03 08 13 86 04 53 FF CD 04 59 F0 BB FF
14:27:28.622 设备发送:0A 03 04 8D 00 05 15 A9
14:27:33.630 设备发送:0A 03 04 8D 00 05 15 A9
14:27:38.655 设备发送:0A 03 04 8D 00 05 15 A9
14:27:43.683 设备发送:0A 03 04 98 00 05 04 6D
14:27:48.697 设备发送:0A 03 04 98 00 05 04 6D
14:27:53.716 设备发送:0A 03 04 98 00 05 04 6D
14:27:58.707 设备发送:0A 03 04 A3 00 05 75 A0
14:28:03.754 设备发送:0A 03 04 A3 00 05 75 A0
14:28:08.777 设备发送:0A 03 04 A3 00 05 75 A0
14:28:13.803 设备发送:0A 03 06 84 00 04 05 D3
14:28:18.794 设备发送:0A 03 06 84 00 04 05 D3
14:28:23.837 设备发送:0A 03 06 84 00 04 05 D3
14:28:28.858 设备发送:0A 03 04 04 00 01 C5 80
14:28:33.871 设备发送:0A 03 04 04 00 01 C5 80
14:28:38.896 设备发送:0A 03 04 04 00 01 C5 80
14:28:43.912 设备发送:0A 03 05 84 00 0F 44 50
14:28:48.924 设备发送:0A 03 05 84 00 0F 44 50
14:28:53.945 设备发送:0A 03 05 84 00 0F 44 50
14:28:58.974 设备发送:0A 03 05 93 00 0F F4 54
14:29:03.990 设备发送:0A 03 05 93 00 0F F4 54
14:29:08.996 设备发送:0A 03 05 93 00 0F F4 54
14:29:14.013 设备发送:0A 03 05 A2 00 0F A5 9B
14:29:19.040 设备发送:0A 03 05 A2 00 0F A5 9B
14:29:24.055 设备发送:0A 03 05 A2 00 0F A5 9B
14:29:29.082 设备发送:0A 03 05 B1 00 03 54 5B
14:29:34.117 设备发送:0A 03 05 B1 00 03 54 5B
14:29:39.140 设备发送:0A 03 05 B1 00 03 54 5B
14:29:44.135 设备发送:0A 03 04 2B 00 01 F4 49
14:29:49.181 设备发送:0A 03 04 2B 00 01 F4 49
14:29:54.177 设备发送:0A 03 04 2B 00 01 F4 49
14:29:59.200 设备发送:0A 03 04 20 00 01 85 8B
14:30:04.213 设备发送:0A 03 04 20 00 01 85 8B
14:30:09.262 设备发送:0A 03 04 20 00 01 85 8B
14:30:14.258 设备发送:0A 03 04 05 00 01 94 40
14:30:19.284 设备发送:0A 03 04 05 00 01 94 40
14:30:24.314 设备发送:0A 03 04 05 00 01 94 40
14:30:29.339 设备发送:01 03 04 84 00 04 05 10
14:30:34.333 设备发送:01 03 04 84 00 04 05 10
14:30:39.358 设备发送:01 03 04 84 00 04 05 10
14:30:44.387 设备发送:01 03 04 8D 00 05 14 D2
14:30:49.407 设备发送:01 03 04 8D 00 05 14 D2
14:30:54.416 设备发送:01 03 04 8D 00 05 14 D2
14:30:59.459 设备发送:01 03 04 98 00 05 05 16
14:31:04.449 设备发送:01 03 04 98 00 05 05 16
14:31:09.495 设备发送:01 03 04 98 00 05 05 16
14:31:14.490 设备发送:01 03 04 A3 00 05 74 DB
14:31:19.519 设备发送:01 03 04 A3 00 05 74 DB
14:31:24.556 设备发送:01 03 04 A3 00 05 74 DB
14:31:29.565 设备发送:01 03 06 84 00 04 04 A8
14:31:34.583 设备发送:01 03 06 84 00 04 04 A8
14:31:39.622 设备发送:01 03 06 84 00 04 04 A8
14:31:44.636 设备发送:01 03 04 04 00 01 C4 FB
14:31:49.635 设备发送:01 03 04 04 00 01 C4 FB
14:31:54.663 设备发送:01 03 04 04 00 01 C4 FB
14:31:59.666 设备发送:01 03 05 84 00 0F 45 2B
14:32:04.709 设备发送:01 03 05 84 00 0F 45 2B
14:32:09.735 设备发送:01 03 05 84 00 0F 45 2B
14:32:14.728 设备发送:01 03 05 93 00 0F F5 2F
14:32:19.779 设备发送:01 03 05 93 00 0F F5 2F
14:32:24.798 设备发送:01 03 05 93 00 0F F5 2F
14:32:29.797 设备发送:01 03 05 A2 00 0F A4 E0
14:32:34.833 设备发送:01 03 05 A2 00 0F A4 E0
14:32:39.832 设备发送:01 03 05 A2 00 0F A4 E0
14:32:44.866 设备发送:01 03 05 B1 00 03 55 20
14:32:49.872 设备发送:01 03 05 B1 00 03 55 20
14:32:54.896 设备发送:01 03 05 B1 00 03 55 20
14:32:59.920 设备发送:01 03 04 2B 00 01 F5 32
14:33:04.952 设备发送:01 03 04 2B 00 01 F5 32
14:33:09.953 设备发送:01 03 04 2B 00 01 F5 32

