10:04:47.220 设备接收:03 03 02 00 2B 81 9B
10:04:47.251 设备发送:03 03 04 05 00 01 94 D9
10:04:52.240 设备接收:03 03 02 00 00 C1 84
10:04:52.271 设备发送:01 03 04 84 00 04 05 10
10:04:57.263 设备接收:01 03 08 13 8C 17 18 00 27 17 18 05 D2
10:04:57.294 设备发送:01 03 04 8D 00 21 14 C9
10:05:02.332 设备发送:01 03 04 8D 00 21 14 C9
10:05:07.333 设备接收:01 03 42 FD FD FF E5 FD D7 6D 00 00 00 00 00 00 00 00 00 00 00 00 00 09 2F 21 0A 00 00 00 00 00 00 00 00 00 00 00 00 00 00 00 00 00 00 09 26 21 16 00 00 00 00 00 00 00 00 00 00 00 00 00 00 00 00 00 00 1F 9A
10:05:07.348 设备发送:01 03 06 84 00 04 04 A8
10:05:12.381 设备接收:01 03 08 00 00 15 C6 00 13 2D 70 F2 72
10:05:12.396 设备发送:01 03 04 04 00 01 C4 FB
10:05:17.389 设备接收:01 03 02 00 02 39 85
10:05:17.404 设备发送:01 03 05 84 00 0F 45 2B
10:05:22.405 设备接收:01 03 1E 20 A8 04 9F 03 DD 20 06 04 C8 03 EB 20 AD 04 95 03 D5 1F BB 04 C5 03 E0 17 99 02 7B 01 7F 18 31
10:05:22.436 设备发送:01 03 05 93 00 0F F5 2F
10:05:27.459 设备接收:01 03 1E 00 00 00 00 00 00 1A 9F 05 15 03 77 1C 6E 02 7C 01 CF 1C B3 02 82 01 D8 00 00 00 04 00 00 7C 63
10:05:27.475 设备发送:01 03 05 A2 00 0F A4 E0
10:05:32.468 设备接收:01 03 1E 00 00 00 00 00 00 00 00 00 00 00 00 00 00 00 00 00 00 00 00 00 00 00 00 00 00 00 00 00 00 D8 BA
10:05:32.515 设备发送:01 03 05 B1 00 03 55 20
10:05:37.530 设备接收:01 03 06 00 00 00 00 00 00 21 75
10:05:37.545 设备发送:01 03 04 2B 00 01 F5 32
10:05:42.557 设备接收:01 03 02 02 CE 38 B0
10:05:42.575 设备发送:01 03 04 20 00 01 84 F0
10:05:47.566 设备接收:01 03 02 00 2B F8 5B
10:05:47.582 设备发送:01 03 04 05 00 01 95 3B
10:05:52.588 设备接收:01 03 02 00 00 B8 44
10:05:52.604 设备发送:02 03 04 84 00 04 05 23
10:05:57.599 设备接收:02 03 08 13 88 16 47 00 26 16 47 CA E2
10:05:57.629 设备发送:02 03 04 8D 00 21 14 FA
10:06:02.668 设备发送:02 03 04 8D 00 21 14 FA
10:06:07.672 设备接收:02 03 FF FF FF EF FD 10 00 00 00 00 00 00 00 00 00 00 00 00 00 00 09 2D 1F E2 00 00 00 00 00 00 00 00 00 00 00 00 00 00 00 00 00 00 09 1E 1F D7 00 00 00 00 00 00 00 00 00 00 00 00 00 00 00 00 00 00 44 36
10:06:07.688 设备发送:02 03 06 84 00 04 04 9B
10:06:12.719 设备接收:02 03 08 00 00 14 CF 00 13 75 C3 5A 93
10:06:12.734 设备发送:02 03 04 04 00 01 C4 C8
10:06:17.731 设备接收:02 03 02 00 02 7D 85
10:06:17.761 设备发送:02 03 05 84 00 0F 45 18
10:06:22.755 设备接收:02 03 1E 20 32 02 54 01 EB 20 31 02 47 01 E0 1F CB 02 56 01 E6 20 01 04 9E 03 C8 1F B2 02 51 01 E1 74 2A
10:06:22.771 设备发送:02 03 05 93 00 0F F5 1C
10:06:27.765 设备接收:02 03 1E 20 00 02 46 01 DD 1F B7 02 5C 01 EA 20 02 04 C0 03 E4 1F A8 02 64 01 F0 1F DD 02 6A 01 F8 B4 31
10:06:27.810 设备发送:02 03 05 A2 00 0F A4 D3
10:06:32.835 设备接收:02 03 1E 00 00 00 04 00 00 00 00 00 00 00 00 00 00 00 00 00 00 00 00 00 00 00 00 00 00 00 00 00 00 92 31
10:06:32.853 设备发送:02 03 05 B1 00 03 55 13
10:06:37.857 设备接收:02 03 06 00 00 00 00 00 00 35 85
10:06:37.873 设备发送:02 03 04 2B 00 01 F5 01
10:06:42.864 设备接收:02 03 02 02 C9 3D 72
10:06:42.895 设备发送:02 03 04 20 00 01 84 C3
10:06:47.908 设备接收:02 03 02 00 3D 3D 95
10:06:47.923 设备发送:02 03 04 05 00 01 95 08
10:06:52.933 设备接收:02 03 02 00 00 FC 44
10:06:52.948 设备发送:03 03 04 84 00 04 04 F2
10:06:57.983 设备接收:03 03 08 13 86 18 A5 00 26 18 A5 5C CF
10:06:57.995 设备发送:03 03 04 8D 00 21 15 2B
10:07:03.015 设备发送:03 03 04 8D 00 21 15 2B
10:07:08.020 设备接收:03 43 FD F7 F5 6F 75 6B 00 00 00 00 00 00 00 00 00 00 00 00 00 00 00 09 34 23 21 00 00 00 00 00 00 00 00 00 00 00 00 00 00 00 00 00 00 09 27 23 36 00 00 00 00 00 00 00 00 00 00 00 00 00 00 00 00 00 00 5C 6F
10:07:08.051 设备发送:03 03 06 84 00 04 05 4A
10:07:13.062 设备接收:03 03 08 00 00 1A 71 00 14 00 07 E1 98
10:07:13.093 设备发送:03 03 04 04 00 01 C5 19
10:07:18.084 设备接收:03 03 02 00 02 40 45
10:07:18.116 设备发送:03 03 05 84 00 0F 44 C9
10:07:23.121 设备接收:03 03 1E 1F BB 05 2E 04 35 1F BC 05 2B 04 33 1F 8B 05 1D 04 21 1F AD 05 1C 04 24 17 4F 05 27 03 13 81 49
10:07:23.138 设备发送:03 03 05 93 00 0F F4 CD
10:07:28.146 设备接收:03 03 1E 05 26 00 00 00 00 13 64 04 4E 02 23 1C 3E 02 A2 01 E7 1C 01 02 A8 01 E7 05 29 00 00 00 00 E1 97
10:07:28.192 设备发送:03 03 05 A2 00 0F A5 02
10:07:33.181 设备接收:03 03 1E 00 0D 00 00 00 00 00 00 00 00 00 00 00 00 00 00 00 00 00 00 00 00 00 00 00 00 00 00 00 00 C1 72
10:07:33.228 设备发送:03 03 05 B1 00 03 54 C2
10:07:38.206 设备接收:03 03 06 00 00 00 00 00 00 38 15
10:07:38.221 设备发送:03 03 04 2B 00 01 F4 D0
10:07:43.236 设备接收:03 03 02 02 D1 00 B8
10:07:43.265 设备发送:03 03 04 20 00 01 85 12
10:07:48.280 设备接收:03 03 02 00 37 80 52
10:07:48.296 设备发送:03 03 04 05 00 01 94 D9
10:07:53.327 设备接收:03 03 02 00 00 C1 84
10:07:53.337 设备发送:01 03 04 84 00 04 05 10
10:07:58.319 设备接收:01 03 08 13 87 17 B0 FF CD 17 B0 CE 94
10:07:58.349 设备发送:01 03 04 8D 00 21 14 C9
10:08:03.382 设备发送:01 03 04 8D 00 21 14 C9
10:08:08.370 设备接收:7F ED FF FD D7 7D 00 00 00 00 00 00 00 00 00 00 00 00 00 00 00 00 00 00 09 2C 21 D4 00 00 00 00 00 00 00 00 00 00 00 00 00 00 00 00 00 00 09 24 21 DB 00 00 00 00 00 00 00 00 00 00 00 00 00 00 00 00 00 00 97 00
10:08:08.417 设备发送:01 03 06 84 00 04 04 A8
10:08:13.420 设备接收:01 03 08 00 00 16 F2 00 13 2D 8E C2 05
10:08:13.435 设备发送:01 03 04 04 00 01 C4 FB
10:08:18.468 设备接收:01 03 02 00 02 39 85
10:08:18.483 设备发送:01 03 05 84 00 0F 45 2B
10:08:23.483 设备接收:01 03 1E 20 A7 04 B6 03 F0 20 2D 04 D7 03 FC 20 AB 04 AA 03 E6 1F E2 04 DD 03 F8 17 49 02 8D 01 85 F7 32
10:08:23.498 设备发送:01 03 05 93 00 0F F5 2F
10:08:28.502 设备接收:01 03 1E 00 00 00 00 00 00 1A 9E 05 30 03 89 1C 6D 02 8A 01 D9 1C B3 02 90 01 E2 00 00 00 05 00 00 74 B7
10:08:28.518 设备发送:01 03 05 A2 00 0F A4 E0
10:08:33.538 设备接收:01 03 1E 00 00 00 00 00 00 00 00 00 00 00 00 00 00 00 00 00 00 00 00 00 00 00 00 00 00 00 00 00 00 D8 BA
10:08:33.553 设备发送:01 03 05 B1 00 03 55 20
10:08:38.559 设备接收:01 03 06 00 00 00 00 00 00 21 75
10:08:38.575 设备发送:01 03 04 2B 00 01 F5 32
10:08:43.582 设备接收:01 03 02 02 CE 38 B0
10:08:43.630 设备发送:01 03 04 20 00 01 84 F0
10:08:48.618 设备接收:01 03 02 00 35 78 53
10:08:48.649 设备发送:01 03 04 05 00 01 95 3B
10:08:53.665 设备接收:01 03 02 00 00 B8 44
10:08:53.696 设备发送:02 03 04 84 00 04 05 23
10:08:58.692 设备接收:02 03 08 13 85 16 92 FF D1 16 92 5B 89
10:08:58.708 设备发送:02 03 04 8D 00 21 14 FA
10:09:03.730 设备发送:02 03 04 8D 00 21 14 FA
10:09:08.730 设备接收:02 03 42 09 17 B0 BF 5F CF BD D7 1B 00 00 00 00 00 00 00 00 00 00 00 09 30 20 41 00 00 00 00 00 00 00 00 00 00 00 00 00 00 00 00 00 00 09 22 20 37 00 00 00 00 00 00 00 00 00 00 00 00 00 00 00 00 00 00 96 A6
10:09:08.776 设备发送:02 03 06 84 00 04 04 9B
10:09:13.769 设备接收:02 03 08 00 00 15 F1 00 13 75 E0 33 5E
10:09:13.800 设备发送:02 03 04 04 00 01 C4 C8
10:09:18.794 设备接收:02 03 02 00 02 7D 85
10:09:18.841 设备发送:02 03 05 84 00 0F 45 18
10:09:23.827 设备接收:02 03 1E 1F BE 02 61 01 EF 20 20 02 54 01 EA 1F D6 02 5E 01 EE 1F B1 04 BB 03 D7 1F D9 02 57 01 E8 75 54
10:09:23.874 设备发送:02 03 05 93 00 0F F5 1C
10:09:28.871 设备接收:02 03 1E 1F D6 02 53 01 E4 1F 8C 02 66 01 F0 20 2C 04 C6 03 EF 1F CF 02 66 01 F4 20 07 02 77 02 05 15 E8
10:09:28.891 设备发送:02 03 05 A2 00 0F A4 D3
10:09:33.898 设备接收:02 03 1E 00 00 00 04 00 00 00 00 00 00 00 00 00 00 00 00 00 00 00 00 00 00 00 00 00 00 00 00 00 00 92 31
10:09:33.928 设备发送:02 03 05 B1 00 03 55 13
10:09:38.919 设备接收:02 03 06 00 00 00 00 00 00 35 85
10:09:38.935 设备发送:02 03 04 2B 00 01 F5 01
10:09:43.934 设备接收:02 03 02 02 C9 3D 72
10:09:43.949 设备发送:02 03 04 20 00 01 84 C3
10:09:48.948 设备接收:02 03 02 00 3C FC 55
10:09:48.979 设备发送:02 03 04 05 00 01 95 08
10:09:53.979 设备接收:02 03 02 00 00 FC 44
10:09:53.990 设备发送:03 03 04 84 00 04 04 F2
10:09:59.018 设备接收:03 03 08 13 8C 18 B8 FF CC 18 B8 CB 24
10:09:59.034 设备发送:03 03 04 8D 00 21 15 2B
10:10:04.072 设备发送:03 03 04 8D 00 21 15 2B
10:10:09.066 设备接收:03 03 F6 7F 3D BD D5 A9 80 00 00 00 00 00 00 00 00 00 00 00 00 00 09 33 23 40 00 00 00 00 00 00 00 00 00 00 00 00 00 00 00 00 00 00 09 26 23 51 00 00 00 00 00 00 00 00 00 00 00 00 00 00 00 00 00 00 9C 20
10:10:09.098 设备发送:03 03 06 84 00 04 05 4A
10:10:14.108 设备接收:03 03 08 00 00 1B B0 00 14 00 27 DC 40
10:10:14.124 设备发送:03 03 04 04 00 01 C5 19
10:10:19.132 设备接收:03 03 02 00 02 40 45
10:10:19.163 设备发送:03 03 05 84 00 0F 44 C9
10:10:24.144 设备接收:03 03 1E 1F B3 05 3E 04 41 1F BD 05 3B 04 40 1F 86 05 26 04 28 1F B5 05 23 04 2C 17 72 05 31 03 1D 5F 78
10:10:24.176 设备发送:03 03 05 93 00 0F F4 CD
10:10:29.184 设备接收:03 03 1E 05 35 00 00 00 00 13 AE 03 F2 01 FD 1C 15 02 A9 01 EA 1C 00 02 A8 01 E7 05 38 00 00 00 00 4B 57
10:10:29.199 设备发送:03 03 05 A2 00 0F A5 02
10:10:34.214 设备接收:03 03 1E 00 12 00 00 00 00 00 00 00 00 00 00 00 00 00 00 00 00 00 00 00 00 00 00 00 00 00 00 00 00 81 65
10:10:34.229 设备发送:03 03 05 B1 00 03 54 C2
10:10:39.246 设备接收:03 03 06 00 00 00 00 00 00 38 15
10:10:39.261 设备发送:03 03 04 2B 00 01 F4 D0
10:10:44.266 设备接收:03 03 02 02 D1 00 B8
10:10:44.312 设备发送:03 03 04 20 00 01 85 12
10:10:49.326 设备接收:03 03 02 00 26 40 5E
10:10:49.342 设备发送:03 03 04 05 00 01 94 D9
10:10:54.345 设备接收:03 03 02 00 00 C1 84
10:10:54.361 设备发送:01 03 04 84 00 04 05 10
10:10:59.345 设备接收:01 03 08 13 8C 17 C9 00 28 17 C9 09 9F
10:10:59.408 设备发送:01 03 04 8D 00 21 14 C9
10:11:04.416 设备发送:01 03 04 8D 00 21 14 C9
10:11:09.405 设备接收:F5 FE DF CE FD 5F 03 00 00 00 00 00 00 00 00 00 00 00 00 00 00 00 00 09 32 21 E1 00 00 00 00 00 00 00 00 00 00 00 00 00 00 00 00 00 00 09 28 21 EB 00 00 00 00 00 00 00 00 00 00 00 00 00 00 00 00 00 00 EA B1
10:11:09.457 设备发送:01 03 06 84 00 04 04 A8
10:11:14.445 设备接收:01 03 08 00 00 18 24 00 13 2D AD CB 20
10:11:14.491 设备发送:01 03 04 04 00 01 C4 FB
10:11:19.485 设备接收:01 03 02 00 02 39 85
10:11:19.502 设备发送:01 03 05 84 00 0F 45 2B
10:11:24.506 设备接收:01 03 1E 20 A9 04 BD 03 F6 1F DF 04 EE 04 06 20 AD 04 AF 03 EB 1F BB 04 EB 03 FE 17 72 02 8F 01 89 76 FA
10:11:24.522 设备发送:01 03 05 93 00 0F F5 2F
10:11:29.536 设备接收:01 03 1E 00 00 00 00 00 00 1A 9E 05 3C 03 91 1C 43 02 90 01 DB 1C B3 02 95 01 E6 00 00 00 04 00 00 55 69
10:11:29.552 设备发送:01 03 05 A2 00 0F A4 E0
10:11:34.559 设备接收:01 03 1E 00 00 00 00 00 00 00 00 00 00 00 00 00 00 00 00 00 00 00 00 00 00 00 00 00 00 00 00 00 00 D8 BA
10:11:34.604 设备发送:01 03 05 B1 00 03 55 20
10:11:39.592 设备接收:01 03 06 00 00 00 00 00 00 21 75
10:11:39.639 设备发送:01 03 04 2B 00 01 F5 32
10:11:44.618 设备接收:01 03 02 02 CE 38 B0
10:11:44.666 设备发送:01 03 04 20 00 01 84 F0
10:11:49.666 设备接收:01 03 02 00 26 39 9E
10:11:49.682 设备发送:01 03 04 05 00 01 95 3B
10:11:54.675 设备接收:01 03 02 00 00 B8 44
10:11:54.717 设备发送:02 03 04 84 00 04 05 23
10:11:59.728 设备接收:02 03 08 13 8B 16 EE FF CF 16 EF 45 A4
10:11:59.744 设备发送:02 03 04 8D 00 21 14 FA
10:12:04.781 设备发送:02 03 04 8D 00 21 14 FA
10:12:09.773 设备接收:F7 E7 FF BD D7 2B A3 00 00 00 00 00 00 00 00 00 00 00 00 00 00 00 00 00 00 09 36 20 C4 00 00 00 00 00 00 00 00 00 00 00 00 00 00 00 00 00 00 09 27 20 C4 00 00 00 00 00 00 00 00 00 00 00 00 00 00 00 00 00 00 7F 8F
10:12:09.794 设备发送:02 03 06 84 00 04 04 9B
10:12:14.815 设备接收:02 03 08 00 00 17 14 00 13 75 FD BF 63
10:12:14.824 设备发送:02 03 04 04 00 01 C4 C8
10:12:19.861 设备接收:02 03 02 00 02 7D 85
10:12:19.877 设备发送:02 03 05 84 00 0F 45 18
10:12:24.871 设备接收:02 03 1E 1F D9 02 6C 01 F9 20 01 02 63 01 F4 1F CA 02 6E 01 FA 1F D8 04 CF 03 EC 1F B1 02 68 01 F3 0E FA
10:12:24.887 设备发送:02 03 05 93 00 0F F5 1C
10:12:29.911 设备接收:02 03 1E 1F 83 02 66 01 EF 1F DB 02 6B 01 F9 20 35 04 DB 04 01 1F F3 02 69 01 F9 20 2B 02 7C 02 0C 08 47
10:12:29.942 设备发送:02 03 05 A2 00 0F A4 D3
10:12:34.921 设备接收:02 03 1E 00 00 00 04 00 00 00 00 00 00 00 00 00 00 00 00 00 00 00 00 00 00 00 00 00 00 00 00 00 00 92 31
10:12:34.952 设备发送:02 03 05 B1 00 03 55 13
10:12:39.964 设备接收:02 03 06 00 00 00 00 00 00 35 85
10:12:39.980 设备发送:02 03 04 2B 00 01 F5 01
10:12:44.996 设备接收:02 03 02 02 C9 3D 72
10:12:45.012 设备发送:02 03 04 20 00 01 84 C3
10:12:49.994 设备接收:02 03 02 00 44 FC 77
10:12:50.010 设备发送:02 03 04 05 00 01 95 08
10:12:55.020 设备接收:02 03 02 00 00 FC 44
10:12:55.067 设备发送:03 03 04 84 00 04 04 F2
10:13:00.057 设备接收:03 03 08 13 8B 19 04 00 2B 19 04 6D EC
10:13:00.098 设备发送:03 03 04 8D 00 21 15 2B
10:13:05.113 设备发送:03 03 04 8D 00 21 15 2B
10:13:10.120 设备接收:03 F3 F9 FF F7 7F 75 6A 00 00 00 00 00 00 00 00 00 00 00 00 00 00 00 09 38 23 91 00 00 00 00 00 00 00 00 00 00 00 00 00 00 00 00 00 00 09 2B 23 A0 00 00 00 00 00 00 00 00 00 00 00 00 00 00 00 00 00 00 AD D3
10:13:10.165 设备发送:03 03 06 84 00 04 05 4A
10:13:15.168 设备接收:03 03 08 00 00 1C F1 00 14 00 47 E1 D0
10:13:15.184 设备发送:03 03 04 04 00 01 C5 19
10:13:20.171 设备接收:03 03 02 00 02 40 45
10:13:20.202 设备发送:03 03 05 84 00 0F 44 C9
10:13:25.196 设备接收:03 03 1E 1F 8C 05 53 04 4D 1F 71 05 5A 04 4F 1F 8A 05 35 04 34 1F BA 05 37 04 3D 17 4C 05 4A 03 27 97 AC
10:13:25.244 设备发送:03 03 05 93 00 0F F4 CD
10:13:30.260 设备发送:03 03 05 93 00 0F F4 CD
10:13:35.280 设备接收:03 03 1E 05 34 00 00 00 00 13 B1 03 EE 01 FB 1C 12 02 B5 01 F2 1B FD 02 B5 01 F0 05 37 00 00 00 00 F5 EB
10:13:35.299 设备发送:03 03 05 A2 00 0F A5 02
10:13:40.306 设备接收:03 03 1E 00 11 00 00 00 00 00 00 00 00 00 00 00 00 00 00 00 00 00 00 00 00 00 00 00 00 00 00 00 00 C1 67
10:13:40.321 设备发送:03 03 05 B1 00 03 54 C2
10:13:45.333 设备接收:03 03 06 00 00 00 00 00 00 38 15
10:13:45.355 设备发送:03 03 04 2B 00 01 F4 D0
10:13:50.354 设备接收:03 03 02 02 D1 00 B8
10:13:50.364 设备发送:03 03 04 20 00 01 85 12
10:13:55.385 设备接收:03 03 02 00 37 80 52
10:13:55.416 设备发送:03 03 04 05 00 01 94 D9
10:14:00.420 设备接收:03 03 02 00 00 C1 84
10:14:00.436 设备发送:01 03 04 84 00 04 05 10
10:14:05.451 设备接收:01 03 08 13 8C 18 29 FF CC 18 29 FC ED
10:14:05.466 设备发送:01 03 04 8D 00 21 14 C9
10:14:10.505 设备发送:01 03 04 8D 00 21 14 C9
10:14:15.525 设备接收:01 03 42 09 D8 FB 5F CF BD D7 7D 00 00 00 00 00 00 00 00 00 00 00 00 09 34 22 5B 00 00 00 00 00 00 00 00 00 00 00 00 00 00 00 00 00 00 09 2C 22 62 00 00 00 00 00 00 00 00 00 00 00 00 00 00 00 00 00 00 5A 11
10:14:15.543 设备发送:01 03 06 84 00 04 04 A8
10:14:20.546 设备接收:01 03 08 00 00 19 61 00 13 2D CC C6 D6
10:14:20.562 设备发送:01 03 04 04 00 01 C4 FB
10:14:25.555 设备接收:01 03 02 00 02 39 85
10:14:25.569 设备发送:01 03 05 84 00 0F 45 2B
10:14:30.584 设备接收:01 03 1E 20 A3 04 D0 04 06 20 06 04 FC 04 16 20 A9 04 C6 03 FD 1F E4 04 FF 04 14 17 49 02 9B 01 8E F7 5C
10:14:30.600 设备发送:01 03 05 93 00 0F F5 2F
10:14:35.596 设备接收:01 03 1E 00 00 00 00 00 00 1A 76 05 59 03 9F 1C 44 02 9C 01 E3 1C B2 02 9D 01 EB 00 00 00 03 00 00 4C 28
10:14:35.626 设备发送:01 03 05 A2 00 0F A4 E0
10:14:40.650 设备接收:01 03 1E 00 00 00 00 00 00 00 00 00 00 00 00 00 00 00 00 00 00 00 00 00 00 00 00 00 00 00 00 00 00 D8 BA
10:14:40.666 设备发送:01 03 05 B1 00 03 55 20
10:14:45.673 设备接收:01 03 06 00 00 00 00 00 00 21 75
10:14:45.688 设备发送:01 03 04 2B 00 01 F5 32
10:14:50.683 设备接收:01 03 02 02 CE 38 B0
10:14:50.698 设备发送:01 03 04 20 00 01 84 F0
10:14:55.735 设备接收:01 03 02 00 35 78 53
10:14:55.749 设备发送:01 03 04 05 00 01 95 3B
10:15:00.749 设备接收:01 03 02 00 00 B8 44
10:15:00.765 设备发送:02 03 04 84 00 04 05 23
10:15:05.786 设备接收:02 03 08 13 85 17 3A 00 25 17 3A 4A 48
10:15:05.816 设备发送:02 03 04 8D 00 21 14 FA
10:15:10.844 设备发送:02 03 04 8D 00 21 14 FA
10:15:15.855 设备接收:02 03 42 09 16 21 04 80 BF F7 E7 BD D7 0B 00 00 00 00 00 00 00 00 00 09 35 21 24 00 00 00 00 00 00 00 00 00 00 00 00 00 00 00 00 00 00 09 27 21 20 00 00 00 00 00 00 00 00 00 00 00 00 00 00 00 00 00 00 00 53
10:15:15.870 设备发送:02 03 06 84 00 04 04 9B
10:15:20.880 设备接收:02 03 08 00 00 18 46 00 13 76 1C C6 E8
10:15:20.910 设备发送:02 03 04 04 00 01 C4 C8
10:15:25.914 设备接收:02 03 02 00 02 7D 85
10:15:25.930 设备发送:02 03 05 84 00 0F 45 18
10:15:30.910 设备接收:02 03 1E 1F E4 02 6F 01 FD 20 04 02 67 01 F8 1F 79 02 7A 01 FF 1F D8 04 DF 03 F8 20 0E 02 64 01 F6 27 86
10:15:31.429 设备发送:02 03 05 93 00 0F F5 1C
10:15:35.969 设备接收:02 03 1E 1F FF 02 63 01 F4 1F 8A 02 78 01 FE 20 05 04 F7 04 12 1F 7B 02 81 02 05 1F FB 02 8B 02 15 4F EA
10:15:35.984 设备发送:02 03 05 A2 00 0F A4 D3
10:15:40.995 设备接收:02 03 1E 00 00 00 04 00 00 00 00 00 00 00 00 00 00 00 00 00 00 00 00 00 00 00 00 00 00 00 00 00 00 92 31
10:15:41.010 设备发送:02 03 05 B1 00 03 55 13
10:15:46.015 设备接收:02 03 06 00 00 00 00 00 00 35 85
10:15:46.045 设备发送:02 03 04 2B 00 01 F5 01
10:15:51.036 设备接收:02 03 02 02 C9 3D 72
10:15:51.084 设备发送:02 03 04 20 00 01 84 C3
10:15:56.060 设备接收:02 03 02 00 40 FD B4
10:15:56.092 设备发送:02 03 04 05 00 01 95 08
10:16:01.095 设备接收:02 03 02 00 00 FC 44
10:16:01.126 设备发送:03 03 04 84 00 04 04 F2
10:16:06.128 设备接收:03 03 08 13 8C 19 7C FF CB 19 7C 8A E6
10:16:06.160 设备发送:03 03 04 8D 00 21 15 2B
10:16:11.186 设备发送:03 03 04 8D 00 21 15 2B
10:16:16.191 设备接收:03 03 F2 FF F7 BD D5 A9 80 00 00 00 00 00 00 00 00 00 00 00 00 00 09 37 24 3B 00 00 00 00 00 00 00 00 00 00 00 00 00 00 00 00 00 00 09 28 24 4F 00 00 00 00 00 00 00 00 00 00 00 00 00 00 00 00 00 00 87 47
10:16:16.220 设备发送:03 03 06 84 00 04 05 4A
10:16:21.229 设备接收:03 03 08 00 00 1E 40 00 14 00 69 1C 34
10:16:21.355 设备发送:03 03 04 04 00 01 C5 19
10:16:26.241 设备接收:03 03 02 00 02 40 45
10:16:26.257 设备发送:03 03 05 84 00 0F 44 C9
10:16:31.304 设备接收:03 03 1E 1F 8E 05 6D 04 62 1F 71 05 70 04 60 1F 8B 05 4D 04 48 1F 92 05 51 04 4C 17 75 05 57 03 35 7A 97
10:16:31.320 设备发送:03 03 05 93 00 0F F4 CD
10:16:36.310 设备接收:03 03 1E 05 33 00 00 00 00 13 BC 03 E9 01 FA 1C 14 02 BE 01 F8 1B FF 02 C0 01 F8 05 38 00 00 00 00 5A 2B
10:16:36.858 设备发送:03 03 05 A2 00 0F A5 02
10:16:41.336 设备接收:03 03 1E 00 10 00 00 00 00 00 00 00 00 00 00 00 00 00 00 00 00 00 00 00 00 00 00 00 00 00 00 00 00 01 66
10:16:41.384 设备发送:03 03 05 B1 00 03 54 C2
10:16:46.407 设备接收:03 03 06 00 00 00 00 00 00 38 15
10:16:46.454 设备发送:03 03 04 2B 00 01 F4 D0
10:16:51.395 设备接收:03 03 02 02 D1 00 B8
10:16:51.445 设备发送:03 03 04 20 00 01 85 12
10:16:56.421 设备接收:03 03 02 00 27 81 9E
10:16:56.454 设备发送:03 03 04 05 00 01 94 D9
10:17:01.459 设备接收:03 03 02 00 00 C1 84
10:17:01.475 设备发送:01 03 04 84 00 04 05 10
10:17:06.506 设备接收:01 03 08 13 8B 18 87 FF CA 18 88 42 4C
10:17:06.513 设备发送:01 03 04 8D 00 21 14 C9
10:17:11.541 设备发送:01 03 04 8D 00 21 14 C9
10:17:16.538 设备接收:01 03 42 09 BD F9 FF ED BD DF 6D 00 00 00 00 00 00 00 00 00 00 00 00 09 36 22 E7 00 00 00 00 00 00 00 00 00 00 00 00 00 00 00 00 00 00 09 2D 22 F0 00 00 00 00 00 00 00 00 00 00 00 00 00 00 00 00 00 00 08 F0
10:17:16.570 设备发送:01 03 06 84 00 04 04 A8
10:17:21.570 设备接收:01 03 08 00 00 1A 9A 00 13 2D EC 22 E9
10:17:21.585 设备发送:01 03 04 04 00 01 C4 FB
10:17:26.606 设备接收:01 03 02 00 02 39 85
10:17:26.627 设备发送:01 03 05 84 00 0F 45 2B
10:17:31.620 设备接收:01 03 1E 20 CF 04 D6 04 10 1F DE 05 1F 04 2E 20 D4 04 D1 04 0C 1F E2 05 1E 04 2D 17 49 02 A9 01 96 16 CA
10:17:32.013 设备发送:01 03 05 93 00 0F F5 2F
10:17:36.650 设备接收:01 03 1E 00 00 00 00 00 00 1A CB 05 67 03 B4 1C 46 02 AC 01 EF 1C 8E 02 B2 01 F8 00 00 00 05 00 00 46 B4
10:17:36.839 设备发送:01 03 05 A2 00 0F A4 E0
10:17:41.697 设备接收:01 03 1E 00 00 00 00 00 00 00 00 00 00 00 00 00 00 00 00 00 00 00 00 00 00 00 00 00 00 00 00 00 00 D8 BA
10:17:41.712 设备发送:01 03 05 B1 00 03 55 20
10:17:46.691 设备接收:01 03 06 00 00 00 00 00 00 21 75
10:17:46.972 设备发送:01 03 04 2B 00 01 F5 32
10:17:51.740 设备接收:01 03 02 02 CE 38 B0
10:17:51.755 设备发送:01 03 04 20 00 01 84 F0

