
16:35:54.539 设备接收:01 03 08 13 88 01 9A FF DF 01 9B C4 DE
16:35:54.547 设备发送:01 03 04 8D 00 05 14 D2
16:35:59.561 设备接收:01 03 0A 08 CC 02 C3 00 00 00 00 00 00 D2 8C
16:35:59.577 设备发送:01 03 04 98 00 05 05 16
16:36:04.587 设备接收:01 03 0A 08 C7 02 B0 00 00 00 00 00 00 E3 7B
16:36:04.603 设备发送:01 03 04 A3 00 05 74 DB
16:36:09.618 设备接收:01 03 0A 08 CF 02 CF 00 00 00 00 00 00 0A 7C
16:36:09.634 设备发送:01 03 06 84 00 04 04 A8
16:36:14.615 设备接收:01 03 08 00 00 D1 4D 00 13 A3 4A A3 5A
16:36:14.629 设备发送:01 03 04 04 00 01 C4 FB
16:36:19.619 设备接收:01 03 02 00 02 39 85
16:36:19.649 设备发送:01 03 05 84 00 0F 45 2B
16:36:24.671 设备接收:01 03 1E 20 0D 00 CE 00 A9 21 2B 00 46 00 3B 21 0A 00 3F 00 35 21 7E 00 48 00 3D 18 99 00 28 00 19 C2 9D
16:36:24.687 设备发送:01 03 05 93 00 0F F5 2F
16:36:29.663 设备接收:01 03 1E 00 00 00 00 00 00 1B F4 00 49 00 34 1D 90 00 20 00 18 1D 0B 00 27 00 1D 00 00 00 03 00 00 36 9F
16:36:29.679 设备发送:01 03 05 A2 00 0F A4 E0
16:36:34.675 设备接收:01 03 1E 00 00 00 00 00 00 00 00 00 00 00 00 00 00 00 00 00 00 00 00 00 00 00 00 00 00 00 00 00 00 D8 BA
16:36:34.706 设备发送:01 03 05 B1 00 03 55 20
16:36:39.710 设备接收:01 03 06 00 00 00 00 00 00 21 75
16:36:39.726 设备发送:01 03 04 2B 00 01 F5 32
16:36:44.749 设备接收:01 03 02 02 E0 B8 AC
16:36:44.764 设备发送:01 03 04 20 00 01 84 F0
16:36:49.740 设备接收:01 03 02 00 30 B8 50
16:36:49.756 设备发送:01 03 04 05 00 01 95 3B
16:36:54.784 设备接收:01 03 02 00 00 B8 44
16:36:54.799 设备发送:02 03 04 84 00 04 05 23
16:36:59.808 设备接收:02 03 08 13 88 01 DB FF F4 01 DB 86 6D
16:36:59.823 设备发送:02 03 04 8D 00 05 14 E1
16:37:04.812 设备接收:02 03 0A 08 C9 02 F8 00 00 00 00 00 00 62 DC
16:37:04.843 设备发送:02 03 04 98 00 05 05 25
16:37:09.822 设备接收:02 03 0A 08 C4 02 E6 00 00 00 00 00 00 C4 4D
16:37:09.838 设备发送:02 03 04 A3 00 05 74 E8
16:37:14.868 设备接收:02 03 0A 08 D1 03 28 00 00 00 00 00 00 D8 DD
16:37:14.883 设备发送:02 03 06 84 00 04 04 9B
16:37:19.869 设备接收:02 03 08 00 00 C6 D2 00 13 E7 39 49 C0
16:37:19.884 设备发送:02 03 04 04 00 01 C4 C8
16:37:24.912 设备接收:02 03 02 00 02 7D 85
16:37:24.928 设备发送:02 03 05 84 00 0F 45 18
16:37:29.920 设备接收:02 03 1E 20 5A 00 19 00 14 1E F8 00 16 00 11 21 74 00 20 00 1B 1C 8D 00 BE 00 8B 20 EE 00 1D 00 18 6D 85
16:37:29.935 设备发送:02 03 05 93 00 0F F5 1C
16:37:34.919 设备接收:02 03 1E 20 7B 00 1A 00 16 1F 4F 00 7B 00 63 20 D5 00 41 00 36 22 18 00 23 00 1F 1B 4C 00 73 00 50 D8 05
16:37:34.951 设备发送:02 03 05 A2 00 0F A4 D3
16:37:39.969 设备接收:02 03 1E 00 00 00 02 00 00 00 00 00 00 00 00 00 00 00 00 00 00 00 00 00 00 00 00 00 00 00 00 00 00 93 FF
16:37:40.000 设备发送:02 03 05 B1 00 03 55 13
16:37:44.972 设备接收:02 03 06 00 00 00 00 00 00 35 85
16:37:44.988 设备发送:02 03 04 2B 00 01 F5 01
16:37:49.990 设备接收:02 03 02 02 E2 7D 6D
16:37:50.005 设备发送:02 03 04 20 00 01 84 C3
16:37:55.019 设备接收:02 03 02 00 35 3C 53
16:37:55.050 设备发送:02 03 04 05 00 01 95 08
16:38:00.032 设备接收:02 03 02 00 00 FC 44
16:38:00.063 设备发送:03 03 04 84 00 04 04 F2
16:38:05.054 设备接收:03 03 08 13 8C 03 E9 FF F6 03 E9 DE 02
16:38:05.070 设备发送:03 03 04 8D 00 05 15 30
16:38:10.093 设备接收:03 03 0A 08 CD 05 E3 00 00 00 00 00 00 B8 7A
16:38:10.109 设备发送:03 03 04 98 00 05 04 F4
16:38:15.113 设备接收:03 03 0A 08 CC 05 E6 00 00 00 00 00 00 E0 EA
16:38:15.128 设备发送:03 03 04 A3 00 05 75 39
16:38:20.113 设备接收:03 03 0A 08 D6 06 11 00 00 00 00 00 00 95 50
16:38:20.129 设备发送:03 03 06 84 00 04 05 4A
16:38:25.145 设备接收:03 03 08 00 00 DD 5E 00 14 7D 08 45 BD
16:38:25.160 设备发送:03 03 04 04 00 01 C5 19
16:38:30.163 设备接收:03 03 02 00 02 40 45
16:38:30.179 设备发送:03 03 05 84 00 0F 44 C9
16:38:35.171 设备接收:03 03 1E 1D E6 01 4B 00 FE 20 A6 01 41 01 0C 1C EE 00 8F 00 69 1C BD 00 CC 00 96 18 61 00 46 00 2B 4D 2A
16:38:35.202 设备发送:03 03 05 93 00 0F F4 CD
16:38:40.207 设备接收:03 03 1E 05 53 00 00 00 00 12 B5 00 46 00 21 1C B0 00 A9 00 7C 1C E6 00 AD 00 80 05 31 00 00 00 00 DC A7
16:38:40.223 设备发送:03 03 05 A2 00 0F A5 02
16:38:45.218 设备接收:03 03 1E 00 0E 00 00 00 00 00 00 00 00 00 00 00 00 00 00 00 00 00 00 00 00 00 00 00 00 00 00 00 00 81 70
16:38:45.234 设备发送:03 03 05 B1 00 03 54 C2
16:38:50.227 设备接收:03 03 06 00 00 00 00 00 00 38 15
16:38:50.243 设备发送:03 03 04 2B 00 01 F4 D0
16:38:55.256 设备接收:03 03 02 02 E2 40 AD
16:38:55.303 设备发送:03 03 04 20 00 01 85 12
16:39:00.270 设备接收:03 03 02 00 2F 80 58
16:39:00.316 设备发送:03 03 04 05 00 01 94 D9
16:39:05.315 设备接收:03 03 02 00 00 C1 84
16:39:05.330 设备发送:04 03 04 84 00 04 05 45
16:39:10.317 设备接收:04 03 08 13 8B 01 B6 00 07 01 B6 07 E6
16:39:10.332 设备发送:04 03 04 8D 00 05 14 87
16:39:15.344 设备接收:04 03 0A 08 C4 02 C4 00 00 00 00 00 00 CF 89
16:39:15.360 设备发送:04 03 04 98 00 05 05 43
16:39:20.349 设备接收:04 03 0A 08 C2 02 D2 00 00 00 00 00 00 93 E8
16:39:20.380 设备发送:04 03 04 A3 00 05 74 8E
16:39:25.379 设备接收:04 03 0A 08 CE 02 E2 00 00 00 00 00 00 F6 EB
16:39:25.410 设备发送:04 03 06 84 00 04 04 FD
16:39:30.387 设备接收:04 03 08 00 00 BA CC 00 11 AA 97 E1 9A
16:39:30.433 设备发送:04 03 04 04 00 01 C4 AE
16:39:35.435 设备接收:04 03 02 00 02 F5 85
16:39:35.450 设备发送:04 03 05 84 00 0F 45 7E
16:39:40.449 设备接收:04 03 1E 1B 74 00 19 00 11 1C EA 00 47 00 34 1B 5E 00 22 00 18 1D D9 00 49 00 38 1B 9A 01 1D 00 C9 E3 58
16:39:40.465 设备发送:04 03 05 93 00 0F F5 7A
16:39:45.467 设备接收:04 03 1E 12 92 00 D9 00 67 1A B6 00 4B 00 33 04 98 00 01 00 00 04 B7 00 00 00 00 04 AE 00 00 00 00 F6 E7
16:39:45.498 设备发送:04 03 05 A2 00 0F A4 B5
16:39:50.507 设备接收:04 03 1E 00 00 00 00 00 00 00 00 00 00 00 00 00 00 00 00 00 00 00 00 00 00 00 00 00 00 00 00 00 00 04 BB
16:39:50.523 设备发送:04 03 05 B1 00 03 55 75
16:39:55.503 设备接收:04 03 06 00 00 00 00 00 00 1E 25
16:39:55.519 设备发送:04 03 04 2B 00 01 F5 67
16:40:00.525 设备接收:04 03 02 02 E9 B4 AA
16:40:00.541 设备发送:04 03 04 20 00 01 84 A5
16:40:05.533 设备接收:04 03 02 00 2A F5 9B
16:40:05.548 设备发送:04 03 04 05 00 01 95 6E
16:40:10.547 设备接收:04 03 02 00 00 74 44
16:40:10.562 设备发送:05 03 04 84 00 04 04 94
16:40:15.604 设备发送:05 03 04 84 00 04 04 94
16:40:20.611 设备接收:05 03 08 13 8B 01 6E FF EF 01 6E 93 73
16:40:20.627 设备发送:05 03 04 8D 00 05 15 56
16:40:25.613 设备接收:05 03 0A 08 C6 02 68 00 00 00 00 00 00 B8 62
16:40:25.628 设备发送:05 03 04 98 00 05 04 92
16:40:30.653 设备接收:05 03 0A 08 BE 02 68 00 00 00 00 00 00 BA 60
16:40:30.684 设备发送:05 03 04 A3 00 05 75 5F
16:40:35.681 设备接收:05 03 0A 08 C9 02 B5 00 00 00 00 00 00 F4 9F
16:40:35.696 设备发送:05 03 06 84 00 04 05 2C
16:40:40.687 设备接收:05 03 08 00 00 9B EE 00 0E E7 3B 1F 3B
16:40:40.719 设备发送:05 03 04 04 00 01 C5 7F
16:40:45.699 设备接收:05 03 02 00 02 C8 45
16:40:45.715 设备发送:05 03 05 84 00 0F 44 AF
16:40:50.725 设备接收:05 03 1E 04 B8 00 00 00 00 16 D9 00 CD 00 78 16 3A 00 43 00 26 17 B7 00 3D 00 25 1E FB 00 1D 00 17 73 86
16:40:50.741 设备发送:05 03 05 93 00 0F F4 AB
16:40:55.777 设备接收:05 03 1E 1C C5 00 8C 00 67 04 A5 00 00 00 00 19 79 00 4C 00 31 04 B3 00 00 00 00 16 13 00 B6 00 66 0C 7C
16:40:55.792 设备发送:05 03 05 A2 00 0F A5 64
16:41:00.781 设备接收:05 03 1E 00 06 00 00 00 00 00 00 00 02 00 00 00 00 00 00 00 00 00 00 00 00 00 00 00 00 00 00 00 00 CA 9D
16:41:00.797 设备发送:05 03 05 B1 00 03 54 A4
16:41:05.785 设备接收:05 03 06 00 00 00 00 00 00 13 B5
16:41:05.801 设备发送:05 03 04 2B 00 01 F4 B6
16:41:10.813 设备接收:05 03 02 02 E6 C9 6E
16:41:10.829 设备发送:05 03 04 20 00 01 85 74
16:41:15.847 设备接收:05 03 02 00 2E C9 98
16:41:15.863 设备发送:05 03 04 05 00 01 94 BF
16:41:20.846 设备接收:05 03 02 00 00 49 84
16:41:20.878 设备发送:06 03 04 84 00 04 04 A7
16:41:25.867 设备接收:06 03 08 13 86 00 D8 FF F0 00 D8 39 1C
16:41:25.883 设备发送:06 03 04 8D 00 05 15 65
16:41:30.895 设备接收:06 03 0A 08 C2 01 C8 00 00 00 00 00 00 6F 7E
16:41:30.911 设备发送:06 03 04 98 00 05 04 A1
16:41:35.919 设备接收:06 03 0A 08 C2 01 BF 00 00 00 00 00 00 68 79
16:41:35.934 设备发送:06 03 04 A3 00 05 75 6C
16:41:40.940 设备接收:06 03 0A 08 CA 01 D9 00 00 00 00 00 00 09 BF
16:41:40.956 设备发送:06 03 06 84 00 04 05 1F
16:41:45.952 设备接收:06 03 08 00 00 96 05 00 0E D2 C8 62 60
16:41:45.967 设备发送:06 03 04 04 00 01 C5 4C
16:41:50.977 设备接收:06 03 02 00 02 8C 45
16:41:50.993 设备发送:06 03 05 84 00 0F 44 9C
16:41:55.968 设备接收:06 03 1E 04 AD 00 03 00 00 1C D6 00 3D 00 2D 1D 33 00 3C 00 2D 1A C2 00 22 00 17 1F 09 00 3E 00 31 A0 B2
16:41:56.000 设备发送:06 03 05 93 00 0F F4 98
16:42:01.023 设备接收:06 03 1E 04 AB 00 00 00 00 04 A7 00 01 00 00 18 09 00 40 00 27 04 9B 00 09 00 01 16 14 00 AA 00 60 49 A4
16:42:01.038 设备发送:06 03 05 A2 00 0F A5 57
16:42:06.056 设备接收:06 03 1E 00 08 00 00 00 00 00 00 00 00 00 00 00 00 00 00 00 00 00 00 00 00 00 00 00 00 00 00 00 00 DD 75
16:42:06.072 设备发送:06 03 05 B1 00 03 54 97
16:42:11.072 设备接收:06 03 06 00 00 00 00 00 00 07 45
16:42:11.103 设备发送:06 03 04 2B 00 01 F4 85
16:42:16.085 设备接收:06 03 02 02 E9 CD 6A
16:42:16.101 设备发送:06 03 04 20 00 01 85 47
16:42:21.090 设备接收:06 03 02 00 2D CD 99
16:42:21.106 设备发送:06 03 04 05 00 01 94 8C
16:42:26.137 设备接收:06 03 02 00 00 0D 84
16:42:26.153 设备发送:07 03 04 84 00 04 05 76
16:42:31.151 设备接收:07 03 08 13 8B 01 09 FF D1 01 1C 4C EA
16:42:31.166 设备发送:07 03 04 8D 00 05 14 B4
16:42:36.177 设备接收:07 03 0A 08 D1 01 99 00 00 00 00 00 00 F4 0A
16:42:36.193 设备发送:07 03 04 98 00 05 05 70
16:42:41.161 设备接收:07 03 0A 08 C8 01 A2 00 00 00 00 00 00 D9 59
16:42:41.192 设备发送:07 03 04 A3 00 05 74 BD
16:42:46.217 设备接收:07 03 0A 08 D2 01 90 00 00 00 00 00 00 79 FA
16:42:46.232 设备发送:07 03 06 84 00 04 04 CE
16:42:51.214 设备接收:07 03 08 00 00 4F E2 00 07 61 45 24 D4
16:42:51.230 设备发送:07 03 04 04 00 01 C4 9D
16:42:56.249 设备接收:07 03 02 00 02 B1 85
16:42:56.265 设备发送:07 03 05 84 00 0F 45 4D
16:43:01.252 设备接收:07 03 1E 0E 3D 00 DE 00 51 0F 25 00 8B 00 36 1B F8 00 19 00 12 17 E7 00 D0 00 7F 00 00 00 00 00 00 E6 3A
16:43:01.284 设备发送:07 03 05 93 00 0F F5 49
16:43:06.274 设备接收:07 03 1E 00 00 00 00 00 00 00 00 00 00 00 00 00 00 00 00 00 00 00 00 00 00 00 00 00 00 00 00 00 00 B0 BB
16:43:06.305 设备发送:07 03 05 A2 00 0F A4 86
16:43:11.303 设备接收:07 03 1E 00 00 00 00 00 00 00 00 00 00 00 00 00 00 00 00 00 00 00 00 00 00 00 00 00 00 00 00 00 00 B0 BB
16:43:11.335 设备发送:07 03 05 B1 00 03 55 46
16:43:16.315 设备接收:07 03 06 00 00 00 00 00 00 0A D5
16:43:16.362 设备发送:07 03 04 2B 00 01 F5 54
16:43:21.347 设备接收:07 03 02 01 D9 F0 4E
16:43:21.377 设备发送:07 03 04 20 00 01 84 96
16:43:26.389 设备接收:07 03 02 00 15 F1 8B
16:43:26.405 设备发送:07 03 04 05 00 01 95 5D
16:43:31.412 设备接收:07 03 02 00 00 30 44
16:43:31.428 设备发送:08 03 04 84 00 04 05 89
16:43:36.414 设备接收:08 03 08 13 85 01 5B FF F4 01 5C 3A C9
16:43:36.430 设备发送:08 03 04 8D 00 05 14 4B
16:43:41.422 设备接收:08 03 0A 08 C2 02 6A 00 00 00 00 00 00 BA 2F
16:43:41.438 设备发送:08 03 04 98 00 05 05 8F
16:43:46.456 设备接收:08 03 0A 08 BF 02 48 00 00 00 00 00 00 85 7F
16:43:46.487 设备发送:08 03 04 A3 00 05 74 42
16:43:51.457 设备接收:08 03 0A 08 C8 02 96 00 00 00 00 00 00 F8 80
16:43:51.504 设备发送:08 03 06 84 00 04 04 31
16:43:56.488 设备接收:08 03 08 00 00 AA C6 00 10 0E D6 AF 6B
16:43:56.503 设备发送:08 03 04 04 00 01 C4 62
16:44:01.517 设备接收:08 03 02 00 02 E5 84
16:44:01.532 设备发送:08 03 05 84 00 0F 45 B2
16:44:06.523 设备接收:08 03 1E 1A 8B 00 72 00 4D 1B 23 00 0E 00 0A 1B DE 00 11 00 0C 1A B0 00 8A 00 5E 19 5F 00 32 00 20 9B DB
16:44:06.538 设备发送:08 03 05 93 00 0F F5 B6
16:44:11.547 设备接收:08 03 1E 1E FF 00 2B 00 22 1E A7 00 1E 00 17 1B 62 00 21 00 17 19 FB 00 17 00 0F 1B 0B 00 AD 00 78 88 DF
16:44:11.563 设备发送:08 03 05 A2 00 0F A4 79
16:44:16.594 设备接收:08 03 1E 00 00 00 08 00 00 00 00 00 05 00 00 00 00 00 00 00 00 00 00 00 00 00 00 00 00 00 00 00 00 7E BB
16:44:16.610 设备发送:08 03 05 B1 00 03 55 B9
16:44:21.577 设备接收:08 03 06 00 00 00 00 00 00 4B 25
16:44:21.609 设备发送:08 03 04 2B 00 01 F5 AB
16:44:26.605 设备接收:08 03 02 02 D2 E5 78
16:44:26.621 设备发送:08 03 04 20 00 01 84 69
16:44:31.635 设备接收:08 03 02 00 1F 25 8D
16:44:31.666 设备发送:08 03 04 05 00 01 95 A2
16:44:36.657 设备接收:08 03 02 00 00 64 45
16:44:36.672 设备发送:09 03 04 84 00 04 04 58
16:44:41.657 设备接收:09 03 08 13 85 01 A0 00 05 01 A0 BA 47
16:44:41.688 设备发送:09 03 04 8D 00 05 15 9A
16:44:46.693 设备接收:09 03 0A 08 C9 02 96 00 00 00 00 00 00 F7 91
16:44:46.708 设备发送:09 03 04 98 00 05 04 5E
16:44:51.689 设备接收:09 03 0A 08 C2 02 AB 00 00 00 00 00 00 68 62
16:44:51.752 设备发送:09 03 04 A3 00 05 75 93
16:44:56.743 设备接收:09 03 0A 08 C9 02 D0 00 00 00 00 00 00 D0 55
16:44:56.759 设备发送:09 03 06 84 00 04 05 E0
16:45:01.756 设备接收:09 03 08 00 00 98 E7 00 0E 9A 50 9C E6
16:45:01.787 设备发送:09 03 04 04 00 01 C5 B3
16:45:06.774 设备接收:09 03 02 00 02 D8 44
16:45:06.790 设备发送:09 03 05 84 00 0F 44 63
16:45:11.796 设备接收:09 03 1E 1E 6C 00 0C 00 09 1E 13 00 0D 00 0A 1D B3 00 11 00 0D 17 F8 00 62 00 3C 1E 50 00 12 00 0E 0D 63
16:45:11.811 设备发送:09 03 05 93 00 0F F4 67
16:45:16.816 设备接收:09 03 1E 1B 95 00 77 00 54 1E CB 00 0F 00 0C 1A C5 00 C3 00 86 1D D7 00 4C 00 3A 1E 2B 00 46 00 36 6A A9
16:45:16.831 设备发送:09 03 05 A2 00 0F A5 A8
16:45:21.837 设备接收:09 03 1E 00 03 00 00 00 00 00 00 00 02 00 00 00 00 00 00 00 00 00 00 00 00 00 00 00 00 00 00 00 00 DA 99
16:45:21.869 设备发送:09 03 05 B1 00 03 54 68
16:45:26.845 设备接收:09 03 06 00 00 00 00 00 00 46 B5
16:45:26.861 设备发送:09 03 04 2B 00 01 F4 7A
16:45:31.857 设备接收:09 03 02 02 D4 58 BA
16:45:31.936 设备发送:09 03 04 20 00 01 85 B8
16:45:36.906 设备接收:09 03 02 00 35 99 92
16:45:36.922 设备发送:09 03 04 05 00 01 94 73
16:45:41.918 设备接收:09 03 02 00 00 59 85
16:45:41.948 设备发送:0A 03 04 84 00 04 04 6B
16:45:46.947 设备接收:0A 03 08 13 8B 00 1F FF D4 00 6F 6F 20
16:45:46.963 设备发送:0A 03 04 8D 00 05 15 A9
16:45:51.950 设备接收:0A 03 0A 08 CB 00 A6 00 00 00 00 00 00 5A E8
16:45:51.967 设备发送:0A 03 04 98 00 05 04 6D
16:45:56.991 设备接收:0A 03 0A 08 C9 00 94 00 00 00 00 00 00 50 4B
16:45:57.007 设备发送:0A 03 04 A3 00 05 75 A0
16:46:01.979 设备接收:0A 03 0A 08 CD 00 A3 00 00 00 00 00 00 24 48
16:46:01.995 设备发送:0A 03 06 84 00 04 05 D3
16:46:07.021 设备发送:0A 03 06 84 00 04 05 D3
16:46:12.009 设备接收:0A 03 08 00 00 22 E3 00 03 4B D5 74 C8
16:46:12.025 设备发送:0A 03 04 04 00 01 C5 80
16:46:17.060 设备接收:0A 03 02 00 02 9C 44
16:46:17.076 设备发送:0A 03 05 84 00 0F 44 50
16:46:22.086 设备接收:0A 03 1E 18 7A 00 0C 00 07 18 21 00 1B 00 10 16 6B 00 19 00 0E 0B B6 00 00 00 00 00 00 00 00 00 00 FC 34
16:46:22.101 设备发送:0A 03 05 93 00 0F F4 54
16:46:27.085 设备接收:0A 03 1E 00 00 00 00 00 00 00 00 00 00 00 00 00 00 00 00 00 00 00 00 00 00 00 00 00 00 00 00 00 00 0D 79
16:46:27.132 设备发送:0A 03 05 A2 00 0F A5 9B
16:46:32.119 设备接收:0A 03 1E 00 00 00 00 00 00 00 00 00 00 00 00 00 00 00 00 00 00 00 00 00 00 00 00 00 00 00 00 00 00 0D 79
16:46:32.135 设备发送:0A 03 05 B1 00 03 54 5B
16:46:37.157 设备接收:0A 03 06 00 00 00 00 00 00 52 45
16:46:37.172 设备发送:0A 03 04 2B 00 01 F4 49
16:46:42.165 设备接收:0A 03 02 01 DF 5D 8D
16:46:42.180 设备发送:0A 03 04 20 00 01 85 8B
16:46:47.196 设备接收:0A 03 02 00 1D DD 8C
16:46:47.212 设备发送:0A 03 04 05 00 01 94 40
16:46:52.216 设备接收:0A 03 02 00 00 1D 85
16:46:52.232 设备发送:01 03 04 84 00 04 05 10
16:46:57.218 设备接收:01 03 08 13 88 01 1C FF E9 01 1D 2C AC
16:46:57.249 设备发送:01 03 04 8D 00 05 14 D2
16:46:59.02400

