16:29:08.835 设备发送:02 03 04 2B 00 01 F5 01
16:29:10.362 设备发送:02 03 04 2B 00 01 F5 01
16:29:11.909 设备发送:02 03 04 2B 00 01 F5 01
16:29:13.427 设备发送:02 03 04 20 00 01 84 C3
16:29:14.960 设备发送:02 03 04 20 00 01 84 C3
16:29:16.482 设备发送:02 03 04 20 00 01 84 C3
16:29:17.992 设备发送:02 03 04 05 00 01 95 08
16:29:19.500 设备发送:02 03 04 05 00 01 95 08
16:29:21.049 设备发送:02 03 04 05 00 01 95 08
16:29:22.576 设备发送:03 03 04 84 00 04 04 F2
16:29:24.115 设备发送:03 03 04 84 00 04 04 F2
16:29:25.609 设备发送:03 03 04 84 00 04 04 F2
16:29:27.155 设备发送:03 03 04 8D 00 21 15 2B
16:29:28.680 设备接收:03 03 42 08 D2 05 3B 00 00 00 00 00 00 00 00 00 00 00 00 00 00 00 00 00 00 08 D2 05 44 00 00 00 00 00 00 00 00 00 00 00 00 00 00 00 00 00 00 08 DC 05 71 00 00 00 00 00 00 00 00 00 00 00 00 00 00 00 00 00 00 16 C5
16:29:28.696 设备发送:03 03 06 84 00 04 05 4A
16:29:30.211 设备发送:03 03 06 84 00 04 05 4A
16:29:31.724 设备发送:03 03 06 84 00 04 05 4A
16:29:33.259 设备发送:03 03 04 04 00 01 C5 19
16:29:34.787 设备发送:03 03 04 04 00 01 C5 19
16:29:36.317 设备发送:03 03 04 04 00 01 C5 19
16:29:37.845 设备发送:03 03 05 84 00 0F 44 C9
16:29:39.342 设备接收:03 03 1E 1F 76 00 E6 00 B9 20 02 00 F3 00 C7 1D 51 00 A5 00 7B 1E B7 00 B6 00 8F 18 48 00 87 00 54 F6 4C
16:29:39.357 设备发送:03 03 05 93 00 0F F4 CD
16:29:40.881 设备接收:03 03 1E 05 36 00 00 00 00 12 C2 00 84 00 3F 1C 2D 00 81 00 5D 1C 9C 00 81 00 5F 05 3A 00 00 00 00 24 88
16:29:40.955 设备发送:03 03 05 A2 00 0F A5 02
16:29:42.386 设备接收:03 03 1E 00 0D 00 00 00 00 00 00 00 00 00 00 00 00 00 00 00 00 00 00 00 00 00 00 00 00 00 00 00 00 C1 72
16:29:42.433 设备发送:03 03 05 B1 00 03 54 C2
16:29:43.965 设备发送:03 03 05 B1 00 03 54 C2
16:29:45.478 设备发送:03 03 05 B1 00 03 54 C2
16:29:47.024 设备发送:03 03 04 2B 00 01 F4 D0
16:29:48.538 设备发送:03 03 04 2B 00 01 F4 D0
16:29:50.069 设备发送:03 03 04 2B 00 01 F4 D0
16:29:51.582 设备发送:03 03 04 20 00 01 85 12
16:29:53.099 设备发送:03 03 04 20 00 01 85 12
16:29:54.626 设备发送:03 03 04 20 00 01 85 12
16:29:56.143 设备发送:03 03 04 05 00 01 94 D9
16:29:57.689 设备发送:03 03 04 05 00 01 94 D9
16:29:59.220 设备发送:03 03 04 05 00 01 94 D9
16:30:00.752 设备发送:01 03 04 84 00 04 05 10
16:30:02.248 设备发送:01 03 04 84 00 04 05 10
16:30:03.778 设备发送:01 03 04 84 00 04 05 10
16:30:05.310 设备发送:01 03 04 8D 00 21 14 C9
16:30:06.807 设备接收:01 03 42 08 D5 03 9A 00 00 00 00 00 00 00 00 00 00 00 00 00 00 00 00 00 00 08 D2 03 AB 00 00 00 00 00 00 00 00 00 00 00 00 00 00 00 00 00 00 08 DD 03 C1 00 00 00 00 00 00 00 00 00 00 00 00 00 00 00 00 00 00 07 47
16:30:06.823 设备发送:01 03 06 84 00 04 04 A8
16:30:08.343 设备发送:01 03 06 84 00 04 04 A8
16:30:09.887 设备发送:01 03 06 84 00 04 04 A8
16:30:11.398 设备发送:01 03 04 04 00 01 C4 FB
16:30:12.940 设备发送:01 03 04 04 00 01 C4 FB
16:30:14.440 设备发送:01 03 04 04 00 01 C4 FB
16:30:15.972 设备发送:01 03 05 84 00 0F 45 2B
16:30:17.491 设备接收:01 03 1E 1F F9 00 A9 00 8A 21 26 00 74 00 62 20 5C 00 73 00 5F 21 2B 00 7C 00 69 18 38 00 40 00 27 43 15
16:30:17.507 设备发送:01 03 05 93 00 0F F5 2F
16:30:19.004 设备接收:01 03 1E 00 00 00 00 00 00 1B 42 00 8A 00 60 1D 45 00 3C 00 2D 1C 95 00 44 00 31 00 00 00 02 00 00 4B E8
16:30:19.081 设备发送:01 03 05 A2 00 0F A4 E0
16:30:20.548 设备接收:01 03 1E 00 00 00 00 00 00 00 00 00 00 00 00 00 00 00 00 00 00 00 00 00 00 00 00 00 00 00 00 00 00 D8 BA
16:30:20.563 设备发送:01 03 05 B1 00 03 55 20
16:30:22.093 设备发送:01 03 05 B1 00 03 55 20
16:30:23.622 设备发送:01 03 05 B1 00 03 55 20
16:30:25.151 设备发送:01 03 04 2B 00 01 F5 32
16:30:26.655 设备发送:01 03 04 2B 00 01 F5 32
16:30:28.186 设备发送:01 03 04 2B 00 01 F5 32
16:30:29.722 设备发送:01 03 04 20 00 01 84 F0
16:30:31.257 设备发送:01 03 04 20 00 01 84 F0
16:30:32.786 设备发送:01 03 04 20 00 01 84 F0
16:30:34.317 设备发送:01 03 04 05 00 01 95 3B
16:30:35.814 设备发送:01 03 04 05 00 01 95 3B
16:30:37.359 设备发送:01 03 04 05 00 01 95 3B
16:30:38.906 设备发送:02 03 04 84 00 04 05 23
16:30:40.406 设备发送:02 03 04 84 00 04 05 23
16:30:41.949 设备发送:02 03 04 84 00 04 05 23
16:30:43.462 设备发送:02 03 04 8D 00 21 14 FA
16:30:44.968 设备接收:02 03 42 08 D3 03 7D 00 00 00 00 00 00 00 00 00 00 00 00 00 00 00 00 00 00 08 D2 03 7D 00 00 00 00 00 00 00 00 00 00 00 00 00 00 00 00 00 00 08 DC 03 A9 00 00 00 00 00 00 00 00 00 00 00 00 00 00 00 00 00 00 7F 89
16:30:45.015 设备发送:02 03 06 84 00 04 04 9B
16:30:46.513 设备发送:02 03 06 84 00 04 04 9B
16:30:48.047 设备发送:02 03 06 84 00 04 04 9B
16:30:49.580 设备发送:02 03 04 04 00 01 C4 C8
16:30:51.098 设备发送:02 03 04 04 00 01 C4 C8
16:30:52.625 设备发送:02 03 04 04 00 01 C4 C8
16:30:54.154 设备发送:02 03 05 84 00 0F 45 18
16:30:55.660 设备接收:02 03 1E 20 BC 00 38 00 2F 20 3D 00 31 00 28 20 C1 00 3D 00 33 1E 38 00 9A 00 77 21 28 00 30 00 29 27 26
16:30:55.676 设备发送:02 03 05 93 00 0F F5 1C
16:30:57.206 设备接收:02 03 1E 20 67 00 34 00 2B 1C B3 00 5E 00 45 20 AA 00 77 00 64 20 F7 00 3E 00 34 1B 17 00 66 00 46 42 C4
16:30:57.238 设备发送:02 03 05 A2 00 0F A4 D3
16:30:58.737 设备接收:02 03 1E 00 00 00 01 00 00 00 00 00 00 00 00 00 00 00 00 00 00 00 00 00 00 00 00 00 00 00 00 00 00 92 38
16:30:58.769 设备发送:02 03 05 B1 00 03 55 13
16:31:00.296 设备发送:02 03 05 B1 00 03 55 13
16:31:01.793 设备发送:02 03 05 B1 00 03 55 13
16:31:03.330 设备发送:02 03 04 2B 00 01 F5 01
16:31:04.859 设备发送:02 03 04 2B 00 01 F5 01
16:31:06.378 设备发送:02 03 04 2B 00 01 F5 01
16:31:07.905 设备发送:02 03 04 20 00 01 84 C3
16:31:09.423 设备发送:02 03 04 20 00 01 84 C3
16:31:10.955 设备发送:02 03 04 20 00 01 84 C3
16:31:12.470 设备发送:02 03 04 05 00 01 95 08
16:31:14.014 设备发送:02 03 04 05 00 01 95 08
16:31:15.530 设备发送:02 03 04 05 00 01 95 08
16:31:17.045 设备发送:03 03 04 84 00 04 04 F2
16:31:18.587 设备发送:03 03 04 84 00 04 04 F2
16:31:20.135 设备发送:03 03 04 84 00 04 04 F2
16:31:21.637 设备发送:03 03 04 8D 00 21 15 2B
16:31:23.148 设备接收:03 03 42 08 D3 04 CB 00 00 00 00 00 00 00 00 00 00 00 00 00 00 00 00 00 00 08 D4 04 D5 00 00 00 00 00 00 00 00 00 00 00 00 00 00 00 00 00 00 08 DD 04 FF 00 00 00 00 00 00 00 00 00 00 00 00 00 00 00 00 00 00 30 46
16:31:23.194 设备发送:03 03 06 84 00 04 05 4A
16:31:24.717 设备发送:03 03 06 84 00 04 05 4A
16:31:26.243 设备发送:03 03 06 84 00 04 05 4A
16:31:27.797 设备发送:03 03 04 04 00 01 C5 19
16:31:29.309 设备发送:03 03 04 04 00 01 C5 19
16:31:30.822 设备发送:03 03 04 04 00 01 C5 19
16:31:32.349 设备发送:03 03 05 84 00 0F 44 C9
16:31:33.866 设备接收:03 03 1E 1F C7 00 D5 00 AD 1F B2 00 E0 00 B5 1D 02 00 99 00 72 1D 26 00 B1 00 84 17 F8 00 80 00 4F 13 0E
16:31:33.898 设备发送:03 03 05 93 00 0F F4 CD
16:31:35.410 设备接收:03 03 1E 05 2E 00 00 00 00 12 C2 00 7C 00 3B 1B DC 00 73 00 52 1C 4B 00 78 00 57 05 33 00 00 00 00 F3 A3
16:31:35.426 设备发送:03 03 05 A2 00 0F A5 02
16:31:36.944 设备接收:03 03 1E 00 0D 00 00 00 00 00 00 00 00 00 00 00 00 00 00 00 00 00 00 00 00 00 00 00 00 00 00 00 00 C1 72
16:31:36.962 设备发送:03 03 05 B1 00 03 54 C2
16:31:38.472 设备发送:03 03 05 B1 00 03 54 C2
16:31:40.001 设备发送:03 03 05 B1 00 03 54 C2
16:31:41.545 设备发送:03 03 04 2B 00 01 F4 D0
16:31:43.044 设备发送:03 03 04 2B 00 01 F4 D0
16:31:44.586 设备发送:03 03 04 2B 00 01 F4 D0
16:31:46.112 设备发送:03 03 04 20 00 01 85 12
16:31:47.641 设备发送:03 03 04 20 00 01 85 12
16:31:49.154 设备发送:03 03 04 20 00 01 85 12
16:31:50.684 设备发送:03 03 04 05 00 01 94 D9
16:31:52.187 设备发送:03 03 04 05 00 01 94 D9
16:31:53.719 设备发送:03 03 04 05 00 01 94 D9
16:31:55.233 设备发送:01 03 04 84 00 04 05 10
16:31:56.775 设备发送:01 03 04 84 00 04 05 10
16:31:58.306 设备发送:01 03 04 84 00 04 05 10
16:31:59.821 设备发送:01 03 04 8D 00 21 14 C9
16:32:01.335 设备接收:01 03 42 08 D7 03 63 00 00 00 00 00 00 00 00 00 00 00 00 00 00 00 00 00 00 08 D1 03 6F 00 00 00 00 00 00 00 00 00 00 00 00 00 00 00 00 00 00 08 DC 03 87 00 00 00 00 00 00 00 00 00 00 00 00 00 00 00 00 00 00 F3 3B
16:32:01.351 设备发送:01 03 06 84 00 04 04 A8
16:32:02.883 设备发送:01 03 06 84 00 04 04 A8
16:32:04.413 设备发送:01 03 06 84 00 04 04 A8
16:32:05.940 设备发送:01 03 04 04 00 01 C4 FB
16:32:07.484 设备发送:01 03 04 04 00 01 C4 FB
16:32:08.994 设备发送:01 03 04 04 00 01 C4 FB
16:32:10.525 设备发送:01 03 05 84 00 0F 45 2B
16:32:12.039 设备接收:01 03 1E 1F 5C 00 A1 00 81 20 6F 00 73 00 60 20 62 00 6A 00 58 20 DB 00 77 00 64 18 39 00 3D 00 26 7A 07
16:32:12.118 设备发送:01 03 05 93 00 0F F5 2F
16:32:13.544 设备接收:01 03 1E 00 00 00 00 00 00 1B 91 00 7E 00 59 1D 44 00 39 00 2B 1D 30 00 3E 00 2E 00 00 00 05 00 00 88 8C
16:32:13.575 设备发送:01 03 05 A2 00 0F A4 E0
16:32:15.086 设备接收:01 03 1E 00 00 00 00 00 00 00 00 00 00 00 00 00 00 00 00 00 00 00 00 00 00 00 00 00 00 00 00 00 00 D8 BA
16:32:15.102 设备发送:01 03 05 B1 00 03 55 20
16:32:16.616 设备发送:01 03 05 B1 00 03 55 20
16:32:18.168 设备发送:01 03 05 B1 00 03 55 20
16:32:19.666 设备发送:01 03 04 2B 00 01 F5 32
16:32:21.198 设备发送:01 03 04 2B 00 01 F5 32
16:32:22.709 设备发送:01 03 04 2B 00 01 F5 32
16:32:24.264 设备发送:01 03 04 20 00 01 84 F0
16:32:25.791 设备发送:01 03 04 20 00 01 84 F0
16:32:27.308 设备发送:01 03 04 20 00 01 84 F0
16:32:28.840 设备发送:01 03 04 05 00 01 95 3B
16:32:30.370 设备发送:01 03 04 05 00 01 95 3B
16:32:31.888 设备发送:01 03 04 05 00 01 95 3B
16:32:33.401 设备发送:02 03 04 84 00 04 05 23
16:32:34.912 设备发送:02 03 04 84 00 04 05 23
16:32:36.469 设备发送:02 03 04 84 00 04 05 23
16:32:37.977 设备发送:02 03 04 8D 00 21 14 FA
16:32:39.473 设备接收:02 03 42 08 D5 03 33 00 00 00 00 00 00 00 00 00 00 00 00 00 00 00 00 00 00 08 D3 03 32 00 00 00 00 00 00 00 00 00 00 00 00 00 00 00 00 00 00 08 DF 03 62 00 00 00 00 00 00 00 00 00 00 00 00 00 00 00 00 00 00 F7 A6
16:32:39.551 设备发送:02 03 06 84 00 04 04 9B
16:32:41.031 设备发送:02 03 06 84 00 04 04 9B
16:32:42.556 设备发送:02 03 06 84 00 04 04 9B
16:32:44.101 设备发送:02 03 04 04 00 01 C4 C8
16:32:45.602 设备发送:02 03 04 04 00 01 C4 C8
16:32:47.146 设备发送:02 03 04 04 00 01 C4 C8
16:32:48.673 设备发送:02 03 05 84 00 0F 45 18
16:32:50.204 设备接收:02 03 1E 20 BC 00 31 00 29 20 83 00 2B 00 23 20 A0 00 37 00 2E 1E 37 00 8E 00 6E 20 DD 00 35 00 2D 30 A2
16:32:50.224 设备发送:02 03 05 93 00 0F F5 1C
16:32:51.703 设备接收:02 03 1E 21 05 00 2B 00 24 1E 43 00 52 00 3F 20 BE 00 70 00 5E 21 07 00 3C 00 33 1A 71 00 5C 00 3E 6B D1
16:32:51.735 设备发送:02 03 05 A2 00 0F A4 D3
16:32:53.262 设备接收:02 03 1E 00 00 00 02 00 00 00 00 00 00 00 00 00 00 00 00 00 00 00 00 00 00 00 00 00 00 00 00 00 00 93 FF
16:32:53.278 设备发送:02 03 05 B1 00 03 55 13
16:32:54.775 设备发送:02 03 05 B1 00 03 55 13
16:32:56.321 设备发送:02 03 05 B1 00 03 55 13
16:32:57.862 设备发送:02 03 04 2B 00 01 F5 01
16:32:59.395 设备发送:02 03 04 2B 00 01 F5 01
16:33:00.893 设备发送:02 03 04 2B 00 01 F5 01
16:33:02.424 设备发送:02 03 04 20 00 01 84 C3
16:33:03.941 设备发送:02 03 04 20 00 01 84 C3
16:33:05.482 设备发送:02 03 04 20 00 01 84 C3
16:33:07.009 设备发送:02 03 04 05 00 01 95 08
16:33:08.555 设备发送:02 03 04 05 00 01 95 08
16:33:10.068 设备发送:02 03 04 05 00 01 95 08
16:33:11.584 设备发送:03 03 04 84 00 04 04 F2
16:33:13.113 设备发送:03 03 04 84 00 04 04 F2
16:33:14.647 设备发送:03 03 04 84 00 04 04 F2
16:33:16.171 设备发送:03 03 04 8D 00 21 15 2B
16:33:17.684 设备接收:03 03 42 08 D3 04 5E 00 00 00 00 00 00 00 00 00 00 00 00 00 00 00 00 00 00 08 D3 04 69 00 00 00 00 00 00 00 00 00 00 00 00 00 00 00 00 00 00 08 DB 04 97 00 00 00 00 00 00 00 00 00 00 00 00 00 00 00 00 00 00 75 46
16:33:17.732 设备发送:03 03 06 84 00 04 05 4A
16:33:19.247 设备发送:03 03 06 84 00 04 05 4A
16:33:20.801 设备发送:03 03 06 84 00 04 05 4A
16:33:22.299 设备发送:03 03 04 04 00 01 C5 19
16:33:23.857 设备发送:03 03 04 04 00 01 C5 19
16:33:25.372 设备发送:03 03 04 04 00 01 C5 19
16:33:26.908 设备发送:03 03 05 84 00 0F 44 C9
16:33:28.420 设备接收:03 03 1E 1F C7 00 C2 00 9D 1F B2 00 C9 00 A3 1C 11 00 92 00 69 1C 85 00 A2 00 76 17 F8 00 78 00 49 27 FE
16:33:28.436 设备发送:03 03 05 93 00 0F F4 CD
16:33:29.946 设备接收:03 03 1E 05 29 00 00 00 00 12 C2 00 76 00 38 1C 7B 00 65 00 4A 1C 9B 00 6A 00 4D 05 2C 00 00 00 00 C3 98
16:33:29.962 设备发送:03 03 05 A2 00 0F A5 02
16:33:31.463 设备接收:03 03 1E 00 0D 00 00 00 00 00 00 00 00 00 00 00 00 00 00 00 00 00 00 00 00 00 00 00 00 00 00 00 00 C1 72
16:33:31.495 设备发送:03 03 05 B1 00 03 54 C2
16:33:33.003 设备发送:03 03 05 B1 00 03 54 C2
16:33:34.532 设备发送:03 03 05 B1 00 03 54 C2
16:33:36.062 设备发送:03 03 04 2B 00 01 F4 D0
16:33:37.579 设备发送:03 03 04 2B 00 01 F4 D0
16:33:39.122 设备发送:03 03 04 2B 00 01 F4 D0
16:33:40.620 设备发送:03 03 04 20 00 01 85 12
16:33:42.164 设备发送:03 03 04 20 00 01 85 12
16:33:43.716 设备发送:03 03 04 20 00 01 85 12
16:33:45.245 设备发送:03 03 04 05 00 01 94 D9
16:33:46.762 设备发送:03 03 04 05 00 01 94 D9
16:33:48.288 设备发送:03 03 04 05 00 01 94 D9
16:33:49.816 设备发送:01 03 04 84 00 04 05 10
16:33:51.327 设备发送:01 03 04 84 00 04 05 10
16:33:52.872 设备发送:01 03 04 84 00 04 05 10
16:33:54.385 设备发送:01 03 04 8D 00 21 14 C9
16:33:55.901 设备接收:01 03 42 08 D7 03 2F 00 00 00 00 00 00 00 00 00 00 00 00 00 00 00 00 00 00 08 CE 03 43 00 00 00 00 00 00 00 00 00 00 00 00 00 00 00 00 00 00 08 DB 03 58 00 00 00 00 00 00 00 00 00 00 00 00 00 00 00 00 00 00 E8 33
16:33:55.918 设备发送:01 03 06 84 00 04 04 A8
16:33:57.448 设备发送:01 03 06 84 00 04 04 A8
16:33:58.979 设备发送:01 03 06 84 00 04 04 A8
16:34:00.481 设备发送:01 03 04 04 00 01 C4 FB
16:34:01.994 设备发送:01 03 04 04 00 01 C4 FB
16:34:03.531 设备发送:01 03 04 04 00 01 C4 FB
16:34:05.080 设备发送:01 03 05 84 00 0F 45 2B
16:34:06.578 设备接收:01 03 1E 1F A3 00 93 00 77 1F 75 00 6D 00 57 1F B1 00 66 00 53 20 80 00 71 00 5E 17 99 00 3A 00 23 CE 05
16:34:06.594 设备发送:01 03 05 93 00 0F F5 2F
16:34:08.111 设备接收:01 03 1E 00 00 00 00 00 00 1B 42 00 79 00 54 1D 96 00 32 00 26 1C E5 00 3C 00 2C 00 00 00 04 00 00 9E 55
16:34:08.126 设备发送:01 03 05 A2 00 0F A4 E0
16:34:09.627 设备接收:01 03 1E 00 00 00 00 00 00 00 00 00 00 00 00 00 00 00 00 00 00 00 00 00 00 00 00 00 00 00 00 00 00 D8 BA
16:34:09.642 设备发送:01 03 05 B1 00 03 55 20
16:34:11.153 设备发送:01 03 05 B1 00 03 55 20
16:34:12.664 设备发送:01 03 05 B1 00 03 55 20
16:34:14.227 设备发送:01 03 04 2B 00 01 F5 32
16:34:15.730 设备发送:01 03 04 2B 00 01 F5 32
16:34:17.260 设备发送:01 03 04 2B 00 01 F5 32
16:34:18.797 设备发送:01 03 04 20 00 01 84 F0
16:34:20.315 设备发送:01 03 04 20 00 01 84 F0
16:34:21.864 设备发送:01 03 04 20 00 01 84 F0
16:34:23.374 设备发送:01 03 04 05 00 01 95 3B
16:34:24.885 设备发送:01 03 04 05 00 01 95 3B
16:34:26.424 设备发送:01 03 04 05 00 01 95 3B
16:34:27.957 设备发送:02 03 04 84 00 04 05 23
16:34:29.470 设备发送:02 03 04 84 00 04 05 23
16:34:30.996 设备发送:02 03 04 84 00 04 05 23
16:34:32.515 设备发送:02 03 04 8D 00 21 14 FA
16:34:34.028 设备接收:02 03 42 08 D6 03 05 00 00 00 00 00 00 00 00 00 00 00 00 00 00 00 00 00 00 08 CE 03 01 00 00 00 00 00 00 00 00 00 00 00 00 00 00 00 00 00 00 08 D9 03 30 00 00 00 00 00 00 00 00 00 00 00 00 00 00 00 00 00 00 9B 2A
16:34:34.044 设备发送:02 03 06 84 00 04 04 9B
16:34:35.573 设备发送:02 03 06 84 00 04 04 9B
16:34:37.100 设备发送:02 03 06 84 00 04 04 9B
16:34:38.648 设备发送:02 03 04 04 00 01 C4 C8
16:34:40.162 设备发送:02 03 04 04 00 01 C4 C8
16:34:41.665 设备发送:02 03 04 04 00 01 C4 C8
16:34:43.227 设备发送:02 03 05 84 00 0F 45 18
16:34:44.731 设备接收:02 03 1E 20 69 00 30 00 28 20 7B 00 29 00 22 20 9E 00 32 00 29 1D E8 00 86 00 66 20 A4 00 2D 00 26 B8 5A
16:34:44.746 设备发送:02 03 05 93 00 0F F5 1C
16:34:46.232 设备接收:02 03 1E 1F C5 00 2D 00 25 1E 91 00 4A 00 3A 20 A6 00 68 00 57 20 5B 00 3A 00 30 1A 76 00 52 00 38 4E 14
16:34:46.263 设备发送:02 03 05 A2 00 0F A4 D3
16:34:47.748 设备接收:02 03 1E 00 00 00 01 00 00 00 00 00 00 00 00 00 00 00 00 00 00 00 00 00 00 00 00 00 00 00 00 00 00 92 38
16:34:47.779 设备发送:02 03 05 B1 00 03 55 13
16:34:49.322 设备发送:02 03 05 B1 00 03 55 13
16:34:50.836 设备发送:02 03 05 B1 00 03 55 13
16:34:52.365 设备发送:02 03 04 2B 00 01 F5 01
16:34:53.879 设备发送:02 03 04 2B 00 01 F5 01
16:34:55.408 设备发送:02 03 04 2B 00 01 F5 01
16:34:56.934 设备发送:02 03 04 20 00 01 84 C3
16:34:58.435 设备发送:02 03 04 20 00 01 84 C3
16:34:59.982 设备发送:02 03 04 20 00 01 84 C3
16:35:01.493 设备发送:02 03 04 05 00 01 95 08
16:35:03.035 设备发送:02 03 04 05 00 01 95 08
16:35:04.560 设备发送:02 03 04 05 00 01 95 08
16:35:06.073 设备发送:03 03 04 84 00 04 04 F2
16:35:07.602 设备发送:03 03 04 84 00 04 04 F2
16:35:09.120 设备发送:03 03 04 84 00 04 04 F2
16:35:10.671 设备发送:03 03 04 8D 00 21 15 2B
16:35:12.171 设备接收:03 03 42 08 D3 03 F1 00 00 00 00 00 00 00 00 00 00 00 00 00 00 00 00 00 00 08 D0 03 FE 00 00 00 00 00 00 00 00 00 00 00 00 00 00 00 00 00 00 08 DB 04 2A 00 00 00 00 00 00 00 00 00 00 00 00 00 00 00 00 00 00 8B E6
16:35:12.186 设备发送:03 03 06 84 00 04 05 4A
16:35:13.728 设备发送:03 03 06 84 00 04 05 4A
16:35:15.241 设备发送:03 03 06 84 00 04 05 4A
16:35:16.773 设备发送:03 03 04 04 00 01 C5 19
16:35:18.308 设备发送:03 03 04 04 00 01 C5 19
16:35:19.800 设备发送:03 03 04 04 00 01 C5 19
16:35:21.351 设备发送:03 03 05 84 00 0F 44 C9
16:35:22.863 设备接收:03 03 1E 20 16 00 AA 00 8C 1F B2 00 B2 00 90 1C 62 00 84 00 60 1D 76 00 8E 00 6B 17 07 00 6F 00 41 F6 EA
16:35:22.878 设备发送:03 03 05 93 00 0F F4 CD
16:35:24.403 设备接收:03 03 1E 05 60 00 00 00 00 13 11 00 6A 00 34 1B DD 00 5F 00 44 1B FC 00 64 00 47 05 32 00 00 00 00 8F 75
16:35:24.419 设备发送:03 03 05 A2 00 0F A5 02
16:35:25.917 设备接收:03 03 1E 00 0D 00 00 00 00 00 00 00 00 00 00 00 00 00 00 00 00 00 00 00 00 00 00 00 00 00 00 00 00 C1 72
16:35:25.966 设备发送:03 03 05 B1 00 03 54 C2
16:35:27.494 设备发送:03 03 05 B1 00 03 54 C2
16:35:28.993 设备发送:03 03 05 B1 00 03 54 C2
16:35:30.522 设备发送:03 03 04 2B 00 01 F4 D0
16:35:32.052 设备发送:03 03 04 2B 00 01 F4 D0
16:35:33.580 设备发送:03 03 04 2B 00 01 F4 D0
16:35:35.127 设备发送:03 03 04 20 00 01 85 12
16:35:36.623 设备发送:03 03 04 20 00 01 85 12
16:35:38.128 设备发送:03 03 04 20 00 01 85 12
16:35:39.672 设备发送:03 03 04 05 00 01 94 D9
16:35:41.208 设备发送:03 03 04 05 00 01 94 D9
16:35:42.723 设备发送:03 03 04 05 00 01 94 D9
16:35:44.270 设备发送:01 03 04 84 00 04 05 10
16:35:45.784 设备发送:01 03 04 84 00 04 05 10
16:35:47.295 设备发送:01 03 04 84 00 04 05 10
16:35:48.814 设备发送:01 03 04 8D 00 21 14 C9
16:35:50.341 设备接收:01 03 42 08 D3 02 F9 00 00 00 00 00 00 00 00 00 00 00 00 00 00 00 00 00 00 08 CF 03 02 00 00 00 00 00 00 00 00 00 00 00 00 00 00 00 00 00 00 08 D9 03 19 00 00 00 00 00 00 00 00 00 00 00 00 00 00 00 00 00 00 D8 1A
16:35:50.372 设备发送:01 03 06 84 00 04 04 A8
16:35:51.901 设备发送:01 03 06 84 00 04 04 A8
16:35:53.426 设备发送:01 03 06 84 00 04 04 A8
16:35:54.943 设备发送:01 03 04 04 00 01 C4 FB
16:35:56.488 设备发送:01 03 04 04 00 01 C4 FB
16:35:58.016 设备发送:01 03 04 04 00 01 C4 FB
16:35:59.543 设备发送:01 03 05 84 00 0F 45 2B
16:36:01.042 设备接收:01 03 1E 1F 5A 00 88 00 6D 20 6D 00 64 00 53 20 36 00 5F 00 4F 20 38 00 6D 00 5A 17 9A 00 37 00 21 70 FE
16:36:01.089 设备发送:01 03 05 93 00 0F F5 2F
16:36:02.577 设备接收:01 03 1E 00 00 00 00 00 00 1B 92 00 6B 00 4B 1C F7 00 32 00 25 1C 95 00 39 00 2A 00 00 00 03 00 00 C2 48
16:36:02.609 设备发送:01 03 05 A2 00 0F A4 E0
16:36:04.124 设备接收:01 03 1E 00 00 00 00 00 00 00 00 00 00 00 00 00 00 00 00 00 00 00 00 00 00 00 00 00 00 00 00 00 00 D8 BA
16:36:04.140 设备发送:01 03 05 B1 00 03 55 20
16:36:05.651 设备发送:01 03 05 B1 00 03 55 20
16:36:07.176 设备发送:01 03 05 B1 00 03 55 20
16:36:08.738 设备发送:01 03 04 2B 00 01 F5 32
16:36:10.252 设备发送:01 03 04 2B 00 01 F5 32
16:36:11.785 设备发送:01 03 04 2B 00 01 F5 32
16:36:13.269 设备发送:01 03 04 20 00 01 84 F0
16:36:14.819 设备发送:01 03 04 20 00 01 84 F0
16:36:16.344 设备发送:01 03 04 20 00 01 84 F0
16:36:17.889 设备发送:01 03 04 05 00 01 95 3B
16:36:19.387 设备发送:01 03 04 05 00 01 95 3B
16:36:20.929 设备发送:01 03 04 05 00 01 95 3B
16:36:22.442 设备发送:02 03 04 84 00 04 05 23
16:36:23.956 设备发送:02 03 04 84 00 04 05 23
16:36:25.487 设备发送:02 03 04 84 00 04 05 23
16:36:27.020 设备发送:02 03 04 8D 00 21 14 FA
16:36:28.549 设备发送:02 03 04 8D 00 21 14 FA
16:36:30.066 设备发送:02 03 04 8D 00 21 14 FA
16:36:31.584 设备发送:02 03 06 84 00 04 04 9B
16:36:33.111 设备发送:02 03 06 84 00 04 04 9B
16:36:34.639 设备发送:02 03 06 84 00 04 04 9B
16:36:36.170 设备发送:02 03 04 04 00 01 C4 C8
16:36:37.701 设备发送:02 03 04 04 00 01 C4 C8
16:36:39.218 设备发送:02 03 04 04 00 01 C4 C8
16:36:40.760 设备发送:02 03 05 84 00 0F 45 18
16:36:42.270 设备接收:02 03 1E 20 1D 00 2B 00 24 20 33 00 29 00 22 20 9F 00 2B 00 24 1E D7 00 78 00 5E 1F E0 00 2E 00 25 F0 AD FF FE FE FE FE FE FF FE FF FF FF FE
16:36:42.285 设备发送:02 03 05 93 00 0F F5 1C
16:36:43.794 设备发送:02 03 05 93 00 0F F5 1C
16:36:45.322 设备发送:02 03 05 93 00 0F F5 1C
16:36:46.867 设备发送:02 03 05 A2 00 0F A4 D3
16:36:48.395 设备发送:02 03 05 A2 00 0F A4 D3
16:36:49.925 设备发送:02 03 05 A2 00 0F A4 D3
16:36:51.456 设备发送:02 03 05 B1 00 03 55 13
16:36:52.986 设备发送:02 03 05 B1 00 03 55 13
16:36:54.464 设备发送:02 03 05 B1 00 03 55 13
16:36:56.024 设备发送:02 03 04 2B 00 01 F5 01
16:36:57.535 设备发送:02 03 04 2B 00 01 F5 01
16:36:59.067 设备发送:02 03 04 2B 00 01 F5 01
16:37:00.614 设备发送:02 03 04 20 00 01 84 C3
16:37:02.133 设备发送:02 03 04 20 00 01 84 C3
16:37:03.661 设备发送:02 03 04 20 00 01 84 C3
16:37:05.192 设备发送:02 03 04 05 00 01 95 08
16:37:06.707 设备发送:02 03 04 05 00 01 95 08
16:37:08.216 设备发送:02 03 04 05 00 01 95 08
16:37:09.743 设备发送:03 03 04 84 00 04 04 F2
16:37:11.283 设备发送:03 03 04 84 00 04 04 F2
16:37:12.814 设备发送:03 03 04 84 00 04 04 F2
16:37:14.329 设备发送:03 03 04 8D 00 21 15 2B
16:37:15.859 设备发送:03 03 04 8D 00 21 15 2B
16:37:17.367 设备发送:03 03 04 8D 00 21 15 2B
16:37:18.890 设备发送:03 03 06 84 00 04 05 4A
16:37:20.422 设备发送:03 03 06 84 00 04 05 4A
16:37:21.968 设备发送:03 03 06 84 00 04 05 4A
16:37:23.514 设备发送:03 03 04 04 00 01 C5 19
16:37:25.044 设备发送:03 03 04 04 00 01 C5 19
16:37:26.559 设备发送:03 03 04 04 00 01 C5 19
16:37:28.058 设备发送:03 03 05 84 00 0F 44 C9
16:37:29.603 设备发送:03 03 05 84 00 0F 44 C9
16:37:31.118 设备发送:03 03 05 84 00 0F 44 C9
16:37:32.662 设备发送:03 03 05 93 00 0F F4 CD
16:37:34.187 设备发送:03 03 05 93 00 0F F4 CD
16:37:35.704 设备发送:03 03 05 93 00 0F F4 CD
16:37:37.233 设备发送:03 03 05 A2 00 0F A5 02
16:37:38.765 设备发送:03 03 05 A2 00 0F A5 02
16:37:40.280 设备发送:03 03 05 A2 00 0F A5 02
16:37:41.829 设备发送:03 03 05 B1 00 03 54 C2
16:37:43.339 设备发送:03 03 05 B1 00 03 54 C2
16:37:44.873 设备发送:03 03 05 B1 00 03 54 C2
16:37:46.388 设备发送:03 03 04 2B 00 01 F4 D0
16:37:47.902 设备发送:03 03 04 2B 00 01 F4 D0
16:37:49.450 设备发送:03 03 04 2B 00 01 F4 D0
16:37:50.969 设备发送:03 03 04 20 00 01 85 12
16:37:52.481 设备发送:03 03 04 20 00 01 85 12
16:37:54.012 设备发送:03 03 04 20 00 01 85 12
16:37:55.539 设备发送:03 03 04 05 00 01 94 D9
16:37:57.084 设备发送:03 03 04 05 00 01 94 D9
16:37:58.599 设备发送:03 03 04 05 00 01 94 D9
16:38:00.128 设备发送:01 03 04 84 00 04 05 10
16:38:01.647 设备发送:01 03 04 84 00 04 05 10
16:38:03.180 设备发送:01 03 04 84 00 04 05 10
16:38:04.710 设备发送:01 03 04 8D 00 21 14 C9
16:38:06.238 设备发送:01 03 04 8D 00 21 14 C9
16:38:07.738 设备发送:01 03 04 8D 00 21 14 C9
16:38:09.273 设备发送:01 03 06 84 00 04 04 A8
16:38:10.789 设备发送:01 03 06 84 00 04 04 A8
16:38:12.317 设备发送:01 03 06 84 00 04 04 A8
16:38:13.864 设备发送:01 03 04 04 00 01 C4 FB
16:38:15.392 设备发送:01 03 04 04 00 01 C4 FB
16:38:16.919 设备发送:01 03 04 04 00 01 C4 FB
16:38:18.442 设备发送:01 03 05 84 00 0F 45 2B
16:38:19.956 设备发送:01 03 05 84 00 0F 45 2B
16:38:21.505 设备发送:01 03 05 84 00 0F 45 2B
16:38:23.020 设备发送:01 03 05 93 00 0F F5 2F
16:38:24.520 设备发送:01 03 05 93 00 0F F5 2F
16:38:26.054 设备发送:01 03 05 93 00 0F F5 2F
16:38:27.586 设备发送:01 03 05 A2 00 0F A4 E0
16:38:29.100 设备发送:01 03 05 A2 00 0F A4 E0
16:38:30.640 设备发送:01 03 05 A2 00 0F A4 E0
16:38:32.152 设备发送:01 03 05 B1 00 03 55 20
16:38:33.697 设备发送:01 03 05 B1 00 03 55 20
16:38:35.200 设备发送:01 03 05 B1 00 03 55 20
16:38:36.730 设备发送:01 03 04 2B 00 01 F5 32
16:38:38.247 设备发送:01 03 04 2B 00 01 F5 32
16:38:39.775 设备发送:01 03 04 2B 00 01 F5 32
16:38:41.302 设备发送:01 03 04 20 00 01 84 F0
16:38:42.832 设备发送:01 03 04 20 00 01 84 F0
16:38:44.343 设备发送:01 03 04 20 00 01 84 F0
16:38:45.877 设备发送:01 03 04 05 00 01 95 3B
16:38:47.395 设备发送:01 03 04 05 00 01 95 3B
16:38:48.941 设备发送:01 03 04 05 00 01 95 3B
16:38:50.452 设备发送:02 03 04 84 00 04 05 23
16:38:51.966 设备发送:02 03 04 84 00 04 05 23
16:38:53.512 设备发送:02 03 04 84 00 04 05 23
16:38:55.039 设备发送:02 03 04 8D 00 21 14 FA
16:38:56.543 设备发送:02 03 04 8D 00 21 14 FA
16:38:58.073 设备发送:02 03 04 8D 00 21 14 FA
16:38:59.590 设备发送:02 03 06 84 00 04 04 9B
16:39:01.119 设备发送:02 03 06 84 00 04 04 9B
16:39:02.663 设备发送:02 03 06 84 00 04 04 9B
16:39:04.183 设备发送:02 03 04 04 00 01 C4 C8
16:39:05.718 设备发送:02 03 04 04 00 01 C4 C8
16:39:07.235 设备发送:02 03 04 04 00 01 C4 C8
16:39:08.766 设备发送:02 03 05 84 00 0F 45 18
16:39:10.297 设备发送:02 03 05 84 00 0F 45 18
16:39:11.799 设备发送:02 03 05 84 00 0F 45 18
16:39:13.343 设备发送:02 03 05 93 00 0F F5 1C
16:39:14.877 设备发送:02 03 05 93 00 0F F5 1C
16:39:16.393 设备发送:02 03 05 93 00 0F F5 1C
16:39:17.923 设备发送:02 03 05 A2 00 0F A4 D3
16:39:19.435 设备发送:02 03 05 A2 00 0F A4 D3
16:39:20.949 设备发送:02 03 05 A2 00 0F A4 D3
16:39:22.504 设备发送:02 03 05 B1 00 03 55 13
16:39:24.017 设备发送:02 03 05 B1 00 03 55 13
16:39:25.545 设备发送:02 03 05 B1 00 03 55 13
16:39:27.076 设备发送:02 03 04 2B 00 01 F5 01
16:39:28.593 设备发送:02 03 04 2B 00 01 F5 01
16:39:30.126 设备发送:02 03 04 2B 00 01 F5 01
16:39:31.663 设备发送:02 03 04 20 00 01 84 C3
16:39:33.195 设备发送:02 03 04 20 00 01 84 C3
16:39:34.707 设备发送:02 03 04 20 00 01 84 C3
16:39:36.220 设备发送:02 03 04 05 00 01 95 08
16:39:37.775 设备发送:02 03 04 05 00 01 95 08
16:39:39.285 设备发送:02 03 04 05 00 01 95 08
16:39:40.800 设备发送:03 03 04 84 00 04 04 F2
16:39:42.331 设备发送:03 03 04 84 00 04 04 F2
16:39:43.866 设备发送:03 03 04 84 00 04 04 F2
16:39:45.379 设备发送:03 03 04 8D 00 21 15 2B
16:39:46.937 设备发送:03 03 04 8D 00 21 15 2B
16:39:48.416 设备发送:03 03 04 8D 00 21 15 2B
16:39:49.981 设备发送:03 03 06 84 00 04 05 4A
16:39:51.491 设备发送:03 03 06 84 00 04 05 4A
16:39:53.005 设备发送:03 03 06 84 00 04 05 4A
16:39:54.532 设备发送:03 03 04 04 00 01 C5 19
16:39:56.073 设备发送:03 03 04 04 00 01 C5 19
16:39:57.589 设备发送:03 03 04 04 00 01 C5 19
16:39:59.116 设备发送:03 03 05 84 00 0F 44 C9
16:40:00.662 设备发送:03 03 05 84 00 0F 44 C9
16:40:02.177 设备发送:03 03 05 84 00 0F 44 C9
16:40:03.691 设备发送:03 03 05 93 00 0F F4 CD
16:40:05.232 设备发送:03 03 05 93 00 0F F4 CD
16:40:06.765 设备发送:03 03 05 93 00 0F F4 CD
16:40:08.311 设备发送:03 03 05 A2 00 0F A5 02
16:40:09.815 设备发送:03 03 05 A2 00 0F A5 02
16:40:11.362 设备发送:03 03 05 A2 00 0F A5 02
16:40:12.891 设备发送:03 03 05 B1 00 03 54 C2
16:40:14.421 设备发送:03 03 05 B1 00 03 54 C2
16:40:15.953 设备发送:03 03 05 B1 00 03 54 C2
16:40:17.463 设备发送:03 03 04 2B 00 01 F4 D0
16:40:18.992 设备发送:03 03 04 2B 00 01 F4 D0
16:40:20.489 设备发送:03 03 04 2B 00 01 F4 D0
16:40:22.019 设备发送:03 03 04 20 00 01 85 12
16:40:23.565 设备发送:03 03 04 20 00 01 85 12
16:40:25.080 设备发送:03 03 04 20 00 01 85 12
16:40:26.610 设备发送:03 03 04 05 00 01 94 D9
16:40:28.141 设备发送:03 03 04 05 00 01 94 D9
16:40:29.639 设备发送:03 03 04 05 00 01 94 D9
16:40:31.184 设备发送:01 03 04 84 00 04 05 10
16:40:32.701 设备发送:01 03 04 84 00 04 05 10
16:40:34.215 设备发送:01 03 04 84 00 04 05 10
16:40:35.765 设备发送:01 03 04 8D 00 21 14 C9
16:40:37.295 设备发送:01 03 04 8D 00 21 14 C9
16:40:38.795 设备发送:01 03 04 8D 00 21 14 C9
16:40:40.332 设备发送:01 03 06 84 00 04 04 A8
16:40:41.846 设备发送:01 03 06 84 00 04 04 A8
16:40:43.382 设备发送:01 03 06 84 00 04 04 A8
16:40:44.910 设备发送:01 03 04 04 00 01 C4 FB
16:40:46.407 设备发送:01 03 04 04 00 01 C4 FB
16:40:47.937 设备发送:01 03 04 04 00 01 C4 FB
16:41:57.73000
16:41:57.73400
16:41:57.79700
16:41:57.85800
16:41:57.92300
16:41:57.985 设备发送:01 03 04 05 00 01 95 3B
16:41:59.522 设备发送:02 03 04 84 00 04 05 23
16:42:01.028 设备发送:02 03 04 84 00 04 05 23
16:42:02.544 设备发送:02 03 04 84 00 04 05 23
16:42:04.112 设备发送:02 03 04 8D 00 21 14 FA
16:42:05.617 设备接收:02 03 42 08 D0 02 43 00 00 00 00 00 00 00 00 00 00 00 00 00 00 00 00 00 00 08 CB 02 3A 00 00 00 00 00 00 00 00 00 00 00 00 00 00 00 00 00 00 08 D5 02 64 00 00 00 00 00 00 00 00 00 00 00 00 00 00 00 00 00 00 5A D1
16:42:05.633 设备发送:02 03 06 84 00 04 04 9B
16:42:07.145 设备发送:02 03 06 84 00 04 04 9B
16:42:08.690 设备发送:02 03 06 84 00 04 04 9B
16:42:10.204 设备发送:02 03 04 04 00 01 C4 C8
16:42:11.734 设备发送:02 03 04 04 00 01 C4 C8
16:42:13.240 设备发送:02 03 04 04 00 01 C4 C8
16:42:14.782 设备发送:02 03 05 84 00 0F 45 18
16:42:16.264 设备接收:02 03 1E 1F 2C 00 24 00 1D 1F 4A 00 20 00 19 1F 5D 00 27 00 1F 1F 78 00 5B 00 49 1F A7 00 2A 00 22 88 66
16:42:16.311 设备发送:02 03 05 93 00 0F F5 1C
16:42:17.824 设备接收:02 03 1E 1F E1 00 20 00 1A 1E 8E 00 30 00 26 1F 0A 00 51 00 40 1F 24 00 2D 00 24 18 E7 00 37 00 23 14 BA
16:42:17.840 设备发送:02 03 05 A2 00 0F A4 D3
16:42:19.338 设备接收:02 03 1E 00 00 00 01 00 00 00 00 00 00 00 00 00 00 00 00 00 00 00 00 00 00 00 00 00 00 00 00 00 00 92 38
16:42:19.354 设备发送:02 03 05 B1 00 03 55 13
16:42:20.884 设备发送:02 03 05 B1 00 03 55 13
16:42:22.417 设备发送:02 03 05 B1 00 03 55 13
16:42:23.937 设备发送:02 03 04 2B 00 01 F5 01
16:42:25.464 设备发送:02 03 04 2B 00 01 F5 01
16:42:26.970 设备发送:02 03 04 2B 00 01 F5 01
16:42:28.500 设备发送:02 03 04 20 00 01 84 C3
16:42:30.035 设备发送:02 03 04 20 00 01 84 C3
16:42:31.564 设备发送:02 03 04 20 00 01 84 C3
16:42:33.094 设备发送:02 03 04 05 00 01 95 08
16:42:34.626 设备发送:02 03 04 05 00 01 95 08
16:42:36.137 设备发送:02 03 04 05 00 01 95 08
16:42:37.683 设备发送:03 03 04 84 00 04 04 F2
16:42:39.197 设备发送:03 03 04 84 00 04 04 F2
16:42:40.732 设备发送:03 03 04 84 00 04 04 F2
16:42:42.239 设备接收:03 03 08 13 88 01 A9 00 0C 01 A9 8B 5A
16:42:42.255 设备发送:03 03 04 8D 00 21 15 2B
16:42:43.755 设备接收:03 03 42 08 CC 02 BD 00 00 00 00 00 00 00 00 00 00 00 00 00 00 00 00 00 00 08 C9 02 BE 00 00 00 00 00 00 00 00 00 00 00 00 00 00 00 00 00 00 08 D4 02 ED 00 00 00 00 00 00 00 00 00 00 00 00 00 00 00 00 00 00 4C 9B
16:42:43.802 设备发送:03 03 06 84 00 04 05 4A
16:42:45.332 设备发送:03 03 06 84 00 04 05 4A
16:42:46.844 设备发送:03 03 06 84 00 04 05 4A
16:42:48.378 设备发送:03 03 04 04 00 01 C5 19
16:42:49.895 设备发送:03 03 04 04 00 01 C5 19
16:42:51.430 设备发送:03 03 04 04 00 01 C5 19
16:42:52.942 设备发送:03 03 05 84 00 0F 44 C9
16:42:54.451 设备接收:03 03 1E 1F 77 00 72 00 5B 1F 62 00 74 00 5D 1F D1 00 57 00 47 1F 54 00 5C 00 49 17 08 00 55 00 32 50 78
16:42:54.499 设备发送:03 03 05 93 00 0F F4 CD
16:42:55.982 设备接收:03 03 1E 05 8D 00 00 00 00 12 72 00 55 00 28 1C 2C 00 3C 00 2B 1B AA 00 40 00 2D 05 39 00 00 00 00 3C 0E
16:42:56.012 设备发送:03 03 05 A2 00 0F A5 02
16:42:57.497 设备接收:03 03 1E 00 0D 00 00 00 00 00 00 00 00 00 00 00 00 00 00 00 00 00 00 00 00 00 00 00 00 00 00 00 00 C1 72
16:42:57.546 设备发送:03 03 05 B1 00 03 54 C2
16:42:59.083 设备发送:03 03 05 B1 00 03 54 C2
16:43:00.614 设备发送:03 03 05 B1 00 03 54 C2
16:43:02.126 设备发送:03 03 04 2B 00 01 F4 D0
16:43:03.650 设备发送:03 03 04 2B 00 01 F4 D0
16:43:05.166 设备发送:03 03 04 2B 00 01 F4 D0
16:43:06.694 设备发送:03 03 04 20 00 01 85 12
16:43:08.227 设备发送:03 03 04 20 00 01 85 12
16:43:09.772 设备发送:03 03 04 20 00 01 85 12
16:43:11.296 设备发送:03 03 04 05 00 01 94 D9
16:43:12.828 设备发送:03 03 04 05 00 01 94 D9
16:43:14.342 设备发送:03 03 04 05 00 01 94 D9
16:43:15.863 设备发送:01 03 04 84 00 04 05 10
16:43:17.376 设备发送:01 03 04 84 00 04 05 10
16:43:18.910 设备发送:01 03 04 84 00 04 05 10
16:43:20.456 设备发送:01 03 04 8D 00 21 14 C9
16:43:21.939 设备接收:01 03 42 08 CF 02 48 00 00 00 00 00 00 00 00 00 00 00 00 00 00 00 00 00 00 08 C9 02 4E 00 00 00 00 00 00 00 00 00 00 00 00 00 00 00 00 00 00 08 D5 02 65 00 00 00 00 00 00 00 00 00 00 00 00 00 00 00 00 00 00 2E 28
16:43:21.986 设备发送:01 03 06 84 00 04 04 A8
16:43:23.515 设备发送:01 03 06 84 00 04 04 A8
16:43:25.060 设备发送:01 03 06 84 00 04 04 A8
16:43:26.589 设备发送:01 03 04 04 00 01 C4 FB
16:43:28.102 设备发送:01 03 04 04 00 01 C4 FB
16:43:29.631 设备发送:01 03 04 04 00 01 C4 FB
16:43:31.156 设备发送:01 03 05 84 00 0F 45 2B
16:43:32.652 设备接收:01 03 1E 1F 5A 00 5C 00 4A 1F 2E 00 4D 00 3E 1F 6A 00 45 00 38 1F E7 00 4D 00 3F 16 F9 00 28 00 17 C7 13
16:43:32.668 设备发送:01 03 05 93 00 0F F5 2F
16:43:34.183 设备接收:01 03 1E 00 00 00 00 00 00 1A A2 00 54 00 39 1C 56 00 26 00 1B 1C 95 00 29 00 1E 00 00 00 03 00 00 F3 77
16:43:34.198 设备发送:01 03 05 A2 00 0F A4 E0
16:43:35.714 设备接收:01 03 1E 00 00 00 00 00 00 00 00 00 00 00 00 00 00 00 00 00 00 00 00 00 00 00 00 00 00 00 00 00 00 D8 BA
16:43:35.730 设备发送:01 03 05 B1 00 03 55 20
16:43:37.261 设备发送:01 03 05 B1 00 03 55 20
16:43:38.788 设备发送:01 03 05 B1 00 03 55 20
16:43:40.320 设备发送:01 03 04 2B 00 01 F5 32
16:43:41.849 设备发送:01 03 04 2B 00 01 F5 32
16:43:43.361 设备发送:01 03 04 2B 00 01 F5 32
16:43:44.894 设备发送:01 03 04 20 00 01 84 F0
16:43:46.421 设备发送:01 03 04 20 00 01 84 F0
16:43:47.971 设备发送:01 03 04 20 00 01 84 F0
16:43:49.478 设备发送:01 03 04 05 00 01 95 3B
16:43:51.022 设备发送:01 03 04 05 00 01 95 3B
16:43:52.552 设备发送:01 03 04 05 00 01 95 3B
16:43:54.082 设备发送:02 03 04 84 00 04 05 23
16:43:55.602 设备发送:02 03 04 84 00 04 05 23
16:43:57.129 设备发送:02 03 04 84 00 04 05 23
16:43:58.636 设备发送:02 03 04 8D 00 21 14 FA
16:44:00.154 设备接收:02 03 42 08 CF 02 68 00 00 00 00 00 00 00 00 00 00 00 00 00 00 00 00 00 00 08 C9 02 51 00 00 00 00 00 00 00 00 00 00 00 00 00 00 00 00 00 00 08 D5 02 77 00 00 00 00 00 00 00 00 00 00 00 00 00 00 00 00 00 00 EC 23
16:44:00.170 设备发送:02 03 06 84 00 04 04 9B
16:44:01.711 设备发送:02 03 06 84 00 04 04 9B
16:44:03.246 设备发送:02 03 06 84 00 04 04 9B
16:44:04.777 设备发送:02 03 04 04 00 01 C4 C8
16:44:06.304 设备发送:02 03 04 04 00 01 C4 C8
16:44:07.806 设备发送:02 03 04 04 00 01 C4 C8
16:44:09.334 设备发送:02 03 05 84 00 0F 45 18
16:44:10.830 设备接收:02 03 1E 1F 2D 00 22 00 1B 20 32 00 18 00 14 1F 5C 00 24 00 1C 1F C6 00 52 00 43 1E A1 00 23 00 1B 28 7F
16:44:10.861 设备发送:02 03 05 93 00 0F F5 1C
16:44:12.394 设备接收:02 03 1E 1E 86 00 1E 00 17 1F D3 00 2D 00 24 1F B7 00 4B 00 3C 1F BA 00 2B 00 23 1B 67 00 30 00 21 FA AB
16:44:12.409 设备发送:02 03 05 A2 00 0F A4 D3
16:44:13.919 设备接收:02 03 1E 00 00 00 01 00 00 00 00 00 00 00 00 00 00 00 00 00 00 00 00 00 00 00 00 00 00 00 00 00 00 92 38
16:44:13.951 设备发送:02 03 05 B1 00 03 55 13
16:44:15.481 设备发送:02 03 05 B1 00 03 55 13
16:44:16.983 设备发送:02 03 05 B1 00 03 55 13
16:44:18.516 设备发送:02 03 04 2B 00 01 F5 01
16:44:20.044 设备发送:02 03 04 2B 00 01 F5 01
16:44:21.562 设备发送:02 03 04 2B 00 01 F5 01
16:44:23.098 设备发送:02 03 04 20 00 01 84 C3
16:44:24.599 设备发送:02 03 04 20 00 01 84 C3
16:44:26.162 设备发送:02 03 04 20 00 01 84 C3
16:44:27.692 设备发送:02 03 04 05 00 01 95 08
16:44:29.222 设备发送:02 03 04 05 00 01 95 08
16:44:30.729 设备发送:02 03 04 05 00 01 95 08
16:44:32.239 设备发送:03 03 04 84 00 04 04 F2
16:44:33.754 设备发送:03 03 04 84 00 04 04 F2
16:44:35.299 设备发送:03 03 04 84 00 04 04 F2
16:44:36.842 设备发送:03 03 04 8D 00 21 15 2B
16:44:38.336 设备接收:03 03 42 08 CC 02 7F 00 00 00 00 00 00 00 00 00 00 00 00 00 00 00 00 00 00 08 CB 02 80 00 00 00 00 00 00 00 00 00 00 00 00 00 00 00 00 00 00 08 D5 02 AF 00 00 00 00 00 00 00 00 00 00 00 00 00 00 00 00 00 00 6A 18
16:44:38.372 设备发送:03 03 06 84 00 04 05 4A
16:44:39.899 设备发送:03 03 06 84 00 04 05 4A
16:44:41.415 设备发送:03 03 06 84 00 04 05 4A
16:44:42.961 设备发送:03 03 04 04 00 01 C5 19
16:44:44.463 设备发送:03 03 04 04 00 01 C5 19
16:44:46.000 设备发送:03 03 04 04 00 01 C5 19
16:44:47.542 设备发送:03 03 05 84 00 0F 44 C9
16:44:49.057 设备接收:03 03 1E 1F C5 00 62 00 50 1F 13 00 69 00 53 1F 2E 00 51 00 41 1F 06 00 55 00 44 17 58 00 4D 00 2E 72 21
16:44:49.073 设备发送:03 03 05 93 00 0F F4 CD
16:44:50.551 设备接收:03 03 1E 05 61 00 00 00 00 12 22 00 50 00 25 1C 2C 00 35 00 26 1C 4B 00 38 00 29 05 2E 00 00 00 00 F1 16
16:44:50.598 设备发送:03 03 05 A2 00 0F A5 02
16:44:52.100 设备接收:03 03 1E 00 0D 00 00 00 00 00 00 00 00 00 00 00 00 00 00 00 00 00 00 00 00 00 00 00 00 00 00 00 00 C1 72
16:44:52.115 设备发送:03 03 05 B1 00 03 54 C2
16:44:53.656 设备发送:03 03 05 B1 00 03 54 C2
16:44:55.189 设备发送:03 03 05 B1 00 03 54 C2
16:44:56.711 设备发送:03 03 04 2B 00 01 F4 D0
16:44:58.226 设备发送:03 03 04 2B 00 01 F4 D0
16:44:59.771 设备发送:03 03 04 2B 00 01 F4 D0
16:45:01.279 设备发送:03 03 04 20 00 01 85 12
16:45:02.813 设备发送:03 03 04 20 00 01 85 12
16:45:04.341 设备发送:03 03 04 20 00 01 85 12
16:45:05.869 设备发送:03 03 04 05 00 01 94 D9
16:45:07.404 设备发送:03 03 04 05 00 01 94 D9
16:45:08.928 设备发送:03 03 04 05 00 01 94 D9
16:45:10.441 设备发送:01 03 04 84 00 04 05 10
16:45:11.972 设备发送:01 03 04 84 00 04 05 10
16:45:13.515 设备发送:01 03 04 84 00 04 05 10
16:45:15.030 设备发送:01 03 04 8D 00 21 14 C9
16:45:16.519 设备接收:01 03 42 08 D1 02 10 00 00 00 00 00 00 00 00 00 00 00 00 00 00 00 00 00 00 08 CE 02 21 00 00 00 00 00 00 00 00 00 00 00 00 00 00 00 00 00 00 08 D9 02 3F 00 00 00 00 00 00 00 00 00 00 00 00 00 00 00 00 00 00 CE 7A
16:45:16.554 设备发送:01 03 06 84 00 04 04 A8
16:45:18.100 设备发送:01 03 06 84 00 04 04 A8
16:45:19.614 设备发送:01 03 06 84 00 04 04 A8
16:45:21.132 设备发送:01 03 04 04 00 01 C4 FB
16:45:22.661 设备发送:01 03 04 04 00 01 C4 FB
16:45:24.196 设备发送:01 03 04 04 00 01 C4 FB
16:45:25.741 设备发送:01 03 05 84 00 0F 45 2B
16:45:27.228 设备接收:01 03 1E 1F 5A 00 53 00 43 1F 7C 00 46 00 38 1F 1D 00 41 00 34 1F 96 00 48 00 3A 16 A9 00 26 00 16 4D 49
16:45:27.244 设备发送:01 03 05 93 00 0F F5 2F
16:45:28.764 设备接收:01 03 1E 00 00 00 00 00 00 1A A2 00 4E 00 35 1B B6 00 23 00 19 1C 45 00 28 00 1D 00 00 00 05 00 00 14 8D
16:45:28.780 设备发送:01 03 05 A2 00 0F A4 E0
16:45:30.278 设备接收:01 03 1E 00 00 00 00 00 00 00 00 00 00 00 00 00 00 00 00 00 00 00 00 00 00 00 00 00 00 00 00 00 00 D8 BA
16:45:30.301 设备发送:01 03 05 B1 00 03 55 20
16:45:31.843 设备发送:01 03 05 B1 00 03 55 20
16:45:33.402 设备发送:01 03 05 B1 00 03 55 20
16:45:34.913 设备发送:01 03 04 2B 00 01 F5 32
16:45:36.415 设备发送:01 03 04 2B 00 01 F5 32
16:45:37.968 设备发送:01 03 04 2B 00 01 F5 32
16:45:39.472 设备发送:01 03 04 20 00 01 84 F0
16:45:41.002 设备发送:01 03 04 20 00 01 84 F0
16:45:42.530 设备发送:01 03 04 20 00 01 84 F0
16:45:44.061 设备发送:01 03 04 05 00 01 95 3B
16:45:45.574 设备发送:01 03 04 05 00 01 95 3B
16:45:47.116 设备发送:01 03 04 05 00 01 95 3B
16:45:48.645 设备发送:02 03 04 84 00 04 05 23
16:45:50.159 设备发送:02 03 04 84 00 04 05 23
16:45:51.670 设备发送:02 03 04 84 00 04 05 23
16:45:53.191 设备发送:02 03 04 8D 00 21 14 FA
16:45:54.719 设备发送:02 03 04 8D 00 21 14 FA
16:45:56.265 设备发送:02 03 04 8D 00 21 14 FA
16:45:57.778 设备发送:02 03 06 84 00 04 04 9B
16:45:59.322 设备发送:02 03 06 84 00 04 04 9B
16:46:00.834 设备发送:02 03 06 84 00 04 04 9B
16:46:02.364 设备发送:02 03 04 04 00 01 C4 C8
16:46:03.882 设备发送:02 03 04 04 00 01 C4 C8
16:46:05.415 设备发送:02 03 04 04 00 01 C4 C8
16:46:06.944 设备发送:02 03 05 84 00 0F 45 18
16:46:08.430 设备接收:02 03 1E 1F 7D 00 1D 00 17 1F 42 00 18 00 13 1F 5C 00 21 00 1B 1E D8 00 4D 00 3C 1F E1 00 1E 00 19 64 F0
16:46:08.477 设备发送:02 03 05 93 00 0F F5 1C
16:46:09.997 设备接收:02 03 1E 1E 86 00 1B 00 15 1F 82 00 2A 00 22 1F 66 00 47 00 39 20 09 00 25 00 1E 1D E6 00 29 00 1F 56 FB
16:46:10.012 设备发送:02 03 05 A2 00 0F A4 D3
16:46:11.501 设备接收:02 03 1E 00 00 00 03 00 00 00 00 00 00 00 00 00 00 00 00 00 00 00 00 00 00 00 00 00 00 00 00 00 00 6D 7D
16:46:11.533 设备发送:02 03 05 B1 00 03 55 13
16:46:13.049 设备发送:02 03 05 B1 00 03 55 13
16:46:14.580 设备发送:02 03 05 B1 00 03 55 13
16:46:16.112 设备发送:02 03 04 2B 00 01 F5 01
16:46:17.644 设备发送:02 03 04 2B 00 01 F5 01
16:46:19.171 设备发送:02 03 04 2B 00 01 F5 01
16:46:20.694 设备发送:02 03 04 20 00 01 84 C3
16:46:22.223 设备发送:02 03 04 20 00 01 84 C3
16:46:23.764 设备发送:02 03 04 20 00 01 84 C3
16:46:25.278 设备发送:02 03 04 05 00 01 95 08
16:46:26.824 设备发送:02 03 04 05 00 01 95 08
16:46:28.340 设备发送:02 03 04 05 00 01 95 08
16:46:29.849 设备发送:03 03 04 84 00 04 04 F2
16:46:31.393 设备发送:03 03 04 84 00 04 04 F2
16:46:32.894 设备发送:03 03 04 84 00 04 04 F2
16:46:34.430 设备发送:03 03 04 8D 00 21 15 2B
16:46:35.925 设备接收:03 03 42 08 CD 02 38 00 00 00 00 00 00 00 00 00 00 00 00 00 00 00 00 00 00 08 CC 02 46 00 00 00 00 00 00 00 00 00 00 00 00 00 00 00 00 00 00 08 D7 02 6A 00 00 00 00 00 00 00 00 00 00 00 00 00 00 00 00 00 00 A8 6F
16:46:35.988 设备发送:03 03 06 84 00 04 05 4A
16:46:37.504 设备发送:03 03 06 84 00 04 05 4A
16:46:39.017 设备发送:03 03 06 84 00 04 05 4A
16:46:40.548 设备发送:03 03 04 04 00 01 C5 19
16:46:42.060 设备发送:03 03 04 04 00 01 C5 19
16:46:43.37800
16:46:44.10300
16:46:44.10600
16:46:44.20500
16:46:44.28400
16:46:45.121 设备发送:03 03 05 84 00 0F 44 C9
16:46:46.601 设备接收:03 03 1E 1F C7 00 57 00 47 1F 12 00 5D 00 4A 1F 81 00 4A 00 3C 1E 66 00 4F 00 3D 17 09 00 47 00 2A 95 1A
16:46:46.632 设备发送:03 03 05 93 00 0F F4 CD
16:46:48.131 设备接收:03 03 1E 05 39 00 00 00 00 12 22 00 49 00 22 1C 2C 00 2E 00 21 1B 0A 00 33 00 23 05 2B 00 00 00 00 2E 82
16:46:48.178 设备发送:03 03 05 A2 00 0F A5 02
16:46:49.679 设备接收:03 03 1E 00 0D 00 00 00 00 00 00 00 00 00 00 00 00 00 00 00 00 00 00 00 00 00 00 00 00 00 00 00 00 C1 72
16:46:49.695 设备发送:03 03 05 B1 00 03 54 C2
16:46:51.239 设备发送:03 03 05 B1 00 03 54 C2
16:46:52.741 设备发送:03 03 05 B1 00 03 54 C2
16:46:54.291 设备发送:03 03 04 2B 00 01 F4 D0
16:46:55.794 设备发送:03 03 04 2B 00 01 F4 D0
16:46:57.341 设备发送:03 03 04 2B 00 01 F4 D0
16:46:58.851 设备发送:03 03 04 20 00 01 85 12
16:47:00.385 设备发送:03 03 04 20 00 01 85 12
16:47:01.909 设备发送:03 03 04 20 00 01 85 12
16:47:03.455 设备发送:03 03 04 05 00 01 94 D9
16:47:04.985 设备发送:03 03 04 05 00 01 94 D9
16:47:06.497 设备发送:03 03 04 05 00 01 94 D9
16:47:08.044 设备发送:01 03 04 84 00 04 05 10
16:47:09.566 设备发送:01 03 04 84 00 04 05 10
16:47:11.066 设备发送:01 03 04 84 00 04 05 10
16:47:12.609 设备发送:01 03 04 8D 00 21 14 C9
16:47:14.123 设备接收:01 03 42 08 D2 01 D4 00 00 00 00 00 00 00 00 00 00 00 00 00 00 00 00 00 00 08 CB 01 D9 00 00 00 00 00 00 00 00 00 00 00 00 00 00 00 00 00 00 08 D9 01 ED 00 00 00 00 00 00 00 00 00 00 00 00 00 00 00 00 00 00 67 68
16:47:14.139 设备发送:01 03 06 84 00 04 04 A8
16:47:15.700 设备发送:01 03 06 84 00 04 04 A8
16:47:17.197 设备发送:01 03 06 84 00 04 04 A8
16:47:18.711 设备发送:01 03 04 04 00 01 C4 FB
16:47:20.253 设备发送:01 03 04 04 00 01 C4 FB
16:47:21.781 设备发送:01 03 04 04 00 01 C4 FB
16:47:23.310 设备发送:01 03 05 84 00 0F 45 2B
16:47:24.808 设备接收:01 03 1E 1F 5A 00 49 00 3A 1E 8D 00 42 00 33 1F 1D 00 3B 00 2F 1E F6 00 41 00 34 17 49 00 21 00 14 74 E8
16:47:24.856 设备发送:01 03 05 93 00 0F F5 2F
16:47:26.348 设备接收:01 03 1E 00 00 00 00 00 00 1A 02 00 47 00 2F 1C 06 00 1F 00 16 1B F4 00 25 00 1A 00 00 00 03 00 00 A5 59
16:47:26.364 设备发送:01 03 05 A2 00 0F A4 E0
16:47:27.888 设备接收:01 03 1E 00 00 00 00 00 00 00 00 00 00 00 00 00 00 00 00 00 00 00 00 00 00 00 00 00 00 00 00 00 00 D8 BA
16:47:27.903 设备发送:01 03 05 B1 00 03 55 20
16:47:29.450 设备发送:01 03 05 B1 00 03 55 20
16:47:30.964 设备发送:01 03 05 B1 00 03 55 20
16:47:32.508 设备发送:01 03 04 2B 00 01 F5 32
16:47:34.005 设备发送:01 03 04 2B 00 01 F5 32
16:47:35.546 设备发送:01 03 04 2B 00 01 F5 32
16:47:37.057 设备发送:01 03 04 20 00 01 84 F0
16:47:38.609 设备发送:01 03 04 20 00 01 84 F0
16:47:40.143 设备发送:01 03 04 20 00 01 84 F0
16:47:41.660 设备发送:01 03 04 05 00 01 95 3B
16:47:43.171 设备发送:01 03 04 05 00 01 95 3B
16:47:44.700 设备发送:01 03 04 05 00 01 95 3B
16:47:46.251 设备发送:02 03 04 84 00 04 05 23
16:47:47.763 设备发送:02 03 04 84 00 04 05 23
16:47:49.282 设备发送:02 03 04 84 00 04 05 23
16:47:50.798 设备发送:02 03 04 8D 00 21 14 FA
16:47:52.311 设备接收:02 03 42 08 D1 01 F9 00 00 00 00 00 00 00 00 00 00 00 00 00 00 00 00 00 00 08 CA 01 DD 00 00 00 00 00 00 00 00 00 00 00 00 00 00 00 00 00 00 08 D8 02 0D 00 00 00 00 00 00 00 00 00 00 00 00 00 00 00 00 00 00 70 A1
16:47:52.342 设备发送:02 03 06 84 00 04 04 9B
16:47:53.861 设备发送:02 03 06 84 00 04 04 9B
16:47:55.388 设备发送:02 03 06 84 00 04 04 9B
16:47:56.935 设备发送:02 03 04 04 00 01 C4 C8
16:47:58.451 设备发送:02 03 04 04 00 01 C4 C8
16:47:59.968 设备发送:02 03 04 04 00 01 C4 C8
16:48:01.511 设备发送:02 03 05 84 00 0F 45 18
16:48:02.995 设备接收:02 03 1E 1E 8E 00 1C 00 16 1E 04 00 16 00 11 1F 5A 00 1D 00 17 1F 79 00 41 00 34 1E F2 00 1E 00 18 77 84
16:48:03.011 设备发送:02 03 05 93 00 0F F5 1C
16:48:04.541 设备接收:02 03 1E 1E D6 00 16 00 11 1F 83 00 26 00 1E 1E C6 00 40 00 32 1F 68 00 22 00 1B 1D E6 00 26 00 1D B9 E5
16:48:04.557 设备发送:02 03 05 A2 00 0F A4 D3
16:48:06.037 设备接收:02 03 1E 00 00 00 03 00 00 00 00 00 00 00 00 00 00 00 00 00 00 00 00 00 00 00 00 00 00 00 00 00 00 6D 7D
16:48:06.099 设备发送:02 03 05 B1 00 03 55 13
16:48:07.613 设备发送:02 03 05 B1 00 03 55 13
16:48:09.141 设备发送:02 03 05 B1 00 03 55 13
16:48:10.671 设备发送:02 03 04 2B 00 01 F5 01
16:48:12.174 设备发送:02 03 04 2B 00 01 F5 01
16:48:13.707 设备发送:02 03 04 2B 00 01 F5 01
16:48:15.213 设备接收:02 03 02 02 E2 7D 6D
16:48:15.228 设备发送:02 03 04 20 00 01 84 C3
16:48:16.729 设备发送:02 03 04 20 00 01 84 C3
16:48:18.257 设备发送:02 03 04 20 00 01 84 C3
16:48:19.806 设备发送:02 03 04 05 00 01 95 08
16:48:21.307 设备发送:02 03 04 05 00 01 95 08
16:48:22.839 设备发送:02 03 04 05 00 01 95 08
16:48:24.375 设备发送:03 03 04 84 00 04 04 F2
16:48:25.879 设备发送:03 03 04 84 00 04 04 F2
16:48:27.403 设备发送:03 03 04 84 00 04 04 F2
16:48:28.950 设备发送:03 03 04 8D 00 21 15 2B
16:48:30.465 设备接收:03 03 42 08 CE 02 09 00 00 00 00 00 00 00 00 00 00 00 00 00 00 00 00 00 00 08 CA 02 0A 00 00 00 00 00 00 00 00 00 00 00 00 00 00 00 00 00 00 08 D6 02 30 00 00 00 00 00 00 00 00 00 00 00 00 00 00 00 00 00 00 D9 CE
16:48:30.497 设备发送:03 03 06 84 00 04 05 4A
16:48:32.012 设备发送:03 03 06 84 00 04 05 4A
16:48:33.541 设备发送:03 03 06 84 00 04 05 4A
16:48:35.076 设备发送:03 03 04 04 00 01 C5 19
16:48:36.596 设备发送:03 03 04 04 00 01 C5 19
16:48:38.142 设备发送:03 03 04 04 00 01 C5 19
16:48:39.668 设备发送:03 03 05 84 00 0F 44 C9
16:48:41.184 设备接收:03 03 1E 1F 26 00 50 00 3F 1F 62 00 4F 00 3F 1E 41 00 45 00 35 1E B2 00 45 00 36 17 09 00 43 00 27 C7 57
16:48:41.200 设备发送:03 03 05 93 00 0F F4 CD
16:48:42.729 设备接收:03 03 1E 05 44 00 00 00 00 11 82 00 45 00 1E 1B 8C 00 28 00 1C 1B AB 00 2E 00 20 05 24 00 00 00 00 81 80
16:48:42.744 设备发送:03 03 05 A2 00 0F A5 02
16:48:44.251 设备接收:03 03 1E 00 0D 00 00 00 00 00 00 00 00 00 00 00 00 00 00 00 00 00 00 00 00 00 00 00 00 00 00 00 00 C1 72
16:48:44.267 设备发送:03 03 05 B1 00 03 54 C2
16:48:45.775 设备发送:03 03 05 B1 00 03 54 C2
16:48:47.318 设备发送:03 03 05 B1 00 03 54 C2
16:48:48.846 设备发送:03 03 04 2B 00 01 F4 D0
16:48:50.377 设备发送:03 03 04 2B 00 01 F4 D0
16:48:51.904 设备发送:03 03 04 2B 00 01 F4 D0
16:48:53.417 设备发送:03 03 04 20 00 01 85 12
16:48:54.960 设备发送:03 03 04 20 00 01 85 12
16:48:56.489 设备发送:03 03 04 20 00 01 85 12
16:48:58.015 设备发送:03 03 04 05 00 01 94 D9
16:48:59.531 设备发送:03 03 04 05 00 01 94 D9
16:49:01.061 设备发送:03 03 04 05 00 01 94 D9
16:49:02.577 设备发送:01 03 04 84 00 04 05 10
16:49:04.106 设备发送:01 03 04 84 00 04 05 10
16:49:05.639 设备发送:01 03 04 84 00 04 05 10
16:49:07.172 设备发送:01 03 04 8D 00 21 14 C9
16:49:08.685 设备接收:01 03 42 08 CF 02 21 00 00 00 00 00 00 00 00 00 00 00 00 00 00 00 00 00 00 08 C9 02 21 00 00 00 00 00 00 00 00 00 00 00 00 00 00 00 00 00 00 08 D5 02 32 00 00 00 00 00 00 00 00 00 00 00 00 00 00 00 00 00 00 38 F0
16:49:08.717 设备发送:01 03 06 84 00 04 04 A8
16:49:10.251 设备发送:01 03 06 84 00 04 04 A8
16:49:11.764 设备发送:01 03 06 84 00 04 04 A8
16:49:13.266 设备发送:01 03 04 04 00 01 C4 FB
16:49:14.798 设备发送:01 03 04 04 00 01 C4 FB
16:49:16.348 设备发送:01 03 04 04 00 01 C4 FB
16:49:17.858 设备发送:01 03 05 84 00 0F 45 2B
16:49:19.346 设备接收:01 03 1E 1E 6A 00 42 00 33 1E 3C 00 3A 00 2D 1E 7C 00 36 00 2A 1E 55 00 3C 00 2E 16 FA 00 1F 00 12 5C 67
16:49:19.409 设备发送:01 03 05 93 00 0F F5 2F
16:49:20.892 设备接收:01 03 1E 00 00 00 00 00 00 1A 03 00 41 00 2B 1B B7 00 1A 00 13 1B A6 00 23 00 19 00 00 00 03 00 00 B1 8E
16:49:20.907 设备发送:01 03 05 A2 00 0F A4 E0
16:49:22.441 设备接收:01 03 1E 00 00 00 00 00 00 00 00 00 00 00 00 00 00 00 00 00 00 00 00 00 00 00 00 00 00 00 00 00 00 D8 BA
16:49:22.457 设备发送:01 03 05 B1 00 03 55 20
16:49:23.964 设备发送:01 03 05 B1 00 03 55 20
16:49:25.494 设备发送:01 03 05 B1 00 03 55 20
16:49:27.031 设备发送:01 03 04 2B 00 01 F5 32
16:49:28.564 设备发送:01 03 04 2B 00 01 F5 32
16:49:30.081 设备发送:01 03 04 2B 00 01 F5 32
16:49:31.611 设备发送:01 03 04 20 00 01 84 F0
16:49:33.111 设备发送:01 03 04 20 00 01 84 F0
16:49:34.659 设备发送:01 03 04 20 00 01 84 F0
16:49:36.174 设备发送:01 03 04 05 00 01 95 3B
16:49:37.703 设备发送:01 03 04 05 00 01 95 3B
16:49:39.217 设备发送:01 03 04 05 00 01 95 3B
16:49:40.765 设备发送:02 03 04 84 00 04 05 23
16:49:42.279 设备发送:02 03 04 84 00 04 05 23
16:49:43.778 设备发送:02 03 04 84 00 04 05 23
16:49:45.324 设备发送:02 03 04 8D 00 21 14 FA
16:49:46.807 设备接收:02 03 42 08 CE 01 E8 00 00 00 00 00 00 00 00 00 00 00 00 00 00 00 00 00 00 08 C9 01 D3 00 00 00 00 00 00 00 00 00 00 00 00 00 00 00 00 00 00 08 D4 02 06 00 00 00 00 00 00 00 00 00 00 00 00 00 00 00 00 00 00 36 1A
16:49:46.869 设备发送:02 03 06 84 00 04 04 9B
16:49:48.399 设备发送:02 03 06 84 00 04 04 9B
16:49:49.901 设备发送:02 03 06 84 00 04 04 9B
16:49:51.433 设备发送:02 03 04 04 00 01 C4 C8
16:49:52.947 设备发送:02 03 04 04 00 01 C4 C8
16:49:54.490 设备发送:02 03 04 04 00 01 C4 C8
16:49:56.007 设备发送:02 03 05 84 00 0F 45 18
16:49:57.510 设备接收:02 03 1E 1E 3D 00 19 00 13 1E 02 00 12 00 0D 1E 6E 00 1D 00 17 1E 88 00 3D 00 30 1E A2 00 1B 00 15 96 CF
16:49:57.525 设备发送:02 03 05 93 00 0F F5 1C
16:49:59.039 设备接收:02 03 1E 1F 77 00 12 00 0F 1E E1 00 23 00 1C 1E C5 00 39 00 2D 1F B9 00 1F 00 19 1E 87 00 22 00 1B 5C 9F
16:49:59.055 设备发送:02 03 05 A2 00 0F A4 D3
16:50:00.554 设备接收:02 03 1E 00 00 00 03 00 00 00 00 00 00 00 00 00 00 00 00 00 00 00 00 00 00 00 00 00 00 00 00 00 00 6D 7D
16:50:00.569 设备发送:02 03 05 B1 00 03 55 13
16:50:02.102 设备发送:02 03 05 B1 00 03 55 13
16:50:03.632 设备发送:02 03 05 B1 00 03 55 13
16:50:05.161 设备发送:02 03 04 2B 00 01 F5 01
16:50:06.708 设备发送:02 03 04 2B 00 01 F5 01
16:50:08.227 设备发送:02 03 04 2B 00 01 F5 01
16:50:09.758 设备发送:02 03 04 20 00 01 84 C3
16:50:11.268 设备发送:02 03 04 20 00 01 84 C3
16:50:12.801 设备发送:02 03 04 20 00 01 84 C3
16:50:14.320 设备发送:02 03 04 05 00 01 95 08
16:50:15.866 设备发送:02 03 04 05 00 01 95 08
16:50:17.353 设备发送:02 03 04 05 00 01 95 08
16:50:18.877 设备发送:03 03 04 84 00 04 04 F2
16:50:20.439 设备发送:03 03 04 84 00 04 04 F2
16:50:21.943 设备发送:03 03 04 84 00 04 04 F2
16:50:23.460 设备发送:03 03 04 8D 00 21 15 2B
16:50:24.998 设备接收:03 03 42 08 CF 01 EC 00 00 00 00 00 00 00 00 00 00 00 00 00 00 00 00 00 00 08 CE 01 E8 00 00 00 00 00 00 00 00 00 00 00 00 00 00 00 00 00 00 08 D8 02 0D 00 00 00 00 00 00 00 00 00 00 00 00 00 00 00 00 00 00 AB 69
16:50:25.014 设备发送:03 03 06 84 00 04 05 4A
16:50:26.527 设备发送:03 03 06 84 00 04 05 4A
16:50:28.086 设备发送:03 03 06 84 00 04 05 4A
16:50:29.626 设备发送:03 03 04 04 00 01 C5 19
16:50:31.129 设备发送:03 03 04 04 00 01 C5 19
16:50:32.658 设备发送:03 03 04 04 00 01 C5 19
16:50:34.191 设备发送:03 03 05 84 00 0F 44 C9
16:50:35.689 设备接收:03 03 1E 1F 27 00 47 00 38 1E C1 00 47 00 38 1E 42 00 3E 00 30 1E B4 00 3E 00 31 17 08 00 38 00 21 1F 5F
16:50:35.721 设备发送:03 03 05 93 00 0F F4 CD
16:50:37.204 设备接收:03 03 1E 05 38 00 00 00 00 12 72 00 38 00 1A 1B 3C 00 24 00 19 1A BB 00 2A 00 1D 05 1A 00 00 00 00 13 5A
16:50:37.266 设备发送:03 03 05 A2 00 0F A5 02
16:50:38.748 设备接收:03 03 1E 00 0D 00 00 00 00 00 00 00 00 00 00 00 00 00 00 00 00 00 00 00 00 00 00 00 00 00 00 00 00 C1 72
16:50:38.763 设备发送:03 03 05 B1 00 03 54 C2
16:50:40.308 设备发送:03 03 05 B1 00 03 54 C2
16:50:41.809 设备发送:03 03 05 B1 00 03 54 C2
16:50:43.367 设备发送:03 03 04 2B 00 01 F4 D0
16:50:44.864 设备发送:03 03 04 2B 00 01 F4 D0
16:50:46.412 设备发送:03 03 04 2B 00 01 F4 D0
16:50:47.913 设备发送:03 03 04 20 00 01 85 12
16:50:49.444 设备发送:03 03 04 20 00 01 85 12
16:50:50.986 设备发送:03 03 04 20 00 01 85 12
16:50:52.519 设备发送:03 03 04 05 00 01 94 D9
16:50:54.050 设备发送:03 03 04 05 00 01 94 D9
16:50:55.578 设备发送:03 03 04 05 00 01 94 D9
16:50:57.096 设备发送:01 03 04 84 00 04 05 10
16:50:58.608 设备发送:01 03 04 84 00 04 05 10
16:51:00.137 设备发送:01 03 04 84 00 04 05 10
16:51:01.685 设备发送:01 03 04 8D 00 21 14 C9
16:51:03.157 设备接收:01 03 42 08 D1 02 3C 00 00 00 00 00 00 00 00 00 00 00 00 00 00 00 00 00 00 08 CB 02 36 00 00 00 00 00 00 00 00 00 00 00 00 00 00 00 00 00 00 08 D7 02 3D 00 00 00 00 00 00 00 00 00 00 00 00 00 00 00 00 00 00 C7 42
16:51:03.203 设备发送:01 03 06 84 00 04 04 A8
16:51:04.737 设备发送:01 03 06 84 00 04 04 A8
16:51:06.252 设备发送:01 03 06 84 00 04 04 A8
16:51:07.797 设备发送:01 03 04 04 00 01 C4 FB
16:51:09.328 设备发送:01 03 04 04 00 01 C4 FB
16:51:10.830 设备发送:01 03 04 04 00 01 C4 FB
16:51:12.345 设备发送:01 03 05 84 00 0F 45 2B
16:51:13.890 设备接收:01 03 1E 1E BA 00 3C 00 2F 1E 3E 00 36 00 29 1E 2D 00 2F 00 24 1E 55 00 34 00 28 16 A9 00 1C 00 10 04 8A
16:51:13.906 设备发送:01 03 05 93 00 0F F5 2F
16:51:15.406 设备接收:01 03 1E 00 00 00 00 00 00 1A 03 00 3A 00 27 1A 26 00 19 00 10 1B 54 00 1E 00 15 00 00 00 02 00 00 D0 FA
16:51:15.422 设备发送:01 03 05 A2 00 0F A4 E0
16:51:16.934 设备接收:01 03 1E 00 00 00 00 00 00 00 00 00 00 00 00 00 00 00 00 00 00 00 00 00 00 00 00 00 00 00 00 00 00 D8 BA
16:51:16.950 设备发送:01 03 05 B1 00 03 55 20
16:51:18.495 设备发送:01 03 05 B1 00 03 55 20
16:51:19.999 设备发送:01 03 05 B1 00 03 55 20
16:51:21.513 设备发送:01 03 04 2B 00 01 F5 32
16:51:23.059 设备发送:01 03 04 2B 00 01 F5 32
16:51:24.579 设备发送:01 03 04 2B 00 01 F5 32
16:51:26.111 设备发送:01 03 04 20 00 01 84 F0
16:51:27.630 设备发送:01 03 04 20 00 01 84 F0
16:51:29.167 设备发送:01 03 04 20 00 01 84 F0
16:51:30.690 设备发送:01 03 04 05 00 01 95 3B
16:51:32.202 设备发送:01 03 04 05 00 01 95 3B
16:51:33.734 设备发送:01 03 04 05 00 01 95 3B
16:51:35.281 设备发送:02 03 04 84 00 04 05 23
16:51:36.803 设备发送:02 03 04 84 00 04 05 23
16:51:38.299 设备发送:02 03 04 84 00 04 05 23
16:51:39.843 设备发送:02 03 04 8D 00 21 14 FA
16:51:41.353 设备接收:02 03 42 08 D2 01 E2 00 00 00 00 00 00 00 00 00 00 00 00 00 00 00 00 00 00 08 CB 01 CC 00 00 00 00 00 00 00 00 00 00 00 00 00 00 00 00 00 00 08 D7 01 F0 00 00 00 00 00 00 00 00 00 00 00 00 00 00 00 00 00 00 B3 4F
16:51:41.385 设备发送:02 03 06 84 00 04 04 9B
16:51:42.929 设备发送:02 03 06 84 00 04 04 9B
16:51:44.460 设备发送:02 03 06 84 00 04 04 9B
16:51:45.990 设备发送:02 03 04 04 00 01 C4 C8
16:51:47.522 设备发送:02 03 04 04 00 01 C4 C8
16:51:49.058 设备发送:02 03 04 04 00 01 C4 C8
16:51:50.568 设备发送:02 03 05 84 00 0F 45 18
16:51:52.089 设备接收:02 03 1E 1E 3C 00 15 00 10 1E F2 00 0F 00 0C 1E BE 00 1A 00 14 1E D8 00 35 00 2A 1E 02 00 17 00 12 93 89
16:51:52.104 设备发送:02 03 05 93 00 0F F5 1C
16:51:53.601 设备接收:02 03 1E 1E 37 00 12 00 0E 1E E3 00 1F 00 18 1E C5 00 33 00 28 1E C8 00 1C 00 16 1D 96 00 20 00 18 BB CD
16:51:53.647 设备发送:02 03 05 A2 00 0F A4 D3
16:51:55.147 设备接收:02 03 1E 00 00 00 03 00 00 00 00 00 00 00 00 00 00 00 00 00 00 00 00 00 00 00 00 00 00 00 00 00 00 6D 7D
16:51:55.162 设备发送:02 03 05 B1 00 03 55 13
16:51:56.674 设备发送:02 03 05 B1 00 03 55 13
16:51:58.208 设备发送:02 03 05 B1 00 03 55 13
16:51:59.759 设备发送:02 03 04 2B 00 01 F5 01
16:52:01.261 设备发送:02 03 04 2B 00 01 F5 01
16:52:02.803 设备发送:02 03 04 2B 00 01 F5 01
16:52:04.332 设备发送:02 03 04 20 00 01 84 C3
16:52:05.851 设备发送:02 03 04 20 00 01 84 C3
16:52:07.379 设备发送:02 03 04 20 00 01 84 C3
16:52:08.894 设备发送:02 03 04 05 00 01 95 08
16:52:10.436 设备发送:02 03 04 05 00 01 95 08
16:52:11.972 设备发送:02 03 04 05 00 01 95 08
16:52:13.489 设备发送:03 03 04 84 00 04 04 F2
16:52:15.032 设备发送:03 03 04 84 00 04 04 F2
16:52:16.548 设备发送:03 03 04 84 00 04 04 F2
16:52:18.097 设备发送:03 03 04 8D 00 21 15 2B
16:52:19.579 设备接收:03 03 42 08 CC 01 E7 00 00 00 00 00 00 00 00 00 00 00 00 00 00 00 00 00 00 08 CA 01 D8 00 00 00 00 00 00 00 00 00 00 00 00 00 00 00 00 00 00 08 D5 01 FD 00 00 00 00 00 00 00 00 00 00 00 00 00 00 00 00 00 00 6F D7
16:52:19.615 设备发送:03 03 06 84 00 04 05 4A
16:52:21.174 设备发送:03 03 06 84 00 04 05 4A
16:52:22.660 设备发送:03 03 06 84 00 04 05 4A
16:52:24.211 设备发送:03 03 04 04 00 01 C5 19
16:52:25.743 设备发送:03 03 04 04 00 01 C5 19
16:52:27.276 设备发送:03 03 04 04 00 01 C5 19
16:52:28.771 设备发送:03 03 05 84 00 0F 44 C9
16:52:30.316 设备接收:03 03 1E 1E D6 00 3C 00 2F 1E C2 00 3E 00 31 1F 31 00 37 00 2C 1E 15 00 3A 00 2D 16 B8 00 33 00 1E B2 23
16:52:30.332 设备发送:03 03 05 93 00 0F F4 CD
16:52:31.817 设备接收:03 03 1E 05 17 00 00 00 00 11 D2 00 38 00 19 1B 3B 00 1E 00 15 1A BC 00 24 00 18 05 12 00 00 00 00 FA 96
16:52:31.863 设备发送:03 03 05 A2 00 0F A5 02
16:52:33.361 设备接收:03 03 1E 00 0E 00 00 00 00 00 00 00 00 00 00 00 00 00 00 00 00 00 00 00 00 00 00 00 00 00 00 00 00 81 70
16:52:33.377 设备发送:03 03 05 B1 00 03 54 C2
16:52:34.908 设备发送:03 03 05 B1 00 03 54 C2
16:52:36.410 设备发送:03 03 05 B1 00 03 54 C2
16:52:37.960 设备发送:03 03 04 2B 00 01 F4 D0
16:52:39.477 设备发送:03 03 04 2B 00 01 F4 D0
16:52:40.992 设备发送:03 03 04 2B 00 01 F4 D0
16:52:42.536 设备发送:03 03 04 20 00 01 85 12
16:52:44.032 设备发送:03 03 04 20 00 01 85 12
16:52:45.575 设备发送:03 03 04 20 00 01 85 12
16:52:47.101 设备发送:03 03 04 05 00 01 94 D9
16:52:48.634 设备发送:03 03 04 05 00 01 94 D9
16:52:50.151 设备发送:03 03 04 05 00 01 94 D9
16:52:51.671 设备发送:01 03 04 84 00 04 05 10
16:52:53.204 设备发送:01 03 04 84 00 04 05 10
16:52:54.732 设备发送:01 03 04 84 00 04 05 10
16:52:56.272 设备发送:01 03 04 8D 00 21 14 C9
16:52:57.753 设备接收:01 03 42 08 D1 01 EA 00 00 00 00 00 00 00 00 00 00 00 00 00 00 00 00 00 00 08 CB 01 E3 00 00 00 00 00 00 00 00 00 00 00 00 00 00 00 00 00 00 08 D9 01 F1 00 00 00 00 00 00 00 00 00 00 00 00 00 00 00 00 00 00 D8 E7
16:52:57.832 设备发送:01 03 06 84 00 04 04 A8
16:52:59.335 设备发送:01 03 06 84 00 04 04 A8
16:53:00.879 设备发送:01 03 06 84 00 04 04 A8
16:53:02.397 设备发送:01 03 04 04 00 01 C4 FB
16:53:03.930 设备发送:01 03 04 04 00 01 C4 FB
16:53:05.432 设备发送:01 03 04 04 00 01 C4 FB
16:53:06.968 设备发送:01 03 05 84 00 0F 45 2B
16:53:08.488 设备接收:01 03 1E 1E BA 00 34 00 29 1D 4D 00 30 00 24 1D DC 00 29 00 1F 1F 45 00 2E 00 24 16 59 00 19 00 0E A0 5C
16:53:08.503 设备发送:01 03 05 93 00 0F F5 2F
16:53:10.014 设备接收:01 03 1E 00 00 00 00 00 00 1A 02 00 32 00 21 1B 16 00 17 00 0F 1B 04 00 1C 00 13 00 00 00 03 00 00 D2 6F
16:53:10.030 设备发送:01 03 05 A2 00 0F A4 E0
16:53:11.561 设备接收:01 03 1E 00 00 00 00 00 00 00 00 00 00 00 00 00 00 00 00 00 00 00 00 00 00 00 00 00 00 00 00 00 00 D8 BA
16:53:11.593 设备发送:01 03 05 B1 00 03 55 20
16:53:13.094 设备发送:01 03 05 B1 00 03 55 20
16:53:14.623 设备发送:01 03 05 B1 00 03 55 20
16:53:16.141 设备发送:01 03 04 2B 00 01 F5 32
16:53:17.660 设备发送:01 03 04 2B 00 01 F5 32
16:53:19.190 设备发送:01 03 04 2B 00 01 F5 32
16:53:20.702 设备发送:01 03 04 20 00 01 84 F0
16:53:22.215 设备接收:01 03 02 00 32 39 91
16:53:22.237 设备发送:01 03 04 05 00 01 95 3B
16:53:23.743 设备发送:01 03 04 05 00 01 95 3B
16:53:25.277 设备发送:01 03 04 05 00 01 95 3B
16:53:26.810 设备发送:02 03 04 84 00 04 05 23
16:53:28.309 设备发送:02 03 04 84 00 04 05 23
16:53:29.851 设备发送:02 03 04 84 00 04 05 23
16:53:31.382 设备发送:02 03 04 8D 00 21 14 FA
16:53:32.856 设备接收:02 03 42 08 D0 01 D9 00 00 00 00 00 00 00 00 00 00 00 00 00 00 00 00 00 00 08 CB 01 BD 00 00 00 00 00 00 00 00 00 00 00 00 00 00 00 00 00 00 08 D7 01 E5 00 00 00 00 00 00 00 00 00 00 00 00 00 00 00 00 00 00 33 62
16:53:32.920 设备发送:02 03 06 84 00 04 04 9B
16:53:34.432 设备发送:02 03 06 84 00 04 04 9B
16:53:35.975 设备发送:02 03 06 84 00 04 04 9B
16:53:37.511 设备发送:02 03 04 04 00 01 C4 C8
16:53:39.013 设备发送:02 03 04 04 00 01 C4 C8
16:53:40.566 设备发送:02 03 04 04 00 01 C4 C8
16:53:42.094 设备发送:02 03 05 84 00 0F 45 18
16:53:43.607 设备接收:02 03 1E 1E 8D 00 14 00 10 1E F1 00 0C 00 0A 1E 6E 00 18 00 12 1E 37 00 30 00 25 1E 51 00 14 00 10 C6 E4
16:53:43.629 设备发送:02 03 05 93 00 0F F5 1C
16:53:45.137 设备接收:02 03 1E 1D 46 00 0F 00 0B 1E 91 00 1E 00 17 1E 74 00 2E 00 24 1E 78 00 1A 00 14 1E 86 00 1A 00 14 92 36
16:53:45.160 设备发送:02 03 05 A2 00 0F A4 D3
16:53:46.671 设备接收:02 03 1E 00 00 00 03 00 00 00 00 00 00 00 00 00 00 00 00 00 00 00 00 00 00 00 00 00 00 00 00 00 00 6D 7D
16:53:46.686 设备发送:02 03 05 B1 00 03 55 13
16:53:48.200 设备发送:02 03 05 B1 00 03 55 13
16:53:49.748 设备发送:02 03 05 B1 00 03 55 13
16:53:51.269 设备发送:02 03 04 2B 00 01 F5 01
16:53:52.797 设备发送:02 03 04 2B 00 01 F5 01
16:53:54.312 设备发送:02 03 04 2B 00 01 F5 01
16:53:55.868 设备发送:02 03 04 20 00 01 84 C3
16:53:57.368 设备发送:02 03 04 20 00 01 84 C3
16:53:58.883 设备发送:02 03 04 20 00 01 84 C3
16:54:00.426 设备发送:02 03 04 05 00 01 95 08
16:54:01.944 设备发送:02 03 04 05 00 01 95 08
16:54:03.462 设备发送:02 03 04 05 00 01 95 08
16:54:04.996 设备发送:03 03 04 84 00 04 04 F2
16:54:06.500 设备发送:03 03 04 84 00 04 04 F2
16:54:08.035 设备发送:03 03 04 84 00 04 04 F2
16:54:09.565 设备发送:03 03 04 8D 00 21 15 2B
16:54:11.075 设备接收:03 03 42 08 CB 01 F4 00 00 00 00 00 00 00 00 00 00 00 00 00 00 00 00 00 00 08 C9 01 E2 00 00 00 00 00 00 00 00 00 00 00 00 00 00 00 00 00 00 08 D6 01 F9 00 00 00 00 00 00 00 00 00 00 00 00 00 00 00 00 00 00 2C C0
16:54:11.091 设备发送:03 03 06 84 00 04 05 4A
16:54:12.624 设备发送:03 03 06 84 00 04 05 4A
16:54:14.156 设备发送:03 03 06 84 00 04 05 4A
16:54:15.657 设备发送:03 03 04 04 00 01 C5 19
16:54:17.205 设备发送:03 03 04 04 00 01 C5 19
16:54:18.736 设备发送:03 03 04 04 00 01 C5 19
16:54:20.255 设备发送:03 03 05 84 00 0F 44 C9
16:54:21.784 设备接收:03 03 1E 1F 26 00 31 00 27 1E 23 00 37 00 2A 1E 90 00 31 00 26 1D C6 00 34 00 28 16 67 00 2E 00 1A 4E CF
16:54:21.799 设备发送:03 03 05 93 00 0F F4 CD
16:54:23.314 设备接收:03 03 1E 05 07 00 00 00 00 11 82 00 32 00 16 1A EC 00 1B 00 13 1B 0B 00 1D 00 14 05 0A 00 00 00 00 EF DD
16:54:23.330 设备发送:03 03 05 A2 00 0F A5 02
16:54:24.838 设备接收:03 03 1E 00 0E 00 00 00 00 00 00 00 00 00 00 00 00 00 00 00 00 00 00 00 00 00 00 00 00 00 00 00 00 81 70
16:54:24.853 设备发送:03 03 05 B1 00 03 54 C2
16:54:26.363 设备发送:03 03 05 B1 00 03 54 C2
16:54:27.895 设备发送:03 03 05 B1 00 03 54 C2
16:54:29.447 设备发送:03 03 04 2B 00 01 F4 D0
16:54:30.960 设备发送:03 03 04 2B 00 01 F4 D0
16:54:32.461 设备发送:03 03 04 2B 00 01 F4 D0
16:54:33.989 设备发送:03 03 04 20 00 01 85 12
16:54:35.521 设备发送:03 03 04 20 00 01 85 12
16:54:37.052 设备发送:03 03 04 20 00 01 85 12
16:54:38.574 设备发送:03 03 04 05 00 01 94 D9
16:54:40.108 设备发送:03 03 04 05 00 01 94 D9
16:54:41.655 设备发送:03 03 04 05 00 01 94 D9
16:54:43.158 设备发送:01 03 04 84 00 04 05 10
16:54:44.659 设备发送:01 03 04 84 00 04 05 10
16:54:46.203 设备发送:01 03 04 84 00 04 05 10
16:54:47.733 设备发送:01 03 04 8D 00 21 14 C9
16:54:49.238 设备接收:01 03 42 08 D1 01 B6 00 00 00 00 00 00 00 00 00 00 00 00 00 00 00 00 00 00 08 CC 01 AD 00 00 00 00 00 00 00 00 00 00 00 00 00 00 00 00 00 00 08 D7 01 C0 00 00 00 00 00 00 00 00 00 00 00 00 00 00 00 00 00 00 DD C4
16:54:49.268 设备发送:01 03 06 84 00 04 04 A8
16:54:50.801 设备发送:01 03 06 84 00 04 04 A8
16:54:52.333 设备发送:01 03 06 84 00 04 04 A8
16:54:53.878 设备发送:01 03 04 04 00 01 C4 FB
16:54:55.385 设备发送:01 03 04 04 00 01 C4 FB
16:54:56.942 设备发送:01 03 04 04 00 01 C4 FB
16:54:58.458 设备发送:01 03 05 84 00 0F 45 2B
16:54:59.974 设备接收:01 03 1E 1E 1B 00 2F 00 24 1E DE 00 28 00 1F 1D DD 00 25 00 1C 1E F6 00 28 00 20 16 59 00 16 00 0C 8F 15
16:54:59.990 设备发送:01 03 05 93 00 0F F5 2F
16:55:01.503 设备接收:01 03 1E 00 00 00 00 00 00 19 63 00 2E 00 1E 1B 15 00 12 00 0C 1B 04 00 19 00 11 00 00 00 03 00 00 BF CA
16:55:01.519 设备发送:01 03 05 A2 00 0F A4 E0
16:55:03.018 设备接收:01 03 1E 00 00 00 00 00 00 00 00 00 00 00 00 00 00 00 00 00 00 00 00 00 00 00 00 00 00 00 00 00 00 D8 BA
16:55:03.040 设备发送:01 03 05 B1 00 03 55 20
16:55:04.579 设备发送:01 03 05 B1 00 03 55 20
16:55:06.082 设备发送:01 03 05 B1 00 03 55 20
16:55:07.633 设备发送:01 03 04 2B 00 01 F5 32
16:55:09.152 设备发送:01 03 04 2B 00 01 F5 32
16:55:10.672 设备发送:01 03 04 2B 00 01 F5 32
16:55:12.216 设备发送:01 03 04 20 00 01 84 F0
16:55:13.723 设备发送:01 03 04 20 00 01 84 F0
16:55:15.239 设备发送:01 03 04 20 00 01 84 F0
16:55:16.771 设备发送:01 03 04 05 00 01 95 3B
16:55:18.315 设备发送:01 03 04 05 00 01 95 3B
16:55:19.838 设备发送:01 03 04 05 00 01 95 3B
16:55:21.371 设备发送:02 03 04 84 00 04 05 23
16:55:22.873 设备发送:02 03 04 84 00 04 05 23
16:55:24.404 设备发送:02 03 04 84 00 04 05 23
16:55:25.948 设备发送:02 03 04 8D 00 21 14 FA
16:55:27.447 设备接收:02 03 42 08 CF 02 0A 00 00 00 00 00 00 00 00 00 00 00 00 00 00 00 00 00 00 08 CA 01 E8 00 00 00 00 00 00 00 00 00 00 00 00 00 00 00 00 00 00 08 D7 02 0A 00 00 00 00 00 00 00 00 00 00 00 00 00 00 00 00 00 00 C3 DC
16:55:27.482 设备发送:02 03 06 84 00 04 04 9B
16:55:28.980 设备发送:02 03 06 84 00 04 04 9B
16:55:30.514 设备发送:02 03 06 84 00 04 04 9B
16:55:32.027 设备发送:02 03 04 04 00 01 C4 C8
16:55:33.569 设备发送:02 03 04 04 00 01 C4 C8
16:55:35.084 设备发送:02 03 04 04 00 01 C4 C8
16:55:36.602 设备发送:02 03 05 84 00 0F 45 18
16:55:38.115 设备接收:02 03 1E 1F 2C 00 0F 00 0C 1E 03 00 0B 00 08 1E 6D 00 15 00 10 1D E8 00 29 00 1F 1E A1 00 12 00 0E 8A 75
16:55:38.130 设备发送:02 03 05 93 00 0F F5 1C
16:55:39.631 设备接收:02 03 1E 1D 46 00 0C 00 09 1E 92 00 1A 00 14 1D D6 00 2A 00 20 1E C8 00 16 00 11 1D 98 00 18 00 12 91 D6
16:55:39.694 设备发送:02 03 05 A2 00 0F A4 D3
16:55:41.191 设备接收:02 03 1E 00 00 00 03 00 00 00 00 00 00 00 00 00 00 00 00 00 00 00 00 00 00 00 00 00 00 00 00 00 00 6D 7D
16:55:41.207 设备发送:02 03 05 B1 00 03 55 13
16:55:42.740 设备发送:02 03 05 B1 00 03 55 13
16:55:44.275 设备发送:02 03 05 B1 00 03 55 13
16:55:45.781 设备发送:02 03 04 2B 00 01 F5 01
16:55:47.316 设备发送:02 03 04 2B 00 01 F5 01
16:55:48.824 设备发送:02 03 04 2B 00 01 F5 01
16:55:50.370 设备发送:02 03 04 20 00 01 84 C3
16:55:51.907 设备发送:02 03 04 20 00 01 84 C3
16:55:53.412 设备发送:02 03 04 20 00 01 84 C3
16:55:54.959 设备发送:02 03 04 05 00 01 95 08
16:55:56.470 设备发送:02 03 04 05 00 01 95 08
16:55:57.989 设备发送:02 03 04 05 00 01 95 08
16:55:59.517 设备发送:03 03 04 84 00 04 04 F2
16:56:01.048 设备发送:03 03 04 84 00 04 04 F2
16:56:02.579 设备发送:03 03 04 84 00 04 04 F2
16:56:04.095 设备发送:03 03 04 8D 00 21 15 2B
16:56:05.611 设备接收:03 03 42 08 CC 01 C4 00 00 00 00 00 00 00 00 00 00 00 00 00 00 00 00 00 00 08 C7 01 B6 00 00 00 00 00 00 00 00 00 00 00 00 00 00 00 00 00 00 08 D3 01 D3 00 00 00 00 00 00 00 00 00 00 00 00 00 00 00 00 00 00 89 D8
16:56:05.658 设备发送:03 03 06 84 00 04 05 4A
16:56:07.172 设备发送:03 03 06 84 00 04 05 4A
16:56:08.673 设备发送:03 03 06 84 00 04 05 4A
16:56:10.223 设备发送:03 03 04 04 00 01 C5 19
16:56:11.752 设备发送:03 03 04 04 00 01 C5 19
16:56:13.256 设备发送:03 03 04 04 00 01 C5 19
16:56:14.799 设备发送:03 03 05 84 00 0F 44 C9
16:56:16.298 设备接收:03 03 1E 1E 34 00 2E 00 23 1E 22 00 30 00 25 1E E3 00 2A 00 21 1E B7 00 2D 00 23 16 18 00 2A 00 17 2F EF
16:56:16.314 设备发送:03 03 05 93 00 0F F4 CD
16:56:17.824 设备接收:03 03 1E 04 FE 00 00 00 00 11 81 00 2C 00 14 19 FC 00 19 00 10 1A 6C 00 1C 00 13 05 05 00 00 00 00 B2 70
16:56:17.871 设备发送:03 03 05 A2 00 0F A5 02
16:56:19.347 设备接收:03 03 1E 00 0D 00 00 00 00 00 00 00 00 00 00 00 00 00 00 00 00 00 00 00 00 00 00 00 00 00 00 00 00 C1 72
16:56:19.379 设备发送:03 03 05 B1 00 03 54 C2
16:56:20.909 设备发送:03 03 05 B1 00 03 54 C2
16:56:22.427 设备发送:03 03 05 B1 00 03 54 C2
16:56:23.978 设备发送:03 03 04 2B 00 01 F4 D0
16:56:25.464 设备发送:03 03 04 2B 00 01 F4 D0
16:56:27.016 设备发送:03 03 04 2B 00 01 F4 D0
16:56:28.530 设备发送:03 03 04 20 00 01 85 12
16:56:30.060 设备发送:03 03 04 20 00 01 85 12
16:56:31.589 设备发送:03 03 04 20 00 01 85 12
16:56:33.115 设备发送:03 03 04 05 00 01 94 D9
16:56:34.631 设备发送:03 03 04 05 00 01 94 D9
16:56:36.159 设备发送:03 03 04 05 00 01 94 D9
16:56:37.688 设备发送:01 03 04 84 00 04 05 10
16:56:39.200 设备接收:01 03 08 13 87 00 86 FF CB 00 90 EB 9E
16:56:39.216 设备发送:01 03 04 8D 00 21 14 C9
16:56:40.731 设备接收:01 03 42 08 CB 01 7E 00 00 00 00 00 00 00 00 00 00 00 00 00 00 00 00 00 00 08 C8 01 85 00 00 00 00 00 00 00 00 00 00 00 00 00 00 00 00 00 00 08 D2 01 89 00 00 00 00 00 00 00 00 00 00 00 00 00 00 00 00 00 00 8A 9C
16:56:40.763 设备发送:01 03 06 84 00 04 04 A8
16:56:42.285 设备发送:01 03 06 84 00 04 04 A8
16:56:43.821 设备发送:01 03 06 84 00 04 04 A8
16:56:45.326 设备发送:01 03 04 04 00 01 C4 FB
16:56:46.871 设备发送:01 03 04 04 00 01 C4 FB
16:56:48.400 设备发送:01 03 04 04 00 01 C4 FB
16:56:49.930 设备发送:01 03 05 84 00 0F 45 2B
16:56:51.417 设备接收:01 03 1E 1D CA 00 2B 00 20 1D EE 00 22 00 1A 1E 2A 00 20 00 18 1E A6 00 23 00 1B 16 59 00 13 00 0B 56 BA
16:56:51.464 设备发送:01 03 05 93 00 0F F5 2F
16:56:52.947 设备接收:01 03 1E 00 00 00 00 00 00 19 12 00 28 00 1A 1B 16 00 11 00 0C 1B 05 00 16 00 0F 00 00 00 02 00 00 DF 1A
16:56:52.995 设备发送:01 03 05 A2 00 0F A4 E0
16:56:54.480 设备接收:01 03 1E 00 00 00 00 00 00 00 00 00 00 00 00 00 00 00 00 00 00 00 00 00 00 00 00 00 00 00 00 00 00 D8 BA
16:56:54.510 设备发送:01 03 05 B1 00 03 55 20
16:56:56.042 设备发送:01 03 05 B1 00 03 55 20
16:56:57.570 设备发送:01 03 05 B1 00 03 55 20
16:56:59.088 设备发送:01 03 04 2B 00 01 F5 32
16:57:00.601 设备发送:01 03 04 2B 00 01 F5 32
16:57:02.146 设备发送:01 03 04 2B 00 01 F5 32
16:57:03.661 设备发送:01 03 04 20 00 01 84 F0
16:57:05.210 设备发送:01 03 04 20 00 01 84 F0
16:57:06.728 设备发送:01 03 04 20 00 01 84 F0
16:57:08.261 设备发送:01 03 04 05 00 01 95 3B
16:57:09.787 设备发送:01 03 04 05 00 01 95 3B
16:57:11.303 设备发送:01 03 04 05 00 01 95 3B
16:57:12.819 设备发送:02 03 04 84 00 04 05 23
16:57:14.355 设备发送:02 03 04 84 00 04 05 23
16:57:15.868 设备发送:02 03 04 84 00 04 05 23
16:57:17.397 设备发送:02 03 04 8D 00 21 14 FA
16:57:18.909 设备接收:02 03 42 08 CB 01 B4 00 00 00 00 00 00 00 00 00 00 00 00 00 00 00 00 00 00 08 CA 01 8E 00 00 00 00 00 00 00 00 00 00 00 00 00 00 00 00 00 00 08 D5 01 A7 00 00 00 00 00 00 00 00 00 00 00 00 00 00 00 00 00 00 FC E8
16:57:18.956 设备发送:02 03 06 84 00 04 04 9B
16:57:20.475 设备发送:02 03 06 84 00 04 04 9B
16:57:21.988 设备发送:02 03 06 84 00 04 04 9B
16:57:23.528 设备发送:02 03 04 04 00 01 C4 C8
16:57:25.032 设备发送:02 03 04 04 00 01 C4 C8
16:57:26.561 设备发送:02 03 04 04 00 01 C4 C8
16:57:28.091 设备发送:02 03 05 84 00 0F 45 18
16:57:29.591 设备接收:02 03 1E 1D EA 00 0E 00 0A 1E A3 00 05 00 04 1E 1F 00 14 00 0F 1D 48 00 24 00 1B 1E 01 00 11 00 0D 46 3A
16:57:29.638 设备发送:02 03 05 93 00 0F F5 1C
16:57:31.122 设备接收:02 03 1E 1C A6 00 0B 00 08 1E 44 00 18 00 12 1D D7 00 25 00 1C 1E 7A 00 14 00 0F 1E 35 00 15 00 10 E3 78
16:57:31.137 设备发送:02 03 05 A2 00 0F A4 D3
16:57:32.649 设备接收:02 03 1E 00 00 00 03 00 00 00 00 00 00 00 00 00 00 00 00 00 00 00 00 00 00 00 00 00 00 00 00 00 00 6D 7D
16:57:32.680 设备发送:02 03 05 B1 00 03 55 13
16:57:34.205 设备发送:02 03 05 B1 00 03 55 13
16:57:35.731 设备发送:02 03 05 B1 00 03 55 13
16:57:37.278 设备发送:02 03 04 2B 00 01 F5 01
16:57:38.782 设备发送:02 03 04 2B 00 01 F5 01
16:57:40.328 设备发送:02 03 04 2B 00 01 F5 01
16:57:41.839 设备发送:02 03 04 20 00 01 84 C3
16:57:43.384 设备发送:02 03 04 20 00 01 84 C3
16:57:44.887 设备发送:02 03 04 20 00 01 84 C3
16:57:46.416 设备发送:02 03 04 05 00 01 95 08
16:57:47.951 设备发送:02 03 04 05 00 01 95 08
16:57:49.477 设备发送:02 03 04 05 00 01 95 08
16:57:50.983 设备发送:03 03 04 84 00 04 04 F2
16:57:52.512 设备发送:03 03 04 84 00 04 04 F2
16:57:54.040 设备发送:03 03 04 84 00 04 04 F2
16:57:55.580 设备发送:03 03 04 8D 00 21 15 2B
16:57:57.080 设备接收:03 03 42 08 C8 01 D0 00 00 00 00 00 00 00 00 00 00 00 00 00 00 00 00 00 00 08 C9 01 CB 00 00 00 00 00 00 00 00 00 00 00 00 00 00 00 00 00 00 08 D4 01 D5 00 00 00 00 00 00 00 00 00 00 00 00 00 00 00 00 00 00 05 78
16:57:57.127 设备发送:03 03 06 84 00 04 05 4A
16:57:58.645 设备发送:03 03 06 84 00 04 05 4A
16:58:00.189 设备发送:03 03 06 84 00 04 05 4A
16:58:01.689 设备发送:03 03 04 04 00 01 C5 19
16:58:03.218 设备发送:03 03 04 04 00 01 C5 19
16:58:04.764 设备发送:03 03 04 04 00 01 C5 19
16:58:06.264 设备发送:03 03 05 84 00 0F 44 C9
16:58:07.783 设备接收:03 03 1E 1D 45 00 27 00 1D 1D 82 00 28 00 1E 1E 42 00 27 00 1E 1E 16 00 24 00 1C 16 18 00 24 00 14 11 E2
16:58:07.799 设备发送:03 03 05 93 00 0F F4 CD
16:58:09.331 设备发送:03 03 05 93 00 0F F4 CD
16:58:10.816 设备接收:03 03 1E 04 FB 00 00 00 00 11 82 00 27 00 11 19 FD 00 16 00 0E 1A 1C 00 18 00 10 04 F9 00 00 00 00 9C 6A
16:58:10.864 设备发送:03 03 05 A2 00 0F A5 02
16:58:12.353 设备接收:03 03 1E 00 0E 00 00 00 00 00 00 00 00 00 00 00 00 00 00 00 00 00 00 00 00 00 00 00 00 00 00 00 00 81 70
16:58:12.399 设备发送:03 03 05 B1 00 03 54 C2
16:58:13.914 设备发送:03 03 05 B1 00 03 54 C2
16:58:15.431 设备发送:03 03 05 B1 00 03 54 C2
16:58:16.975 设备发送:03 03 04 2B 00 01 F4 D0
16:58:18.494 设备发送:03 03 04 2B 00 01 F4 D0
16:58:20.012 设备发送:03 03 04 2B 00 01 F4 D0
16:58:21.545 设备发送:03 03 04 20 00 01 85 12
16:58:23.074 设备发送:03 03 04 20 00 01 85 12
16:58:24.586 设备发送:03 03 04 20 00 01 85 12
16:58:26.130 设备发送:03 03 04 05 00 01 94 D9
16:58:27.644 设备发送:03 03 04 05 00 01 94 D9
16:58:29.164 设备发送:03 03 04 05 00 01 94 D9
16:58:30.677 设备发送:01 03 04 84 00 04 05 10
16:58:32.214 设备发送:01 03 04 84 00 04 05 10
16:58:33.759 设备发送:01 03 04 84 00 04 05 10
16:58:35.280 设备发送:01 03 04 8D 00 21 14 C9
16:58:36.793 设备接收:01 03 42 08 D1 01 62 00 00 00 00 00 00 00 00 00 00 00 00 00 00 00 00 00 00 08 CD 01 68 00 00 00 00 00 00 00 00 00 00 00 00 00 00 00 00 00 00 08 DA 01 71 00 00 00 00 00 00 00 00 00 00 00 00 00 00 00 00 00 00 AC 40
16:58:36.809 设备发送:01 03 06 84 00 04 04 A8
16:58:38.345 设备发送:01 03 06 84 00 04 04 A8
16:58:39.865 设备发送:01 03 06 84 00 04 04 A8
16:58:41.411 设备发送:01 03 04 04 00 01 C4 FB
16:58:42.944 设备发送:01 03 04 04 00 01 C4 FB
16:58:44.445 设备发送:01 03 04 04 00 01 C4 FB
16:58:45.973 设备发送:01 03 05 84 00 0F 45 2B
16:58:47.505 设备接收:01 03 1E 1D 7B 00 25 00 1C 1D 4D 00 1F 00 17 1D DA 00 1A 00 14 1E 59 00 1F 00 18 15 B9 00 0F 00 08 17 33
16:58:47.521 设备发送:01 03 05 93 00 0F F5 2F
16:58:49.013 设备接收:01 03 1E 00 00 00 00 00 00 18 C3 00 25 00 18 1A 76 00 0D 00 09 1B A5 00 12 00 0D 00 00 00 02 00 00 01 03
16:58:49.029 设备发送:01 03 05 A2 00 0F A4 E0
16:58:50.560 设备接收:01 03 1E 00 00 00 00 00 00 00 00 00 00 00 00 00 00 00 00 00 00 00 00 00 00 00 00 00 00 00 00 00 00 D8 BA
16:58:50.575 设备发送:01 03 05 B1 00 03 55 20
16:58:52.075 设备发送:01 03 05 B1 00 03 55 20
16:58:53.630 设备发送:01 03 05 B1 00 03 55 20
16:58:55.146 设备发送:01 03 04 2B 00 01 F5 32
16:58:56.677 设备发送:01 03 04 2B 00 01 F5 32
16:58:58.206 设备发送:01 03 04 2B 00 01 F5 32
16:58:59.732 设备发送:01 03 04 20 00 01 84 F0
16:59:01.270 设备发送:01 03 04 20 00 01 84 F0
16:59:02.788 设备发送:01 03 04 20 00 01 84 F0
16:59:04.330 设备发送:01 03 04 05 00 01 95 3B
16:59:05.862 设备发送:01 03 04 05 00 01 95 3B
16:59:07.390 设备发送:01 03 04 05 00 01 95 3B
16:59:08.910 设备发送:02 03 04 84 00 04 05 23
16:59:10.454 设备发送:02 03 04 84 00 04 05 23
16:59:11.950 设备发送:02 03 04 84 00 04 05 23
16:59:13.464 设备接收:02 03 08 13 8B 00 68 FF F1 00 69 20 82
16:59:13.499 设备发送:02 03 04 8D 00 21 14 FA
16:59:15.011 设备接收:02 03 42 08 D7 01 65 00 00 00 00 00 00 00 00 00 00 00 00 00 00 00 00 00 00 08 CF 01 47 00 00 00 00 00 00 00 00 00 00 00 00 00 00 00 00 00 00 08 DB 01 6C 00 00 00 00 00 00 00 00 00 00 00 00 00 00 00 00 00 00 57 55
16:59:15.028 设备发送:02 03 06 84 00 04 04 9B
16:59:16.545 设备发送:02 03 06 84 00 04 04 9B
16:59:18.074 设备发送:02 03 06 84 00 04 04 9B
16:59:19.590 设备发送:02 03 04 04 00 01 C4 C8
16:59:21.134 设备发送:02 03 04 04 00 01 C4 C8
16:59:22.663 设备发送:02 03 04 04 00 01 C4 C8
16:59:24.191 设备发送:02 03 05 84 00 0F 45 18
16:59:25.672 设备接收:02 03 1E 1E 3C 00 0C 00 09 1E 01 00 06 00 04 1D 7E 00 10 00 0C 1D 47 00 1F 00 17 1D 63 00 0F 00 0B D7 A9
16:59:25.707 设备发送:02 03 05 93 00 0F F5 1C
16:59:27.215 设备接收:02 03 1E 1D 47 00 08 00 06 1E 92 00 14 00 0F 1D 85 00 21 00 19 1E 29 00 11 00 0D 1D 98 00 12 00 0D 30 6B
16:59:27.232 设备发送:02 03 05 A2 00 0F A4 D3
16:59:28.738 设备接收:02 03 1E 00 00 00 02 00 00 00 00 00 00 00 00 00 00 00 00 00 00 00 00 00 00 00 00 00 00 00 00 00 00 93 FF
16:59:28.754 设备发送:02 03 05 B1 00 03 55 13
16:59:30.300 设备发送:02 03 05 B1 00 03 55 13
16:59:31.850 设备发送:02 03 05 B1 00 03 55 13
16:59:33.350 设备发送:02 03 04 2B 00 01 F5 01
16:59:34.867 设备发送:02 03 04 2B 00 01 F5 01
16:59:36.380 设备发送:02 03 04 2B 00 01 F5 01
16:59:37.925 设备发送:02 03 04 20 00 01 84 C3
16:59:39.455 设备发送:02 03 04 20 00 01 84 C3
16:59:40.984 设备发送:02 03 04 20 00 01 84 C3
16:59:42.514 设备发送:02 03 04 05 00 01 95 08
16:59:44.047 设备发送:02 03 04 05 00 01 95 08
16:59:45.547 设备发送:02 03 04 05 00 01 95 08
16:59:47.077 设备发送:03 03 04 84 00 04 04 F2
16:59:48.625 设备发送:03 03 04 84 00 04 04 F2
16:59:50.138 设备发送:03 03 04 84 00 04 04 F2
16:59:51.695 设备发送:03 03 04 8D 00 21 15 2B
16:59:53.178 设备接收:03 03 42 08 D1 01 89 00 00 00 00 00 00 00 00 00 00 00 00 00 00 00 00 00 00 08 CD 01 88 00 00 00 00 00 00 00 00 00 00 00 00 00 00 00 00 00 00 08 DB 01 96 00 00 00 00 00 00 00 00 00 00 00 00 00 00 00 00 00 00 A2 89
16:59:53.194 设备发送:03 03 06 84 00 04 05 4A
16:59:54.721 设备发送:03 03 06 84 00 04 05 4A
16:59:56.236 设备发送:03 03 06 84 00 04 05 4A
16:59:57.780 设备发送:03 03 04 04 00 01 C5 19
16:59:59.312 设备发送:03 03 04 04 00 01 C5 19
17:00:00.844 设备发送:03 03 04 04 00 01 C5 19
17:00:02.361 设备发送:03 03 05 84 00 0F 44 C9
17:00:03.848 设备接收:03 03 1E 1D 47 00 20 00 18 1D 33 00 22 00 19 1E 41 00 20 00 18 1D 75 00 20 00 18 15 C8 00 1E 00 11 9F DA
17:00:03.879 设备发送:03 03 05 93 00 0F F4 CD
17:00:05.373 设备接收:03 03 1E 05 29 00 00 00 00 11 32 00 24 00 10 1A 4C 00 10 00 0B 1A 1B 00 14 00 0D 04 E8 00 00 00 00 0C 4B
17:00:05.404 设备发送:03 03 05 A2 00 0F A5 02
17:00:06.911 设备接收:03 03 1E 00 0D 00 00 00 00 00 00 00 00 00 00 00 00 00 00 00 00 00 00 00 00 00 00 00 00 00 00 00 00 C1 72
17:00:06.927 设备发送:03 03 05 B1 00 03 54 C2
17:00:08.477 设备发送:03 03 05 B1 00 03 54 C2
17:00:09.979 设备发送:03 03 05 B1 00 03 54 C2
17:00:11.533 设备发送:03 03 04 2B 00 01 F4 D0
17:00:13.042 设备发送:03 03 04 2B 00 01 F4 D0
17:00:14.569 设备发送:03 03 04 2B 00 01 F4 D0
17:00:16.094 设备发送:03 03 04 20 00 01 85 12
17:00:17.624 设备发送:03 03 04 20 00 01 85 12
17:00:19.147 设备发送:03 03 04 20 00 01 85 12
17:00:20.689 设备发送:03 03 04 05 00 01 94 D9
17:00:22.188 设备发送:03 03 04 05 00 01 94 D9
17:00:23.726 设备发送:03 03 04 05 00 01 94 D9
17:00:25.238 设备发送:01 03 04 84 00 04 05 10
17:00:26.780 设备发送:01 03 04 84 00 04 05 10
17:00:28.295 设备发送:01 03 04 84 00 04 05 10
17:00:29.815 设备发送:01 03 04 8D 00 21 14 C9
17:00:31.310 设备接收:01 03 42 08 D5 01 62 00 00 00 00 00 00 00 00 00 00 00 00 00 00 00 00 00 00 08 D1 01 56 00 00 00 00 00 00 00 00 00 00 00 00 00 00 00 00 00 00 08 DF 01 78 00 00 00 00 00 00 00 00 00 00 00 00 00 00 00 00 00 00 4B 8B
17:00:31.358 设备发送:01 03 06 84 00 04 04 A8
17:00:32.907 设备发送:01 03 06 84 00 04 04 A8
17:00:34.408 设备发送:01 03 06 84 00 04 04 A8
17:00:35.929 设备发送:01 03 04 04 00 01 C4 FB
17:00:37.488 设备发送:01 03 04 04 00 01 C4 FB
17:00:38.993 设备发送:01 03 04 04 00 01 C4 FB
17:00:40.514 设备发送:01 03 05 84 00 0F 45 2B
17:00:42.016 设备接收:01 03 1E 1D CA 00 1E 00 17 1C FD 00 1B 00 14 1E 2D 00 18 00 12 1E 55 00 1B 00 15 14 C9 00 0E 00 07 13 FE
17:00:42.046 设备发送:01 03 05 93 00 0F F5 2F
17:00:43.547 设备接收:01 03 1E 00 00 00 00 00 00 18 C3 00 1F 00 13 19 87 00 0C 00 08 1B 04 00 11 00 0B 00 00 00 01 00 00 9A 17
17:00:43.563 设备发送:01 03 05 A2 00 0F A4 E0
17:00:45.084 设备接收:01 03 1E 00 00 00 00 00 00 00 00 00 00 00 00 00 00 00 00 00 00 00 00 00 00 00 00 00 00 00 00 00 00 D8 BA
17:00:45.100 设备发送:01 03 05 B1 00 03 55 20
17:00:46.632 设备发送:01 03 05 B1 00 03 55 20
17:00:48.168 设备发送:01 03 05 B1 00 03 55 20
17:00:49.700 设备发送:01 03 04 2B 00 01 F5 32
17:00:51.226 设备发送:01 03 04 2B 00 01 F5 32
17:00:52.734 设备发送:01 03 04 2B 00 01 F5 32
17:00:54.280 设备发送:01 03 04 20 00 01 84 F0
17:00:55.817 设备发送:01 03 04 20 00 01 84 F0
17:00:57.328 设备发送:01 03 04 20 00 01 84 F0
17:00:58.861 设备发送:01 03 04 05 00 01 95 3B
17:01:00.377 设备发送:01 03 04 05 00 01 95 3B
17:01:01.924 设备发送:01 03 04 05 00 01 95 3B
17:01:03.451 设备发送:02 03 04 84 00 04 05 23
17:01:04.969 设备发送:02 03 04 84 00 04 05 23
17:01:06.514 设备发送:02 03 04 84 00 04 05 23
17:01:08.018 设备发送:02 03 04 8D 00 21 14 FA
17:01:09.554 设备发送:02 03 04 8D 00 21 14 FA
17:01:11.043 设备接收:02 03 42 08 D3 01 41 00 00 00 00 00 00 00 00 00 00 00 00 00 00 00 00 00 00 08 CE 01 2A 00 00 00 00 00 00 00 00 00 00 00 00 00 00 00 00 00 00 08 DB 01 3E 00 00 00 00 00 00 00 00 00 00 00 00 00 00 00 00 00 00 8D E9
17:01:11.097 设备发送:02 03 06 84 00 04 04 9B
17:01:12.604 设备发送:02 03 06 84 00 04 04 9B
17:01:14.134 设备发送:02 03 06 84 00 04 04 9B
17:01:15.650 设备发送:02 03 04 04 00 01 C4 C8
17:01:17.192 设备发送:02 03 04 04 00 01 C4 C8
17:01:18.711 设备发送:02 03 04 04 00 01 C4 C8
17:01:20.232 设备发送:02 03 05 84 00 0F 45 18
17:01:21.744 设备接收:02 03 1E 1D 9C 00 0B 00 08 1D 14 00 04 00 03 1D 2E 00 0D 00 0A 1D E8 00 1A 00 14 1C C2 00 0C 00 09 24 6F
17:01:21.760 设备发送:02 03 05 93 00 0F F5 1C
17:01:23.270 设备接收:02 03 1E 1D 46 00 04 00 03 1D A3 00 12 00 0E 1D 35 00 1B 00 14 1D 8A 00 0D 00 0A 1D 96 00 10 00 0C E7 BC
17:01:23.316 设备发送:02 03 05 A2 00 0F A4 D3
17:01:24.831 设备接收:02 03 1E 00 00 00 03 00 00 00 00 00 00 00 00 00 00 00 00 00 00 00 00 00 00 00 00 00 00 00 00 00 00 6D 7D
17:01:24.847 设备发送:02 03 05 B1 00 03 55 13
17:01:26.390 设备发送:02 03 05 B1 00 03 55 13
17:01:27.872 设备发送:02 03 05 B1 00 03 55 13
17:01:29.401 设备发送:02 03 04 2B 00 01 F5 01
17:01:30.916 设备发送:02 03 04 2B 00 01 F5 01
17:01:32.445 设备发送:02 03 04 2B 00 01 F5 01
17:01:33.966 设备发送:02 03 04 20 00 01 84 C3
17:01:35.495 设备发送:02 03 04 20 00 01 84 C3
17:01:37.020 设备发送:02 03 04 20 00 01 84 C3
17:01:38.548 设备发送:02 03 04 05 00 01 95 08
17:01:40.093 设备发送:02 03 04 05 00 01 95 08
17:01:41.606 设备发送:02 03 04 05 00 01 95 08
17:01:43.148 设备发送:03 03 04 84 00 04 04 F2
17:01:44.660 设备发送:03 03 04 84 00 04 04 F2
17:01:46.174 设备发送:03 03 04 84 00 04 04 F2
17:01:47.706 设备发送:03 03 04 8D 00 21 15 2B
17:01:49.216 设备接收:03 03 42 08 D0 01 97 00 00 00 00 00 00 00 00 00 00 00 00 00 00 00 00 00 00 08 CC 01 58 00 00 00 00 00 00 00 00 00 00 00 00 00 00 00 00 00 00 08 D8 01 8B 00 00 00 00 00 00 00 00 00 00 00 00 00 00 00 00 00 00 80 90
17:01:49.231 设备发送:03 03 06 84 00 04 05 4A
17:01:50.764 设备发送:03 03 06 84 00 04 05 4A
17:01:52.309 设备发送:03 03 06 84 00 04 05 4A
17:01:53.808 设备发送:03 03 04 04 00 01 C5 19
17:01:55.338 设备发送:03 03 04 04 00 01 C5 19
17:01:56.886 设备发送:03 03 04 04 00 01 C5 19
17:01:58.389 设备发送:03 03 05 84 00 0F 44 C9
17:01:59.907 设备接收:03 03 1E 1D 46 00 1B 00 14 1D D1 00 1A 00 14 1D A1 00 1B 00 14 1D 75 00 1B 00 15 15 78 00 1A 00 0E FB F8
17:01:59.927 设备发送:03 03 05 93 00 0F F4 CD
17:02:01.431 设备接收:03 03 1E 05 99 00 00 00 00 11 32 00 1D 00 0D 19 5C 00 0D 00 08 19 CB 00 10 00 0B 04 D9 00 00 00 00 EA 03
17:02:01.446 设备发送:03 03 05 A2 00 0F A5 02
17:02:02.968 设备接收:03 03 1E 00 0E 00 00 00 00 00 00 00 00 00 00 00 00 00 00 00 00 00 00 00 00 00 00 00 00 00 00 00 00 81 70
17:02:02.984 设备发送:03 03 05 B1 00 03 54 C2
17:02:04.516 设备发送:03 03 05 B1 00 03 54 C2
17:02:06.031 设备发送:03 03 05 B1 00 03 54 C2
17:02:07.564 设备发送:03 03 04 2B 00 01 F4 D0
17:02:09.096 设备发送:03 03 04 2B 00 01 F4 D0
17:02:10.621 设备发送:03 03 04 2B 00 01 F4 D0
17:02:12.163 设备发送:03 03 04 20 00 01 85 12
17:02:13.670 设备发送:03 03 04 20 00 01 85 12
17:02:15.205 设备发送:03 03 04 20 00 01 85 12
17:02:16.706 设备发送:03 03 04 05 00 01 94 D9
17:02:18.236 设备发送:03 03 04 05 00 01 94 D9
17:02:19.770 设备发送:03 03 04 05 00 01 94 D9
17:02:21.319 设备发送:01 03 04 84 00 04 05 10
17:02:22.833 设备发送:01 03 04 84 00 04 05 10
17:02:24.350 设备发送:01 03 04 84 00 04 05 10
17:02:25.879 设备发送:01 03 04 8D 00 21 14 C9
17:02:27.395 设备接收:01 03 42 08 D6 01 7C 00 00 00 00 00 00 00 00 00 00 00 00 00 00 00 00 00 00 08 CE 01 50 00 00 00 00 00 00 00 00 00 00 00 00 00 00 00 00 00 00 08 DA 01 74 00 00 00 00 00 00 00 00 00 00 00 00 00 00 00 00 00 00 A0 61
17:02:27.411 设备发送:01 03 06 84 00 04 04 A8
17:02:28.936 设备发送:01 03 06 84 00 04 04 A8
17:02:30.467 设备发送:01 03 06 84 00 04 04 A8
17:02:31.998 设备发送:01 03 04 04 00 01 C4 FB
17:02:32.82300
17:02:33.46800
17:02:33.47100
17:02:33.62700
17:02:33.78700
17:02:33.943 设备发送:01 03 04 04 00 01 C4 FB
17:02:35.036 设备发送:01 03 04 04 00 01 C4 FB
17:02:36.579 设备发送:01 03 05 84 00 0F 45 2B
17:02:38.084 设备接收:01 03 1E 1C 8B 00 1B 00 13 1E 38 00 16 00 11 1D 8A 00 12 00 0D 1D 65 00 16 00 11 15 B9 00 0A 00 05 71 F3
17:02:38.100 设备发送:01 03 05 93 00 0F F5 2F
17:02:39.628 设备接收:01 03 1E 00 00 00 00 00 00 18 73 00 1A 00 10 19 D7 00 09 00 06 19 C5 00 11 00 0B 00 00 00 03 00 00 FB 11
17:02:39.659 设备发送:01 03 05 A2 00 0F A4 E0
17:02:41.128 设备接收:01 03 1E 00 00 00 00 00 00 00 00 00 00 00 00 00 00 00 00 00 00 00 00 00 00 00 00 00 00 00 00 00 00 D8 BA
17:02:41.159 设备发送:01 03 05 B1 00 03 55 20
17:02:42.672 设备发送:01 03 05 B1 00 03 55 20
17:02:44.218 设备发送:01 03 05 B1 00 03 55 20
17:02:45.734 设备发送:01 03 04 2B 00 01 F5 32
17:02:47.247 设备发送:01 03 04 2B 00 01 F5 32
17:02:48.798 设备发送:01 03 04 2B 00 01 F5 32
17:02:50.327 设备发送:01 03 04 20 00 01 84 F0
17:02:51.824 设备发送:01 03 04 20 00 01 84 F0
17:02:53.357 设备发送:01 03 04 20 00 01 84 F0
17:02:54.907 设备发送:01 03 04 05 00 01 95 3B
17:02:56.420 设备发送:01 03 04 05 00 01 95 3B
17:02:57.950 设备发送:01 03 04 05 00 01 95 3B
17:02:59.502 设备发送:02 03 04 84 00 04 05 23
17:03:00.985 设备发送:02 03 04 84 00 04 05 23
17:03:02.543 设备发送:02 03 04 84 00 04 05 23
17:03:04.047 设备发送:02 03 04 8D 00 21 14 FA
17:03:05.548 设备接收:02 03 42 08 DA 01 6B 00 00 00 00 00 00 00 00 00 00 00 00 00 00 00 00 00 00 08 CF 01 74 00 00 00 00 00 00 00 00 00 00 00 00 00 00 00 00 00 00 08 DA 01 91 00 00 00 00 00 00 00 00 00 00 00 00 00 00 00 00 00 00 55 19
17:03:05.564 设备发送:02 03 06 84 00 04 04 9B
17:03:07.099 设备发送:02 03 06 84 00 04 04 9B
17:03:08.628 设备发送:02 03 06 84 00 04 04 9B
17:03:10.157 设备发送:02 03 04 04 00 01 C4 C8
17:03:11.689 设备发送:02 03 04 04 00 01 C4 C8
17:03:13.187 设备发送:02 03 04 04 00 01 C4 C8
17:03:14.716 设备接收:02 03 02 00 02 7D 85
17:03:14.731 设备发送:02 03 05 84 00 0F 45 18
17:03:16.234 设备接收:02 03 1E 1D 9D 00 09 00 06 1D B3 00 00 00 00 1C DD 00 0A 00 07 1E 2F 00 13 00 0F 1D 10 00 0A 00 07 90 0B
17:03:16.266 设备发送:02 03 05 93 00 0F F5 1C
17:03:17.745 设备接收:02 03 1E 1D 45 00 04 00 03 1D A2 00 10 00 0C 1C E4 00 15 00 10 1D 3C 00 0D 00 0A 1C F8 00 0E 00 0A AD 3B
17:03:17.777 设备发送:02 03 05 A2 00 0F A4 D3
17:03:19.276 设备接收:02 03 1E 00 00 00 02 00 00 00 00 00 00 00 00 00 00 00 00 00 00 00 00 00 00 00 00 00 00 00 00 00 00 93 FF
17:03:19.316 设备发送:02 03 05 B1 00 03 55 13
17:03:20.829 设备发送:02 03 05 B1 00 03 55 13
17:03:22.364 设备发送:02 03 05 B1 00 03 55 13
17:03:23.894 设备发送:02 03 04 2B 00 01 F5 01
17:03:25.831 设备发送:02 03 04 2B 00 01 F5 01
17:03:27.389 设备发送:02 03 04 2B 00 01 F5 01
17:03:28.905 设备发送:02 03 04 20 00 01 84 C3
17:03:30.435 设备发送:02 03 04 20 00 01 84 C3
17:03:31.966 设备发送:02 03 04 20 00 01 84 C3
17:03:33.495 设备发送:02 03 04 05 00 01 95 08
17:03:35.002 设备发送:02 03 04 05 00 01 95 08
17:03:36.528 设备发送:02 03 04 05 00 01 95 08
17:03:38.077 设备发送:03 03 04 84 00 04 04 F2
17:03:39.594 设备发送:03 03 04 84 00 04 04 F2
17:03:41.141 设备发送:03 03 04 84 00 04 04 F2
17:03:42.670 设备发送:03 03 04 8D 00 21 15 2B
17:03:44.167 设备发送:03 03 04 8D 00 21 15 2B
17:03:45.700 设备发送:03 03 04 8D 00 21 15 2B
17:03:47.237 设备发送:03 03 06 84 00 04 05 4A
17:03:48.756 设备发送:03 03 06 84 00 04 05 4A
17:03:50.274 设备发送:03 03 06 84 00 04 05 4A
17:03:51.826 设备发送:03 03 04 04 00 01 C5 19
17:03:53.358 设备发送:03 03 04 04 00 01 C5 19
17:03:54.862 设备发送:03 03 04 04 00 01 C5 19
17:03:56.412 设备发送:03 03 05 84 00 0F 44 C9
17:03:57.942 设备发送:03 03 05 84 00 0F 44 C9
17:03:59.461 设备发送:03 03 05 84 00 0F 44 C9
17:04:00.994 设备发送:03 03 05 93 00 0F F4 CD
17:04:02.523 设备发送:03 03 05 93 00 0F F4 CD
17:04:04.040 设备发送:03 03 05 93 00 0F F4 CD
17:04:05.556 设备发送:03 03 05 A2 00 0F A5 02
17:04:07.091 设备发送:03 03 05 A2 00 0F A5 02
17:04:08.622 设备发送:03 03 05 A2 00 0F A5 02
17:04:10.158 设备发送:03 03 05 B1 00 03 54 C2
17:04:11.673 设备发送:03 03 05 B1 00 03 54 C2
17:04:13.205 设备发送:03 03 05 B1 00 03 54 C2
17:04:14.732 设备发送:03 03 04 2B 00 01 F4 D0
17:04:16.264 设备发送:03 03 04 2B 00 01 F4 D0
17:04:17.805 设备发送:03 03 04 2B 00 01 F4 D0
17:04:19.317 设备发送:03 03 04 20 00 01 85 12
17:04:20.858 设备发送:03 03 04 20 00 01 85 12
17:04:22.375 设备发送:03 03 04 20 00 01 85 12
17:04:23.917 设备发送:03 03 04 05 00 01 94 D9
17:04:25.433 设备发送:03 03 04 05 00 01 94 D9
17:04:26.937 设备发送:03 03 04 05 00 01 94 D9
17:04:28.481 设备发送:01 03 04 84 00 04 05 10
17:04:30.000 设备发送:01 03 04 84 00 04 05 10
17:04:31.532 设备发送:01 03 04 84 00 04 05 10
17:04:33.063 设备发送:01 03 04 8D 00 21 14 C9
17:04:34.582 设备发送:01 03 04 8D 00 21 14 C9
17:04:36.097 设备发送:01 03 04 8D 00 21 14 C9
17:04:37.628 设备发送:01 03 06 84 00 04 04 A8
17:04:39.133 设备发送:01 03 06 84 00 04 04 A8
17:04:40.696 设备发送:01 03 06 84 00 04 04 A8
17:04:42.195 设备发送:01 03 04 04 00 01 C4 FB
17:04:43.720 设备发送:01 03 04 04 00 01 C4 FB
17:04:45.239 设备发送:01 03 04 04 00 01 C4 FB
17:04:46.783 设备发送:01 03 05 84 00 0F 45 2B
17:04:48.296 设备发送:01 03 05 84 00 0F 45 2B
17:04:49.815 设备发送:01 03 05 84 00 0F 45 2B
17:04:51.363 设备发送:01 03 05 93 00 0F F5 2F
17:04:52.882 设备发送:01 03 05 93 00 0F F5 2F
17:04:54.397 设备发送:01 03 05 93 00 0F F5 2F
17:04:55.944 设备发送:01 03 05 A2 00 0F A4 E0
17:04:57.440 设备发送:01 03 05 A2 00 0F A4 E0
17:04:58.992 设备发送:01 03 05 A2 00 0F A4 E0
17:05:00.523 设备发送:01 03 05 B1 00 03 55 20
17:05:02.026 设备发送:01 03 05 B1 00 03 55 20
17:05:03.558 设备发送:01 03 05 B1 00 03 55 20
17:05:05.101 设备发送:01 03 04 2B 00 01 F5 32
17:05:06.581 设备发送:01 03 04 2B 00 01 F5 32
17:05:08.097 设备发送:01 03 04 2B 00 01 F5 32
17:05:09.658 设备发送:01 03 04 20 00 01 84 F0
17:05:11.164 设备发送:01 03 04 20 00 01 84 F0
17:05:12.705 设备发送:01 03 04 20 00 01 84 F0
17:05:14.233 设备发送:01 03 04 05 00 01 95 3B
17:05:15.732 设备发送:01 03 04 05 00 01 95 3B
17:05:17.279 设备发送:01 03 04 05 00 01 95 3B
17:05:18.793 设备发送:02 03 04 84 00 04 05 23
17:05:20.327 设备发送:02 03 04 84 00 04 05 23
17:05:21.875 设备发送:02 03 04 84 00 04 05 23
17:05:23.388 设备发送:02 03 04 8D 00 21 14 FA
17:05:24.919 设备发送:02 03 04 8D 00 21 14 FA
17:05:26.415 设备发送:02 03 04 8D 00 21 14 FA
17:05:27.948 设备发送:02 03 06 84 00 04 04 9B
17:05:29.482 设备发送:02 03 06 84 00 04 04 9B
17:05:31.025 设备发送:02 03 06 84 00 04 04 9B
17:05:32.544 设备发送:02 03 04 04 00 01 C4 C8
17:05:34.071 设备发送:02 03 04 04 00 01 C4 C8
17:05:35.598 设备发送:02 03 04 04 00 01 C4 C8
17:05:37.141 设备发送:02 03 05 84 00 0F 45 18
17:05:38.626 设备接收:02 03 1E 1B EC 00 07 00 05 1B EB 00 00 00 00 1B 9B 00 09 00 06 1B EB 00 11 00 0C 1B F0 00 08 00 06 0D 65
17:05:38.677 设备发送:02 03 05 93 00 0F F5 1C
17:05:40.154 设备接收:02 03 1E 1B B7 00 02 00 01 1B D1 00 0F 00 0A 1B D3 00 13 00 0D 1B D2 00 0A 00 07 1B D1 00 0C 00 08 4A FD
17:05:40.192 设备发送:02 03 05 A2 00 0F A4 D3
17:05:41.699 设备接收:02 03 1E 00 00 00 02 00 00 00 00 00 00 00 00 00 00 00 00 00 00 00 00 00 00 00 00 00 00 00 00 00 00 93 FF
17:05:41.730 设备发送:02 03 05 B1 00 03 55 13
17:05:43.232 设备发送:02 03 05 B1 00 03 55 13
17:05:44.765 设备发送:02 03 05 B1 00 03 55 13
17:05:46.310 设备发送:02 03 04 2B 00 01 F5 01
17:05:47.828 设备发送:02 03 04 2B 00 01 F5 01
17:05:49.361 设备发送:02 03 04 2B 00 01 F5 01
17:05:50.896 设备发送:02 03 04 20 00 01 84 C3
17:05:52.440 设备发送:02 03 04 20 00 01 84 C3
17:05:53.938 设备发送:02 03 04 20 00 01 84 C3
17:05:55.490 设备发送:02 03 04 05 00 01 95 08
17:05:56.986 设备发送:02 03 04 05 00 01 95 08
17:05:58.518 设备发送:02 03 04 05 00 01 95 08
17:06:00.059 设备发送:03 03 04 84 00 04 04 F2
17:06:01.576 设备发送:03 03 04 84 00 04 04 F2
17:06:03.108 设备发送:03 03 04 84 00 04 04 F2
17:06:04.614 设备发送:03 03 04 8D 00 21 15 2B
17:06:06.152 设备接收:03 03 42 08 DF 01 05 00 00 00 00 00 00 00 00 00 00 00 00 00 00 00 00 00 00 08 DA 00 F1 00 00 00 00 00 00 00 00 00 00 00 00 00 00 00 00 00 00 08 E1 01 04 00 00 00 00 00 00 00 00 00 00 00 00 00 00 00 00 00 00 B9 88
17:06:06.179 设备发送:03 03 06 84 00 04 05 4A
17:06:07.730 设备发送:03 03 06 84 00 04 05 4A
17:06:09.262 设备发送:03 03 06 84 00 04 05 4A
17:06:10.768 设备发送:03 03 04 04 00 01 C5 19
17:06:12.311 设备发送:03 03 04 04 00 01 C5 19
17:06:13.825 设备发送:03 03 04 04 00 01 C5 19
17:06:15.354 设备发送:03 03 05 84 00 0F 44 C9
17:06:16.866 设备接收:03 03 1E 15 E8 00 10 00 09 15 EA 00 10 00 09 15 DF 00 0E 00 08 15 E8 00 14 00 0B 14 D8 00 0F 00 08 06 C6
17:06:16.898 设备发送:03 03 05 93 00 0F F4 CD
17:06:18.387 设备接收:03 03 1E 03 E1 00 00 00 00 10 E3 00 15 00 09 15 4A 00 07 00 04 16 3C 00 09 00 05 03 D8 00 00 00 00 59 69
17:06:18.403 设备发送:03 03 05 A2 00 0F A5 02
17:06:19.922 设备接收:03 03 1E 00 0D 00 00 00 00 00 00 00 00 00 00 00 00 00 00 00 00 00 00 00 00 00 00 00 00 00 00 00 00 C1 72
17:06:19.952 设备发送:03 03 05 B1 00 03 54 C2
17:06:21.468 设备发送:03 03 05 B1 00 03 54 C2
17:06:23.012 设备发送:03 03 05 B1 00 03 54 C2
17:06:24.526 设备发送:03 03 04 2B 00 01 F4 D0
17:06:26.072 设备发送:03 03 04 2B 00 01 F4 D0
17:06:27.572 设备发送:03 03 04 2B 00 01 F4 D0
17:06:29.099 设备发送:03 03 04 20 00 01 85 12
17:06:30.631 设备发送:03 03 04 20 00 01 85 12
17:06:32.183 设备发送:03 03 04 20 00 01 85 12
17:06:33.687 设备发送:03 03 04 05 00 01 94 D9
17:06:35.219 设备发送:03 03 04 05 00 01 94 D9
17:06:36.722 设备发送:03 03 04 05 00 01 94 D9
17:06:38.271 设备发送:01 03 04 84 00 04 05 10
17:06:39.795 设备发送:01 03 04 84 00 04 05 10
17:06:41.292 设备发送:01 03 04 84 00 04 05 10
17:06:42.842 设备发送:01 03 04 8D 00 21 14 C9
17:06:44.340 设备接收:01 03 42 08 DF 01 12 00 00 00 00 00 00 00 00 00 00 00 00 00 00 00 00 00 00 08 D9 00 FE 00 00 00 00 00 00 00 00 00 00 00 00 00 00 00 00 00 00 08 E1 01 07 00 00 00 00 00 00 00 00 00 00 00 00 00 00 00 00 00 00 57 F2
17:06:44.355 设备发送:01 03 06 84 00 04 04 A8
17:06:45.901 设备发送:01 03 06 84 00 04 04 A8
17:06:47.403 设备发送:01 03 06 84 00 04 04 A8
17:06:48.950 设备发送:01 03 04 04 00 01 C4 FB
17:06:50.479 设备发送:01 03 04 04 00 01 C4 FB
17:06:51.993 设备发送:01 03 04 04 00 01 C4 FB
17:06:53.499 设备发送:01 03 05 84 00 0F 45 2B
17:06:55.000 设备接收:01 03 1E 16 3C 00 11 00 09 15 EF 00 0A 00 05 16 21 00 05 00 03 16 4C 00 0E 00 08 14 79 00 04 00 02 28 28
17:06:55.062 设备发送:01 03 05 93 00 0F F5 2F
17:06:56.553 设备接收:01 03 1E 00 00 00 00 00 00 16 44 00 11 00 0A 14 90 00 02 00 01 15 79 00 09 00 05 00 00 00 01 00 00 CF AE
17:06:56.585 设备发送:01 03 05 A2 00 0F A4 E0
17:06:58.100 设备接收:01 03 1E 00 00 00 00 00 00 00 00 00 00 00 00 00 00 00 00 00 00 00 00 00 00 00 00 00 00 00 00 00 00 D8 BA
17:06:58.118 设备发送:01 03 05 B1 00 03 55 20
17:06:59.650 设备发送:01 03 05 B1 00 03 55 20
17:07:01.155 设备发送:01 03 05 B1 00 03 55 20
17:07:02.706 设备发送:01 03 04 2B 00 01 F5 32
17:07:04.189 设备发送:01 03 04 2B 00 01 F5 32
17:07:05.721 设备发送:01 03 04 2B 00 01 F5 32
17:07:07.255 设备发送:01 03 04 20 00 01 84 F0
17:07:08.793 设备发送:01 03 04 20 00 01 84 F0
17:07:10.294 设备发送:01 03 04 20 00 01 84 F0
17:07:11.842 设备发送:01 03 04 05 00 01 95 3B
17:07:13.357 设备发送:01 03 04 05 00 01 95 3B
17:07:14.903 设备发送:01 03 04 05 00 01 95 3B
17:07:16.434 设备发送:02 03 04 84 00 04 05 23
17:07:17.963 设备发送:02 03 04 84 00 04 05 23
17:07:19.462 设备发送:02 03 04 84 00 04 05 23
17:07:20.998 设备发送:02 03 04 8D 00 21 14 FA
17:07:22.496 设备接收:02 03 42 08 DD 01 29 00 00 00 00 00 00 00 00 00 00 00 00 00 00 00 00 00 00 08 D9 01 1A 00 00 00 00 00 00 00 00 00 00 00 00 00 00 00 00 00 00 08 E0 01 1E 00 00 00 00 00 00 00 00 00 00 00 00 00 00 00 00 00 00 18 34
17:07:22.544 设备发送:02 03 06 84 00 04 04 9B
17:07:24.066 设备发送:02 03 06 84 00 04 04 9B
17:07:25.581 设备发送:02 03 06 84 00 04 04 9B
17:07:27.095 设备发送:02 03 04 04 00 01 C4 C8
17:07:28.626 设备发送:02 03 04 04 00 01 C4 C8
17:07:30.158 设备发送:02 03 04 04 00 01 C4 C8
17:07:31.691 设备发送:02 03 05 84 00 0F 45 18
17:07:33.191 设备接收:02 03 1E 15 E9 00 04 00 02 15 32 00 00 00 00 16 13 00 04 00 02 16 41 00 08 00 04 16 20 00 03 00 02 9D CF
17:07:33.210 设备发送:02 03 05 93 00 0F F5 1C
17:07:34.720 设备接收:02 03 1E 15 80 00 00 00 00 16 36 00 0D 00 07 16 1F 00 0B 00 06 15 80 00 06 00 03 16 2C 00 05 00 03 C4 CC
17:07:34.736 设备发送:02 03 05 A2 00 0F A4 D3
17:07:36.254 设备接收:02 03 1E 00 00 00 00 00 00 00 00 00 00 00 00 00 00 00 00 00 00 00 00 00 00 00 00 00 00 00 00 00 00 6C BA
17:07:36.270 设备发送:02 03 05 B1 00 03 55 13
17:07:37.818 设备发送:02 03 05 B1 00 03 55 13
17:07:39.344 设备发送:02 03 05 B1 00 03 55 13
17:07:40.858 设备发送:02 03 04 2B 00 01 F5 01
17:07:42.375 设备发送:02 03 04 2B 00 01 F5 01
17:07:43.922 设备发送:02 03 04 2B 00 01 F5 01
17:07:45.435 设备发送:02 03 04 20 00 01 84 C3
17:07:46.950 设备发送:02 03 04 20 00 01 84 C3
17:07:48.514 设备发送:02 03 04 20 00 01 84 C3
17:07:50.047 设备发送:02 03 04 05 00 01 95 08
17:07:51.542 设备发送:02 03 04 05 00 01 95 08
17:07:53.061 设备发送:02 03 04 05 00 01 95 08
17:07:54.594 设备发送:03 03 04 84 00 04 04 F2
17:07:56.105 设备发送:03 03 04 84 00 04 04 F2
17:07:57.648 设备发送:03 03 04 84 00 04 04 F2
17:07:59.149 设备发送:03 03 04 8D 00 21 15 2B
17:08:00.669 设备接收:03 03 42 08 DD 01 17 00 00 00 00 00 00 00 00 00 00 00 00 00 00 00 00 00 00 08 DB 00 FA 00 00 00 00 00 00 00 00 00 00 00 00 00 00 00 00 00 00 08 E3 01 11 00 00 00 00 00 00 00 00 00 00 00 00 00 00 00 00 00 00 9D 2F
17:08:00.732 设备发送:03 03 06 84 00 04 05 4A
17:08:02.231 设备发送:03 03 06 84 00 04 05 4A
17:08:03.757 设备发送:03 03 06 84 00 04 05 4A
17:08:05.303 设备发送:03 03 04 04 00 01 C5 19
17:08:06.818 设备发送:03 03 04 04 00 01 C5 19
17:08:08.357 设备发送:03 03 04 04 00 01 C5 19
17:08:09.872 设备发送:03 03 05 84 00 0F 44 C9
17:08:11.372 设备接收:03 03 1E 16 37 00 0E 00 08 16 39 00 09 00 05 15 E1 00 0D 00 07 16 4C 00 0E 00 08 14 38 00 0C 00 06 EC 42
17:08:11.419 设备发送:03 03 05 93 00 0F F4 CD
17:08:12.920 设备接收:03 03 1E 03 B4 00 00 00 00 10 E2 00 13 00 08 15 49 00 03 00 01 16 33 00 08 00 04 03 B8 00 00 00 00 5A BF
17:08:12.936 设备发送:03 03 05 A2 00 0F A5 02
17:08:14.433 设备接收:03 03 1E 00 0E 00 00 00 00 00 00 00 00 00 00 00 00 00 00 00 00 00 00 00 00 00 00 00 00 00 00 00 00 81 70
17:08:14.464 设备发送:03 03 05 B1 00 03 54 C2
17:08:16.006 设备发送:03 03 05 B1 00 03 54 C2
17:08:17.520 设备发送:03 03 05 B1 00 03 54 C2
17:08:19.053 设备发送:03 03 04 2B 00 01 F4 D0
17:08:20.583 设备发送:03 03 04 2B 00 01 F4 D0
17:08:22.097 设备发送:03 03 04 2B 00 01 F4 D0
17:08:23.643 设备发送:03 03 04 20 00 01 85 12
17:08:25.128 设备发送:03 03 04 20 00 01 85 12
17:08:26.668 设备发送:03 03 04 20 00 01 85 12
17:08:28.199 设备发送:03 03 04 05 00 01 94 D9
17:08:29.713 设备发送:03 03 04 05 00 01 94 D9
17:08:31.258 设备发送:03 03 04 05 00 01 94 D9
17:08:32.779 设备发送:01 03 04 84 00 04 05 10
17:08:34.311 设备发送:01 03 04 84 00 04 05 10
17:08:35.818 设备发送:01 03 04 84 00 04 05 10
17:08:37.379 设备发送:01 03 04 8D 00 21 14 C9
17:08:38.857 设备接收:01 03 42 08 DE 00 EC 00 00 00 00 00 00 00 00 00 00 00 00 00 00 00 00 00 00 08 D9 00 F1 00 00 00 00 00 00 00 00 00 00 00 00 00 00 00 00 00 00 08 E2 00 E9 00 00 00 00 00 00 00 00 00 00 00 00 00 00 00 00 00 00 2F AB
17:08:38.889 设备发送:01 03 06 84 00 04 04 A8
17:08:40.422 设备发送:01 03 06 84 00 04 04 A8
17:08:41.948 设备发送:01 03 06 84 00 04 04 A8
17:08:43.461 设备发送:01 03 04 04 00 01 C4 FB
17:08:44.990 设备发送:01 03 04 04 00 01 C4 FB
17:08:46.511 设备发送:01 03 04 04 00 01 C4 FB
17:08:48.055 设备发送:01 03 05 84 00 0F 45 2B
17:08:49.555 设备接收:01 03 1E 16 58 00 10 00 09 15 F4 00 09 00 05 15 CE 00 04 00 02 15 D6 00 0A 00 06 15 1B 00 04 00 02 A9 9E
17:08:49.587 设备发送:01 03 05 93 00 0F F5 2F
17:08:51.103 设备接收:01 03 1E 00 00 00 00 00 00 15 CF 00 10 00 08 15 80 00 00 00 00 16 16 00 07 00 04 00 00 00 01 00 00 53 15
17:08:51.136 设备发送:01 03 05 A2 00 0F A4 E0
17:08:52.607 设备接收:01 03 1E 00 00 00 00 00 00 00 00 00 00 00 00 00 00 00 00 00 00 00 00 00 00 00 00 00 00 00 00 00 00 D8 BA
17:08:52.638 设备发送:01 03 05 B1 00 03 55 20
17:08:54.170 设备发送:01 03 05 B1 00 03 55 20
17:08:55.698 设备发送:01 03 05 B1 00 03 55 20
17:08:57.207 设备发送:01 03 04 2B 00 01 F5 32
17:08:58.752 设备发送:01 03 04 2B 00 01 F5 32
17:09:00.252 设备发送:01 03 04 2B 00 01 F5 32
17:09:01.796 设备发送:01 03 04 20 00 01 84 F0
17:09:03.325 设备发送:01 03 04 20 00 01 84 F0
17:09:04.867 设备发送:01 03 04 20 00 01 84 F0
17:09:06.380 设备发送:01 03 04 05 00 01 95 3B
17:09:07.929 设备发送:01 03 04 05 00 01 95 3B
17:09:09.464 设备发送:01 03 04 05 00 01 95 3B
17:09:10.995 设备发送:02 03 04 84 00 04 05 23
17:09:12.531 设备发送:02 03 04 84 00 04 05 23
17:09:14.032 设备发送:02 03 04 84 00 04 05 23
17:09:15.563 设备发送:02 03 04 8D 00 21 14 FA
17:09:17.075 设备接收:02 03 42 08 E7 00 FB 00 00 00 00 00 00 00 00 00 00 00 00 00 00 00 00 00 00 08 E0 00 F9 00 00 00 00 00 00 00 00 00 00 00 00 00 00 00 00 00 00 08 E7 01 02 00 00 00 00 00 00 00 00 00 00 00 00 00 00 00 00 00 00 A3 7D
17:09:17.090 设备发送:02 03 06 84 00 04 04 9B
17:09:18.656 设备发送:02 03 06 84 00 04 04 9B
17:09:20.141 设备发送:02 03 06 84 00 04 04 9B
17:09:21.689 设备发送:02 03 04 04 00 01 C4 C8
17:09:23.205 设备发送:02 03 04 04 00 01 C4 C8
17:09:24.738 设备发送:02 03 04 04 00 01 C4 C8
17:09:26.269 设备发送:02 03 05 84 00 0F 45 18
17:09:27.756 设备接收:02 03 1E 16 4B 00 04 00 02 13 F1 00 00 00 00 16 1C 00 03 00 02 16 4C 00 08 00 04 16 2B 00 00 00 00 40 B6
17:09:27.802 设备发送:02 03 05 93 00 0F F5 1C
17:09:29.284 设备接收:02 03 1E 15 83 00 00 00 00 15 D5 00 0C 00 06 15 2F 00 08 00 04 14 8F 00 02 00 01 16 51 00 03 00 02 EE A1
17:09:29.335 设备发送:02 03 05 A2 00 0F A4 D3
17:09:30.830 设备接收:02 03 1E 00 00 00 00 00 00 00 00 00 00 00 00 00 00 00 00 00 00 00 00 00 00 00 00 00 00 00 00 00 00 6C BA
17:09:30.861 设备发送:02 03 05 B1 00 03 55 13
17:09:32.388 设备发送:02 03 05 B1 00 03 55 13
17:09:33.904 设备发送:02 03 05 B1 00 03 55 13
17:09:35.426 设备发送:02 03 04 2B 00 01 F5 01
17:09:36.954 设备发送:02 03 04 2B 00 01 F5 01
17:09:38.504 设备发送:02 03 04 2B 00 01 F5 01
17:09:40.018 设备发送:02 03 04 20 00 01 84 C3
17:09:41.532 设备发送:02 03 04 20 00 01 84 C3
17:09:43.072 设备发送:02 03 04 20 00 01 84 C3
17:09:44.616 设备发送:02 03 04 05 00 01 95 08
17:09:46.129 设备发送:02 03 04 05 00 01 95 08
17:09:47.675 设备发送:02 03 04 05 00 01 95 08
17:09:49.174 设备发送:03 03 04 84 00 04 04 F2
17:09:50.702 设备发送:03 03 04 84 00 04 04 F2
17:09:52.242 设备发送:03 03 04 84 00 04 04 F2
17:09:53.774 设备发送:03 03 04 8D 00 21 15 2B
17:09:55.270 设备接收:03 03 42 08 E4 01 0A 00 00 00 00 00 00 00 00 00 00 00 00 00 00 00 00 00 00 08 E0 00 FD 00 00 00 00 00 00 00 00 00 00 00 00 00 00 00 00 00 00 08 E6 01 10 00 00 00 00 00 00 00 00 00 00 00 00 00 00 00 00 00 00 3B 8E
17:09:55.301 设备发送:03 03 06 84 00 04 05 4A
17:09:56.816 设备发送:03 03 06 84 00 04 05 4A
17:09:58.366 设备发送:03 03 06 84 00 04 05 4A
17:09:59.866 设备发送:03 03 04 04 00 01 C5 19
17:10:01.380 设备发送:03 03 04 04 00 01 C5 19
17:10:02.932 设备发送:03 03 04 04 00 01 C5 19
17:10:04.463 设备发送:03 03 05 84 00 0F 44 C9
17:10:05.945 设备接收:03 03 1E 14 F9 00 09 00 05 15 E9 00 08 00 05 16 31 00 07 00 04 16 3E 00 0D 00 07 13 48 00 08 00 04 B7 59
17:10:05.976 设备发送:03 03 05 93 00 0F F4 CD
17:10:07.501 设备接收:03 03 1E 03 AF 00 00 00 00 10 43 00 11 00 07 15 9A 00 01 00 00 15 D4 00 06 00 03 03 B4 00 00 00 00 1F 20
17:10:07.517 设备发送:03 03 05 A2 00 0F A5 02
17:10:09.033 设备接收:03 03 1E 00 0E 00 00 00 00 00 00 00 00 00 00 00 00 00 00 00 00 00 00 00 00 00 00 00 00 00 00 00 00 81 70
17:10:09.049 设备发送:03 03 05 B1 00 03 54 C2
17:10:10.569 设备发送:03 03 05 B1 00 03 54 C2
17:10:12.067 设备发送:03 03 05 B1 00 03 54 C2
17:10:13.616 设备发送:03 03 04 2B 00 01 F4 D0
17:10:15.137 设备发送:03 03 04 2B 00 01 F4 D0
17:10:16.634 设备发送:03 03 04 2B 00 01 F4 D0
17:10:18.184 设备发送:03 03 04 20 00 01 85 12
17:10:19.716 设备发送:03 03 04 20 00 01 85 12
17:10:21.215 设备发送:03 03 04 20 00 01 85 12
17:10:22.768 设备发送:03 03 04 05 00 01 94 D9
17:10:24.273 设备发送:03 03 04 05 00 01 94 D9
17:10:25.792 设备发送:03 03 04 05 00 01 94 D9
17:10:27.321 设备发送:01 03 04 84 00 04 05 10
17:10:28.867 设备发送:01 03 04 84 00 04 05 10
17:10:30.389 设备发送:01 03 04 84 00 04 05 10
17:10:31.905 设备发送:01 03 04 8D 00 21 14 C9
17:10:33.434 设备接收:01 03 42 08 E7 01 09 00 00 00 00 00 00 00 00 00 00 00 00 00 00 00 00 00 00 08 E2 01 00 00 00 00 00 00 00 00 00 00 00 00 00 00 00 00 00 00 00 08 E8 01 13 00 00 00 00 00 00 00 00 00 00 00 00 00 00 00 00 00 00 0E 64
17:10:33.450 设备发送:01 03 06 84 00 04 04 A8
17:10:34.977 设备发送:01 03 06 84 00 04 04 A8
17:10:36.510 设备发送:01 03 06 84 00 04 04 A8
17:10:38.042 设备发送:01 03 04 04 00 01 C4 FB
17:10:39.558 设备发送:01 03 04 04 00 01 C4 FB
17:10:41.072 设备发送:01 03 04 04 00 01 C4 FB
17:10:42.605 设备发送:01 03 05 84 00 0F 45 2B
17:10:44.090 设备接收:01 03 1E 16 4D 00 0D 00 07 15 A0 00 04 00 02 15 30 00 01 00 00 15 D6 00 09 00 05 14 79 00 02 00 01 03 F5
17:10:44.137 设备发送:01 03 05 93 00 0F F5 2F
17:10:45.619 设备接收:01 03 1E 00 00 00 00 00 00 15 D2 00 0A 00 05 15 8A 00 00 00 00 15 D8 00 06 00 03 00 00 00 02 00 00 F1 5B
17:10:45.667 设备发送:01 03 05 A2 00 0F A4 E0
17:10:47.141 设备接收:01 03 1E 00 00 00 00 00 00 00 00 00 00 00 00 00 00 00 00 00 00 00 00 00 00 00 00 00 00 00 00 00 00 D8 BA
17:10:47.192 设备发送:01 03 05 B1 00 03 55 20
17:10:48.704 设备发送:01 03 05 B1 00 03 55 20
17:10:50.231 设备发送:01 03 05 B1 00 03 55 20
17:10:51.749 设备发送:01 03 04 2B 00 01 F5 32
17:10:53.311 设备发送:01 03 04 2B 00 01 F5 32
17:10:54.807 设备发送:01 03 04 2B 00 01 F5 32
17:10:56.338 设备发送:01 03 04 20 00 01 84 F0
17:10:57.884 设备发送:01 03 04 20 00 01 84 F0
17:10:59.413 设备发送:01 03 04 20 00 01 84 F0
17:11:00.945 设备发送:01 03 04 05 00 01 95 3B
17:11:02.459 设备发送:01 03 04 05 00 01 95 3B
17:11:03.989 设备发送:01 03 04 05 00 01 95 3B
17:11:05.517 设备发送:02 03 04 84 00 04 05 23
17:11:07.033 设备发送:02 03 04 84 00 04 05 23
