14:46:00.716 设备接收:08 03 0A 08 DB 0C CA 00 00 00 00 00 00 3C 39
14:46:00.748 设备发送:08 03 04 A3 00 05 74 42
14:46:05.738 设备接收:08 03 0A 08 E6 0C EB 00 00 00 00 00 00 01 AA
14:46:05.760 设备发送:08 03 06 84 00 04 04 31
14:46:10.746 设备接收:08 03 08 00 00 6B 05 00 0F EF 28 03 BD
14:46:10.793 设备发送:08 03 04 04 00 01 C4 62
14:46:15.774 设备接收:08 03 02 00 02 E5 84
14:46:15.805 设备发送:08 03 05 84 00 0F 45 B2
14:46:20.806 设备接收:08 03 1E 18 A5 01 13 00 AD 1A E9 00 C3 00 86 1A 2B 00 DA 00 92 1A 38 01 DA 01 3E 19 44 02 06 01 4F CF CF
14:46:20.821 设备发送:08 03 05 93 00 0F F5 B6
14:46:25.810 设备接收:08 03 1E 1D C0 02 0E 01 90 1D D0 01 0C 00 CC 1A 5A 00 FC 00 AA 19 2E 01 03 00 A7 19 DF 02 12 01 5F 60 BB
14:46:25.825 设备发送:08 03 05 A2 00 0F A4 79
14:46:30.858 设备接收:08 03 1E 00 00 00 08 00 00 00 00 00 03 00 00 00 00 00 00 00 00 00 00 00 00 00 00 00 00 00 00 00 00 18 DD
14:46:30.874 设备发送:08 03 05 B1 00 03 55 B9
14:46:35.882 设备接收:08 03 06 00 00 00 00 00 00 4B 25
14:46:35.897 设备发送:08 03 04 2B 00 01 F5 AB
14:46:40.879 设备接收:08 03 02 01 75 A4 32
14:46:40.926 设备发送:08 03 04 20 00 01 84 69
14:46:45.898 设备接收:08 03 02 00 31 A5 91
14:46:45.929 设备发送:08 03 04 05 00 01 95 A2
14:46:50.951 设备接收:08 03 02 00 00 64 45
14:46:50.967 设备发送:09 03 04 84 00 04 04 58
14:46:55.937 设备接收:09 03 08 13 84 07 80 00 0F 07 80 09 5C
14:46:55.952 设备发送:09 03 04 8D 00 05 15 9A
14:47:00.976 设备接收:09 03 0A 08 E5 0B 12 00 00 00 00 00 00 3F 32
14:47:00.992 设备发送:09 03 04 98 00 05 04 5E
14:47:06.009 设备接收:09 03 0A 08 DD 0B 35 00 00 00 00 00 00 5B F1
14:47:06.025 设备发送:09 03 04 A3 00 05 75 93
14:47:10.988 设备接收:09 03 0A 08 EB 0B 45 00 00 00 00 00 00 55 97
14:47:11.020 设备发送:09 03 06 84 00 04 05 E0
14:47:16.048 设备接收:09 03 08 00 00 5F 2C 00 0E 7D FB 23 CE
14:47:16.063 设备发送:09 03 04 04 00 01 C5 B3
14:47:21.049 设备接收:09 03 02 00 02 D8 44
14:47:21.065 设备发送:09 03 05 84 00 0F 44 63
14:47:26.079 设备接收:09 03 1E 1D B8 00 B9 00 8D 1D B0 00 BD 00 8F 1E 1F 00 C9 00 9B 1E 01 00 E4 00 AF 1D 5B 00 CC 00 99 05 7F
14:47:26.094 设备发送:09 03 05 93 00 0F F4 67
14:47:31.112 设备接收:09 03 1E 1D 7F 01 FD 01 80 1D 32 00 E9 00 AE 1D D2 02 0E 01 91 1C D8 00 F6 00 B5 1C D5 00 F6 00 B5 39 B6
14:47:31.128 设备发送:09 03 05 A2 00 0F A5 A8
14:47:36.150 设备接收:09 03 1E 00 03 00 00 00 00 00 00 00 03 00 00 00 00 00 00 00 00 00 00 00 00 00 00 00 00 00 00 00 00 CA 48
14:47:36.166 设备发送:09 03 05 B1 00 03 54 68
14:47:41.157 设备接收:09 03 06 00 00 00 00 00 00 46 B5
14:47:41.173 设备发送:09 03 04 2B 00 01 F4 7A
14:47:46.179 设备接收:09 03 02 01 8A D9 B2
14:47:46.195 设备发送:09 03 04 20 00 01 85 B8
14:47:51.201 设备接收:09 03 02 00 25 98 5E
14:47:51.232 设备发送:09 03 04 05 00 01 94 73
14:47:56.217 设备接收:09 03 02 00 00 59 85
14:47:56.232 设备发送:0A 03 04 84 00 04 04 6B
14:48:01.241 设备接收:0A 03 08 13 8B 01 E5 FF D0 01 F1 77 1C
14:48:01.257 设备发送:0A 03 04 8D 00 05 15 A9
14:48:06.268 设备接收:0A 03 0A 08 EE 02 DE 00 00 00 00 00 00 85 A7
14:48:06.284 设备发送:0A 03 04 98 00 05 04 6D
14:48:11.278 设备接收:0A 03 0A 08 E8 02 E8 00 00 00 00 00 00 F8 04
14:48:11.293 设备发送:0A 03 04 A3 00 05 75 A0
14:48:16.311 设备接收:0A 03 0A 08 F1 02 DE 00 00 00 00 00 00 09 97
14:48:16.327 设备发送:0A 03 06 84 00 04 05 D3
14:48:21.345 设备接收:0A 03 08 00 00 16 8B 00 03 45 60 D4 A2
14:48:21.360 设备发送:0A 03 04 04 00 01 C5 80
14:48:26.333 设备接收:0A 03 02 00 02 9C 44
14:48:26.348 设备发送:0A 03 05 84 00 0F 44 50
14:48:31.357 设备接收:0A 03 1E 18 71 00 F7 00 9A 18 86 01 0B 00 A8 18 37 01 18 00 AE 0B B0 00 00 00 00 00 00 00 00 00 00 C6 7E
14:48:31.405 设备发送:0A 03 05 93 00 0F F4 54
14:48:36.374 设备接收:0A 03 1E 00 00 00 00 00 00 00 00 00 00 00 00 00 00 00 00 00 00 00 00 00 00 00 00 00 00 00 00 00 00 0D 79
14:48:36.420 设备发送:0A 03 05 A2 00 0F A5 9B
14:48:41.399 设备接收:0A 03 1E 00 00 00 00 00 00 00 00 00 00 00 00 00 00 00 00 00 00 00 00 00 00 00 00 00 00 00 00 00 00 0D 79
14:48:41.430 设备发送:0A 03 05 B1 00 03 54 5B
14:48:46.436 设备接收:0A 03 06 00 00 00 00 00 00 52 45
14:48:46.451 设备发送:0A 03 04 2B 00 01 F4 49
14:48:51.441 设备接收:0A 03 02 01 A2 9D AC
14:48:51.487 设备发送:0A 03 04 20 00 01 85 8B
14:48:56.468 设备接收:0A 03 02 00 1A 9C 4E
14:48:56.499 设备发送:0A 03 04 05 00 01 94 40
14:49:01.481 设备接收:0A 03 02 00 00 1D 85
14:49:01.497 设备发送:01 03 04 84 00 04 05 10
14:49:06.516 设备接收:01 03 08 13 87 0B 43 00 15 0B 43 30 77
14:49:06.531 设备发送:01 03 04 8D 00 05 14 D2
14:49:11.530 设备接收:01 03 0A 08 E6 11 03 00 00 00 00 00 00 B4 F8
14:49:11.546 设备发送:01 03 04 98 00 05 05 16
14:49:16.537 设备接收:01 03 0A 08 F2 11 CF 00 00 00 00 00 00 47 F4
14:49:16.556 设备发送:01 03 04 A3 00 05 74 DB
14:49:21.558 设备接收:01 03 0A 08 F5 12 1D 00 00 00 00 00 00 D3 DC
14:49:21.605 设备发送:01 03 06 84 00 04 04 A8
14:49:26.611 设备接收:01 03 08 00 00 82 69 00 13 7C C4 07 6A
14:49:26.626 设备发送:01 03 04 04 00 01 C4 FB
14:49:31.624 设备接收:01 03 02 00 02 39 85
14:49:31.640 设备发送:01 03 05 84 00 0F 45 2B
14:49:36.640 设备接收:01 03 1E 1F 66 02 93 02 12 1F 40 02 9B 02 15 1F 82 02 89 02 0B 1F D8 02 92 02 18 17 BC 01 45 00 C5 D7 17
14:49:36.655 设备发送:01 03 05 93 00 0F F5 2F
14:49:41.649 设备接收:01 03 1E 00 00 00 00 00 00 1A 2E 02 B7 01 D1 1C 43 01 4D 00 F1 1C 3B 01 56 00 F7 00 00 00 01 00 00 C8 F5
14:49:41.664 设备发送:01 03 05 A2 00 0F A4 E0
14:49:46.688 设备接收:01 03 1E 00 00 00 00 00 00 00 00 00 00 00 00 00 00 00 00 00 00 00 00 00 00 00 00 00 00 00 00 00 00 D8 BA
14:49:46.704 设备发送:01 03 05 B1 00 03 55 20
14:49:51.715 设备接收:01 03 06 00 00 00 00 00 00 21 75
14:49:51.730 设备发送:01 03 04 2B 00 01 F5 32
14:49:56.718 设备接收:01 03 02 01 D0 B8 48
14:49:56.733 设备发送:01 03 04 20 00 01 84 F0
14:50:01.734 设备接收:01 03 02 00 2C B9 99
14:50:01.764 设备发送:01 03 04 05 00 01 95 3B
14:50:06.771 设备接收:01 03 02 00 00 B8 44
14:50:06.847 设备发送:02 03 04 84 00 04 05 23
14:50:11.777 设备接收:02 03 08 13 8C 0B 4C FF C1 0B 4D 20 1A
14:50:11.808 设备发送:02 03 04 8D 00 05 14 E1
14:50:16.807 设备接收:02 03 0A 08 EA 10 5C 00 00 00 00 00 00 8A F2
14:50:16.823 设备发送:02 03 04 98 00 05 05 25
14:50:21.813 设备接收:02 03 0A 08 F3 10 57 00 00 00 00 00 00 97 A2
14:50:21.828 设备发送:02 03 04 A3 00 05 74 E8
14:50:26.821 设备发送:02 03 04 A3 00 05 74 E8
14:50:31.863 设备接收:02 03 0A 08 F1 10 07 00 00 00 00 00 00 DE C7
14:50:31.879 设备发送:02 03 06 84 00 04 04 9B
14:50:36.864 设备接收:02 03 08 00 00 7E 21 00 13 C2 30 8C 3B
14:50:36.880 设备发送:02 03 04 04 00 01 C4 C8
14:50:41.888 设备接收:02 03 02 00 02 7D 85
14:50:41.904 设备发送:02 03 05 84 00 0F 45 18
14:50:46.894 设备接收:02 03 1E 1F 66 01 35 00 F8 1F 82 01 29 00 F0 1F 3A 01 38 00 F9 1F 99 02 68 01 F3 20 2E 01 27 00 F3 D1 72
14:50:46.925 设备发送:02 03 05 93 00 0F F5 1C
14:50:51.946 设备接收:02 03 1E 1F 4C 01 2D 00 F1 20 16 01 3A 01 02 1F 87 02 81 02 06 1F 50 01 46 01 05 1F 57 01 52 01 0F 6C 4E
14:50:51.961 设备发送:02 03 05 A2 00 0F A4 D3
14:50:56.947 设备接收:02 03 1E 00 00 00 03 00 00 00 00 00 00 00 00 00 00 00 00 00 00 00 00 00 00 00 00 00 00 00 00 00 00 6D 7D
14:50:56.964 设备发送:02 03 05 B1 00 03 55 13
14:51:01.954 设备接收:02 03 06 00 00 00 00 00 00 35 85
14:51:01.970 设备发送:02 03 04 2B 00 01 F5 01
14:51:07.002 设备接收:02 03 02 01 CC FD 81
14:51:07.018 设备发送:02 03 04 20 00 01 84 C3
14:51:12.030 设备接收:02 03 02 00 39 3C 56
14:51:12.045 设备发送:02 03 04 05 00 01 95 08
14:51:17.024 设备接收:02 03 02 00 00 FC 44
14:51:17.056 设备发送:03 03 04 84 00 04 04 F2
14:51:22.032 设备接收:03 03 08 13 86 0C 12 00 18 0C 13 44 BB
14:51:22.064 设备发送:03 03 04 8D 00 05 15 30
14:51:27.085 设备接收:03 03 0A 08 E6 11 5F 00 00 00 00 00 00 2F BF
14:51:27.101 设备发送:03 03 04 98 00 05 04 F4
14:51:32.082 设备接收:03 03 0A 08 F4 11 1D 00 00 00 00 00 00 99 1B
14:51:32.114 设备发送:03 03 04 A3 00 05 75 39
14:51:37.128 设备接收:03 03 0A 08 F1 10 E9 00 00 00 00 00 00 D2 48
14:51:37.143 设备发送:03 03 06 84 00 04 05 4A
14:51:42.134 设备接收:03 03 08 00 00 8C 17 00 14 54 3D 4A 75
14:51:42.150 设备发送:03 03 04 04 00 01 C5 19
14:51:47.128 设备接收:03 03 02 00 02 40 45
14:51:47.159 设备发送:03 03 05 84 00 0F 44 C9
14:51:52.182 设备接收:03 03 1E 1E E6 02 7C 01 F7 1F 0A 02 7C 01 F9 1F 2A 02 6A 01 ED 1F 36 02 68 01 EC 17 50 02 64 01 6D 05 84
14:51:52.198 设备发送:03 03 05 93 00 0F F4 CD
14:51:57.197 设备接收:03 03 1E 05 22 00 00 00 00 12 58 02 4C 01 14 1B A6 01 3C 00 DF 1B CB 01 40 00 E4 05 28 00 00 00 00 26 A3
14:51:57.217 设备发送:03 03 05 A2 00 0F A5 02
14:52:02.202 设备接收:03 03 1E 00 0E 00 00 00 00 00 00 00 00 00 00 00 00 00 00 00 00 00 00 00 00 00 00 00 00 00 00 00 00 81 70
14:52:02.217 设备发送:03 03 05 B1 00 03 54 C2
14:52:07.205 设备接收:03 03 06 00 00 00 00 00 00 38 15
14:52:07.252 设备发送:03 03 04 2B 00 01 F4 D0
14:52:12.239 设备接收:03 03 02 01 E4 C0 5F
14:52:12.255 设备发送:03 03 04 20 00 01 85 12
14:52:17.252 设备接收:03 03 02 00 35 01 93
14:52:17.282 设备发送:03 03 04 05 00 01 94 D9
14:52:22.283 设备接收:03 03 02 00 00 C1 84
14:52:22.314 设备发送:04 03 04 84 00 04 05 45
14:52:27.287 设备接收:04 03 08 13 87 09 69 00 17 09 69 18 E0
14:52:27.302 设备发送:04 03 04 8D 00 05 14 87
14:52:32.329 设备接收:04 03 0A 08 E7 0D A6 00 00 00 00 00 00 41 3E
14:52:32.345 设备发送:04 03 04 98 00 05 05 43
14:52:37.354 设备接收:04 03 0A 08 DE 0D 74 00 00 00 00 00 00 8D 62
14:52:37.386 设备发送:04 03 04 A3 00 05 74 8E
14:52:42.355 设备接收:04 03 0A 08 EE 0D 51 00 00 00 00 00 00 AD A1
14:52:42.370 设备发送:04 03 06 84 00 04 04 FD
14:52:47.378 设备接收:04 03 08 00 00 76 14 00 11 87 F7 CD 3D
14:52:47.394 设备发送:04 03 04 04 00 01 C4 AE
14:52:52.395 设备接收:04 03 02 00 02 F5 85
14:52:52.411 设备发送:04 03 05 84 00 0F 45 7E
14:52:57.403 设备接收:04 03 1E 1A 36 01 05 00 AF 1B C2 02 1A 01 7E 1A 2B 01 11 00 B7 1C 15 02 30 01 92 1B 75 02 35 01 8D 2F E8
14:52:57.434 设备发送:04 03 05 93 00 0F F5 7A
14:53:02.442 设备发送:04 03 05 A2 00 0F A4 B5
14:53:02.473 设备接收:04 03 1E 1B E5 02 32 01 91 1C 3E 02 23 01 8B 04 8F 00 01 00 00 04 AE 00 04 00 00 04 A5 00 00 00 00 D3 4A
14:53:07.449 设备接收:04 03 1E 00 00 00 00 00 00 00 01 00 04 00 00 00 00 00 00 00 00 00 00 00 00 00 00 00 00 00 00 00 00 8C A3
14:53:07.496 设备发送:04 03 05 B1 00 03 55 75
14:53:12.471 设备接收:04 03 06 00 00 00 00 00 00 1E 25
14:53:12.486 设备发送:04 03 04 2B 00 01 F5 67
14:53:17.510 设备接收:04 03 02 01 BB 35 A7
14:53:17.526 设备发送:04 03 04 20 00 01 84 A5
14:53:22.521 设备接收:04 03 02 00 26 F5 9E
14:53:22.536 设备发送:04 03 04 05 00 01 95 6E
14:53:27.533 设备接收:04 03 02 00 00 74 44
14:53:27.580 设备发送:05 03 04 84 00 04 04 94
14:53:32.560 设备接收:05 03 08 13 89 07 B0 FF F4 07 B0 EB 39
14:53:32.592 设备发送:05 03 04 8D 00 05 15 56
14:53:37.580 设备接收:05 03 0A 08 E1 0B B0 00 00 00 00 00 00 9F F4
14:53:37.596 设备发送:05 03 04 98 00 05 04 92
14:53:42.606 设备接收:05 03 0A 08 E9 0B E2 00 00 00 00 00 00 8B F1
14:53:42.622 设备发送:05 03 04 A3 00 05 75 5F
14:53:47.629 设备接收:05 03 0A 08 EF 0B FD 00 00 00 00 00 00 4E 90
14:53:47.645 设备发送:05 03 06 84 00 04 05 2C
14:53:52.638 设备接收:05 03 08 00 00 62 D3 00 0E CA 59 FA 2E
14:53:52.654 设备发送:05 03 04 04 00 01 C5 7F
14:53:57.672 设备接收:05 03 02 00 02 C8 45
14:53:57.688 设备发送:05 03 05 84 00 0F 44 AF
14:54:02.698 设备接收:05 03 1E 04 A2 00 00 00 00 17 39 02 BA 01 9F 16 FA 02 68 01 6A 17 5C 02 87 01 83 1D EC 01 45 00 F9 47 34
14:54:02.714 设备发送:05 03 05 93 00 0F F4 AB
14:54:07.705 设备接收:05 03 1E 1E 16 01 4B 00 FF 04 8E 00 06 00 00 18 EE 02 A5 01 B0 04 9D 00 00 00 00 15 AD 02 AA 01 7A 83 BE
14:54:07.721 设备发送:05 03 05 A2 00 0F A5 64
14:54:12.735 设备接收:05 03 1E 00 06 00 00 00 00 00 00 00 03 00 00 00 00 00 00 00 00 00 00 00 00 00 00 00 00 00 00 00 00 DA 4C
14:54:12.751 设备发送:05 03 05 B1 00 03 54 A4
14:54:17.739 设备接收:05 03 06 00 00 00 00 00 00 13 B5
14:54:17.755 设备发送:05 03 04 2B 00 01 F4 B6
14:54:22.765 设备接收:05 03 02 01 CC 48 41
14:54:22.780 设备发送:05 03 04 20 00 01 85 74
14:54:27.806 设备接收:05 03 02 00 36 C9 92
14:54:27.822 设备发送:05 03 04 05 00 01 94 BF
14:54:32.801 设备接收:05 03 02 00 00 49 84
14:54:32.817 设备发送:06 03 04 84 00 04 04 A7
14:54:37.819 设备接收:06 03 08 13 87 08 5B FF F1 08 5B 7A EB
14:54:37.850 设备发送:06 03 04 8D 00 05 15 65
14:54:42.845 设备接收:06 03 0A 08 EA 0C 35 00 00 00 00 00 00 7C 29
14:54:42.861 设备发送:06 03 04 98 00 05 04 A1
14:54:47.857 设备接收:06 03 0A 08 E8 0C 22 00 00 00 00 00 00 02 48
14:54:47.888 设备发送:06 03 04 A3 00 05 75 6C
14:54:52.894 设备接收:06 03 0A 08 EF 0C 86 00 00 00 00 00 00 C1 B2
14:54:52.909 设备发送:06 03 06 84 00 04 05 1F
14:54:57.904 设备接收:06 03 08 00 00 5F 87 00 0E B6 F7 61 37
14:54:57.920 设备发送:06 03 04 04 00 01 C5 4C
14:55:02.916 设备接收:06 03 02 00 02 8C 45
14:55:02.963 设备发送:06 03 05 84 00 0F 44 9C
14:55:07.943 设备接收:06 03 1E 04 92 00 05 00 00 1C 86 02 67 01 C1 1C 8B 02 72 01 C9 1A 64 01 40 00 D8 1E 38 02 85 01 F3 06 1C
14:55:07.959 设备发送:06 03 05 93 00 0F F4 98
14:55:12.971 设备接收:06 03 1E 04 93 00 00 00 00 04 81 00 02 00 00 17 78 02 7D 01 7E 04 83 00 06 00 00 15 A8 02 7E 01 62 12 F3
14:55:12.988 设备发送:06 03 05 A2 00 0F A5 57
14:55:17.989 设备接收:06 03 1E 00 0A 00 00 00 00 00 00 00 00 00 00 00 00 00 00 00 00 00 00 00 00 00 00 00 00 00 00 00 00 5D 76
14:55:18.021 设备发送:06 03 05 B1 00 03 54 97
14:55:23.012 设备接收:06 03 06 00 00 00 00 00 00 07 45
14:55:23.027 设备发送:06 03 04 2B 00 01 F4 85
14:55:28.020 设备接收:06 03 02 01 CF 4C 40
14:55:28.068 设备发送:06 03 04 20 00 01 85 47
14:55:33.044 设备接收:06 03 02 00 33 4D 91
14:55:33.076 设备发送:06 03 04 05 00 01 94 8C
14:55:38.078 设备接收:06 03 02 00 00 0D 84
14:55:38.093 设备发送:07 03 04 84 00 04 05 76
14:55:43.082 设备接收:07 03 08 13 8A 04 A3 FF D9 04 A9 07 42
14:55:43.113 设备发送:07 03 04 8D 00 05 14 B4
14:55:48.117 设备接收:07 03 0A 08 E7 06 A1 00 00 00 00 00 00 73 8E
14:55:48.132 设备发送:07 03 04 98 00 05 05 70
14:55:53.147 设备接收:07 03 0A 08 E8 06 7F 00 00 00 00 00 00 0C 73
14:55:53.162 设备发送:07 03 04 A3 00 05 74 BD
14:55:58.145 设备接收:07 03 0A 08 EA 06 4F 00 00 00 00 00 00 25 10
14:55:58.176 设备发送:07 03 06 84 00 04 04 CE
14:56:03.190 设备接收:07 03 08 00 00 33 7D 00 07 52 73 2F D2
14:56:03.206 设备发送:07 03 04 04 00 01 C4 9D
14:56:08.178 设备接收:07 03 02 00 02 B1 85
14:56:08.195 设备发送:07 03 05 84 00 0F 45 4D
14:56:13.217 设备接收:07 03 1E 18 E5 02 36 01 69 1A 4A 01 27 00 C6 1A 72 01 23 00 C5 18 8F 02 49 01 70 00 00 00 00 00 00 0F 2C
14:56:13.234 设备发送:07 03 05 93 00 0F F5 49
14:56:18.247 设备接收:07 03 1E 00 00 00 00 00 00 00 00 00 00 00 00 00 00 00 00 00 00 00 00 00 00 00 00 00 00 00 00 00 00 B0 BB
14:56:18.263 设备发送:07 03 05 A2 00 0F A4 86
14:56:23.267 设备接收:07 03 1E 00 00 00 00 00 00 00 00 00 00 00 00 00 00 00 00 00 00 00 00 00 00 00 00 00 00 00 00 00 00 B0 BB
14:56:23.283 设备发送:07 03 05 B1 00 03 55 46
14:56:28.271 设备接收:07 03 06 00 00 00 00 00 00 0A D5
14:56:28.303 设备发送:07 03 04 2B 00 01 F5 54
14:56:33.290 设备接收:07 03 02 01 74 31 F3
14:56:33.306 设备发送:07 03 04 20 00 01 84 96
14:56:38.332 设备接收:07 03 02 00 17 70 4A
14:56:38.348 设备发送:07 03 04 05 00 01 95 5D
14:56:43.357 设备接收:07 03 02 00 00 30 44
14:56:43.373 设备发送:08 03 04 84 00 04 05 89
14:56:48.353 设备接收:08 03 08 13 89 07 F8 FF F1 07 F8 20 AC
14:56:48.368 设备发送:08 03 04 8D 00 05 14 4B
14:56:53.402 设备接收:08 03 0A 08 D9 0B B3 00 00 00 00 00 00 8C 78
14:56:53.418 设备发送:08 03 04 98 00 05 05 8F
14:56:58.392 设备接收:08 03 0A 08 D3 0B E4 00 00 00 00 00 00 D4 1D
14:56:58.407 设备发送:08 03 04 A3 00 05 74 42
14:57:03.409 设备接收:08 03 0A 08 DF 0C 5E 00 00 00 00 00 00 DB 30
14:57:03.424 设备发送:08 03 06 84 00 04 04 31
14:57:08.445 设备接收:08 03 08 00 00 6C A7 00 0F EF 52 7A 30
14:57:08.460 设备发送:08 03 04 04 00 01 C4 62
14:57:13.470 设备接收:08 03 02 00 02 E5 84
14:57:13.486 设备发送:08 03 05 84 00 0F 45 B2
14:57:18.476 设备接收:08 03 1E 1A 83 00 F6 00 A7 1A 9D 00 B3 00 7A 1A 7B 00 C5 00 85 1A FD 01 92 01 15 19 69 01 C8 01 28 02 8C
14:57:18.492 设备发送:08 03 05 93 00 0F F5 B6
14:57:23.507 设备接收:08 03 1E 1D 96 01 D7 01 65 1D D0 00 F0 00 B7 1A AA 00 DF 00 98 18 DF 00 EC 00 96 1A 2E 01 D0 01 37 A7 02
14:57:23.523 设备发送:08 03 05 A2 00 0F A4 79
14:57:28.546 设备接收:08 03 1E 00 00 00 08 00 00 00 00 00 05 00 00 00 00 00 00 00 00 00 00 00 00 00 00 00 00 00 00 00 00 7E BB
14:57:28.562 设备发送:08 03 05 B1 00 03 55 B9
14:57:33.544 设备接收:08 03 06 00 00 00 00 00 00 4B 25
14:57:33.560 设备发送:08 03 04 2B 00 01 F5 AB
14:57:38.576 设备接收:08 03 02 01 75 A4 32
14:57:38.592 设备发送:08 03 04 20 00 01 84 69
14:57:43.577 设备接收:08 03 02 00 28 64 5B
14:57:43.609 设备发送:08 03 04 05 00 01 95 A2
14:57:48.610 设备接收:08 03 02 00 00 64 45
14:57:48.625 设备发送:09 03 04 84 00 04 04 58
14:57:53.612 设备接收:09 03 08 13 8B 07 6B FF F3 07 6B 62 20
14:57:53.660 设备发送:09 03 04 8D 00 05 15 9A
14:57:58.669 设备接收:09 03 0A 08 E2 0B 03 00 00 00 00 00 00 18 03
14:57:58.685 设备发送:09 03 04 98 00 05 04 5E
14:58:03.672 设备接收:09 03 0A 08 DC 0B 08 00 00 00 00 00 00 BA A2
14:58:03.687 设备发送:09 03 04 A3 00 05 75 93
14:58:08.690 设备接收:09 03 0A 08 E9 0B 2A 00 00 00 00 00 00 D3 F1
14:58:08.706 设备发送:09 03 06 84 00 04 05 E0
14:58:13.699 设备接收:09 03 08 00 00 60 9C 00 0E 7E 20 27 B0
14:58:13.715 设备发送:09 03 04 04 00 01 C5 B3
14:58:18.709 设备接收:09 03 02 00 02 D8 44
14:58:18.726 设备发送:09 03 05 84 00 0F 44 63
14:58:23.732 设备接收:09 03 1E 1E 06 00 BD 00 91 1D FF 00 BF 00 93 1E 19 00 D1 00 A1 1E 9F 00 E6 00 B4 1D A6 00 CF 00 9D 57 0E
14:58:23.794 设备发送:09 03 05 93 00 0F F4 67
14:58:28.778 设备接收:09 03 1E 1D D2 01 F1 01 7B 1D D6 00 E4 00 AE 1D FC 02 07 01 8E 1D 27 00 EF 00 B2 1D 29 00 EF 00 B3 02 6D
14:58:28.809 设备发送:09 03 05 A2 00 0F A5 A8
14:58:33.784 设备接收:09 03 1E 00 02 00 00 00 00 00 01 00 03 00 00 00 00 00 00 00 00 00 00 00 00 00 00 00 00 00 00 00 00 C7 D5
14:58:33.816 设备发送:09 03 05 B1 00 03 54 68
14:58:38.827 设备接收:09 03 06 00 00 00 00 00 00 46 B5
14:58:38.906 设备发送:09 03 04 2B 00 01 F4 7A
14:58:43.860 设备接收:09 03 02 01 8A D9 B2
14:58:43.874 设备发送:09 03 04 20 00 01 85 B8
14:58:48.871 设备接收:09 03 02 00 2D 99 98
14:58:48.886 设备发送:09 03 04 05 00 01 94 73
14:58:53.882 设备接收:09 03 02 00 00 59 85
14:58:53.914 设备发送:0A 03 04 84 00 04 04 6B
14:58:58.900 设备接收:0A 03 08 13 85 01 C4 FF D7 01 D0 55 02
14:58:58.933 设备发送:0A 03 04 8D 00 05 15 A9
14:59:03.922 设备接收:0A 03 0A 08 EA 02 9E 00 00 00 00 00 00 F6 A3
14:59:03.938 设备发送:0A 03 04 98 00 05 04 6D
14:59:08.944 设备接收:0A 03 0A 08 E5 02 90 00 00 00 00 00 00 58 93
14:59:08.960 设备发送:0A 03 04 A3 00 05 75 A0
14:59:13.984 设备接收:0A 03 0A 08 EB 02 78 00 00 00 00 00 00 7C FD
14:59:14.000 设备发送:0A 03 06 84 00 04 05 D3
14:59:18.993 设备接收:0A 03 08 00 00 16 DF 00 03 45 69 25 68
14:59:19.025 设备发送:0A 03 04 04 00 01 C5 80
14:59:24.018 设备接收:0A 03 02 00 02 9C 44
14:59:24.034 设备发送:0A 03 05 84 00 0F 44 50
14:59:29.045 设备接收:0A 03 1E 19 11 00 CE 00 84 19 77 00 DF 00 91 18 89 00 F6 00 9A 0C 12 00 00 00 00 00 00 00 00 00 00 97 13
14:59:29.061 设备发送:0A 03 05 93 00 0F F4 54
14:59:34.081 设备接收:0A 03 1E 00 00 00 00 00 00 00 00 00 00 00 00 00 00 00 00 00 00 00 00 00 00 00 00 00 00 00 00 00 00 0D 79
14:59:34.096 设备发送:0A 03 05 A2 00 0F A5 9B
14:59:39.104 设备接收:0A 03 1E 00 00 00 00 00 00 00 00 00 00 00 00 00 00 00 00 00 00 00 00 00 00 00 00 00 00 00 00 00 00 0D 79
14:59:39.120 设备发送:0A 03 05 B1 00 03 54 5B
14:59:41.58300

