15:31:33.37500
15:31:33.37800
15:31:33.38100
15:31:33.40000
15:31:34.258 设备接收:04 03 0A 08 E0 12 38 00 00 00 00 00 00 59 8B
15:31:34.280 设备发送:04 03 04 A3 00 05 74 8E
15:31:39.305 设备接收:04 03 0A 08 FB 12 51 00 00 00 00 00 00 1E 7D
15:31:39.321 设备发送:04 03 06 84 00 04 04 FD
15:31:44.318 设备发送:04 03 04 04 00 01 C4 AE
15:31:44.333 设备接收:04 03 08 00 00 9A 83 00 11 4D 8E 39 0E
15:31:49.347 设备接收:04 03 02 00 02 F5 85
15:31:49.363 设备发送:04 03 05 84 00 0F 45 7E
15:31:54.361 设备接收:04 03 1E 1B 27 01 7E 01 0A 1D 05 02 C4 02 0E 1A CB 01 90 01 12 1C 3B 03 35 02 51 1C 17 03 38 02 50 BF 10
15:31:54.392 设备发送:04 03 05 93 00 0F F5 7A
15:31:59.370 设备接收:04 03 1E 1B BE 03 27 02 3D 1C 3F 02 B0 01 F1 04 A4 00 00 00 00 04 C1 00 04 00 00 04 B4 00 00 00 00 B1 A9
15:31:59.417 设备发送:04 03 05 A2 00 0F A4 B5
15:32:04.412 设备接收:04 03 1E 00 00 00 00 00 00 00 01 00 03 00 00 00 00 00 00 00 00 00 00 00 00 00 00 00 00 00 00 00 00 FA 14
15:32:04.426 设备发送:04 03 05 B1 00 03 55 75
15:32:09.426 设备接收:04 03 06 00 00 00 00 00 00 1E 25
15:32:09.441 设备发送:04 03 04 2B 00 01 F5 67
15:32:14.441 设备接收:04 03 02 02 CB 34 B3
15:32:14.473 设备发送:04 03 04 20 00 01 84 A5
15:32:19.462 设备接收:04 03 02 00 23 35 9D
15:32:19.478 设备发送:04 03 04 05 00 01 95 6E
15:32:24.488 设备接收:04 03 02 00 00 74 44
15:32:24.517 设备发送:05 03 04 84 00 04 04 94
15:32:29.499 设备接收:05 03 08 13 86 09 FC FF C7 09 FC F1 43
15:32:29.530 设备发送:05 03 04 8D 00 05 15 56
15:32:34.547 设备接收:05 03 0A 08 EA 0E 90 00 00 00 00 00 00 0D 39
15:32:34.562 设备发送:05 03 04 98 00 05 04 92
15:32:39.566 设备接收:05 03 0A 08 F5 0E 8A 00 00 00 00 00 00 3A C8
15:32:39.581 设备发送:05 03 04 A3 00 05 75 5F
15:32:44.578 设备接收:05 03 0A 08 F5 0E 98 00 00 00 00 00 00 08 C9
15:32:44.593 设备发送:05 03 06 84 00 04 05 2C
15:32:49.590 设备接收:05 03 08 00 00 80 DD 00 0E 99 B4 78 D0
15:32:49.606 设备发送:05 03 04 04 00 01 C5 7F
15:32:54.624 设备接收:05 03 02 00 02 C8 45
15:32:54.640 设备发送:05 03 05 84 00 0F 44 AF
15:32:59.623 设备接收:05 03 1E 04 A6 00 00 00 00 17 4B 03 1C 01 DA 13 4C 02 80 01 3C 17 90 02 DF 01 BB 1E 4A 01 5E 01 0F D5 94
15:32:59.639 设备发送:05 03 05 93 00 0F F4 AB
15:33:04.659 设备接收:05 03 1E 1E 73 01 6F 01 1E 04 91 00 04 00 00 19 4E 02 EC 01 E4 04 9E 00 00 00 00 15 C0 02 ED 01 A1 6F 96
15:33:04.675 设备发送:05 03 05 A2 00 0F A5 64
15:33:09.693 设备接收:05 03 1E 00 06 00 00 00 00 00 00 00 03 00 00 00 00 00 00 00 00 00 00 00 00 00 00 00 00 00 00 00 00 DA 4C
15:33:10.178 设备发送:05 03 05 B1 00 03 54 A4
15:33:14.695 设备接收:05 03 06 00 00 00 00 00 00 13 B5
15:33:14.711 设备发送:05 03 04 2B 00 01 F4 B6
15:33:19.720 设备接收:05 03 02 02 CB 09 73
15:33:19.736 设备发送:05 03 04 20 00 01 85 74
15:33:24.747 设备接收:05 03 02 00 33 09 91
15:33:24.762 设备发送:05 03 04 05 00 01 94 BF
15:33:29.765 设备接收:05 03 02 00 00 49 84
15:33:29.780 设备发送:06 03 04 84 00 04 04 A7
15:33:34.768 设备接收:06 03 08 13 88 06 FF FF F0 07 00 E0 D7
15:33:34.783 设备发送:06 03 04 8D 00 05 15 65
15:33:39.807 设备接收:06 03 0A 08 E5 0A 4C 00 00 00 00 00 00 55 34
15:33:39.821 设备发送:06 03 04 98 00 05 04 A1
15:33:44.828 设备接收:06 03 0A 08 E8 0A 44 00 00 00 00 00 00 84 64
15:33:44.844 设备发送:06 03 04 A3 00 05 75 6C
15:33:49.838 设备接收:06 03 0A 08 F0 0A 72 00 00 00 00 00 00 78 67
15:33:49.854 设备发送:06 03 06 84 00 04 05 1F
15:33:54.841 设备接收:06 03 08 00 00 7C B2 00 0E 88 38 BA 54
15:33:54.887 设备发送:06 03 04 04 00 01 C5 4C
15:33:59.863 设备接收:06 03 02 00 02 8C 45
15:33:59.910 设备发送:06 03 05 84 00 0F 44 9C
15:34:04.888 设备接收:06 03 1E 04 BD 00 04 00 00 1D 73 01 D8 01 64 1D 57 01 E5 01 6C 1C 44 00 EE 00 AC 1F 82 01 E6 01 88 91 30
15:34:04.912 设备发送:06 03 05 93 00 0F F4 98
15:34:09.914 设备接收:06 03 1E 04 BC 00 00 00 00 04 AC 00 00 00 00 18 44 01 F5 01 37 04 AD 00 05 00 00 15 D8 02 7F 01 65 60 66
15:34:09.945 设备发送:06 03 05 A2 00 0F A5 57
15:34:14.948 设备接收:06 03 1E 00 08 00 00 00 00 00 00 00 00 00 00 00 00 00 00 00 00 00 00 00 00 00 00 00 00 00 00 00 00 DD 75
15:34:14.964 设备发送:06 03 05 B1 00 03 54 97
15:34:19.960 设备接收:06 03 06 00 00 00 00 00 00 07 45
15:34:19.974 设备发送:06 03 04 2B 00 01 F4 85
15:34:24.999 设备接收:06 03 02 02 C7 4D 76
15:34:25.016 设备发送:06 03 04 20 00 01 85 47
15:34:29.977 设备接收:06 03 02 00 26 8C 5E
15:34:30.040 设备发送:06 03 04 05 00 01 94 8C
15:34:35.028 设备接收:06 03 02 00 00 0D 84
15:34:35.060 设备发送:07 03 04 84 00 04 05 76
15:34:40.054 设备接收:07 03 08 13 85 04 02 FF E2 04 06 74 2A
15:34:40.070 设备发送:07 03 04 8D 00 05 14 B4
15:34:45.058 设备接收:07 03 0A 08 E8 05 E3 00 00 00 00 00 00 10 6F
15:34:45.073 设备发送:07 03 04 98 00 05 05 70
15:34:50.075 设备接收:07 03 0A 08 E6 05 E2 00 00 00 00 00 00 4C CF
15:34:50.106 设备发送:07 03 04 A3 00 05 74 BD
15:34:55.091 设备接收:07 03 0A 08 EA 05 E1 00 00 00 00 00 00 2A CF
15:34:55.106 设备发送:07 03 06 84 00 04 04 CE
15:35:00.131 设备接收:07 03 08 00 00 43 6A 00 07 39 4B 7E 03
15:35:00.146 设备发送:07 03 04 04 00 01 C4 9D
15:35:05.152 设备接收:07 03 02 00 02 B1 85
15:35:05.167 设备发送:07 03 05 84 00 0F 45 4D
15:35:10.145 设备接收:07 03 1E 1A 1B 01 E2 01 42 16 CE 01 63 00 CF 12 EF 01 3B 00 99 19 23 02 6F 01 91 00 00 00 00 00 00 5C 3E
15:35:10.174 设备发送:07 03 05 93 00 0F F5 49
15:35:15.191 设备接收:07 03 1E 00 00 00 00 00 00 00 00 00 00 00 00 00 00 00 00 00 00 00 00 00 00 00 00 00 00 00 00 00 00 B0 BB
15:35:15.220 设备发送:07 03 05 A2 00 0F A4 86
15:35:20.202 设备接收:07 03 1E 00 00 00 00 00 00 00 00 00 00 00 00 00 00 00 00 00 00 00 00 00 00 00 00 00 00 00 00 00 00 B0 BB
15:35:20.276 设备发送:07 03 05 B1 00 03 55 46
15:35:25.224 设备接收:07 03 06 00 00 00 00 00 00 0A D5
15:35:25.240 设备发送:07 03 04 2B 00 01 F5 54
15:35:30.254 设备接收:07 03 02 01 D1 F1 88
15:35:30.276 设备发送:07 03 04 20 00 01 84 96
15:35:35.246 设备接收:07 03 02 00 18 30 4E
15:35:35.267 设备发送:07 03 04 05 00 01 95 5D
15:35:40.303 设备接收:07 03 02 00 00 30 44
15:35:40.318 设备发送:08 03 04 84 00 04 05 89
15:35:45.320 设备接收:08 03 08 13 87 09 37 FF CA 09 38 EF AF
15:35:45.351 设备发送:08 03 04 8D 00 05 14 4B
15:35:50.327 设备接收:08 03 0A 08 DA 0D 9E 00 00 00 00 00 00 E5 A0
15:35:50.344 设备发送:08 03 04 98 00 05 05 8F
15:35:55.345 设备接收:08 03 0A 08 D4 0D 84 00 00 00 00 00 00 12 01
15:35:55.377 设备发送:08 03 04 A3 00 05 74 42
15:36:00.376 设备接收:08 03 0A 08 E5 0D BA 00 00 00 00 00 00 94 53
15:36:00.392 设备发送:08 03 06 84 00 04 04 31
15:36:05.401 设备接收:08 03 08 00 00 8E AC 00 0F B9 F9 B6 6C
15:36:05.411 设备发送:08 03 04 04 00 01 C4 62
15:36:10.403 设备接收:08 03 02 00 02 E5 84
15:36:10.412 设备发送:08 03 05 84 00 0F 45 B2
15:36:15.436 设备接收:08 03 1E 1B 04 01 5C 00 F1 1B B5 00 A1 00 72 1A A4 00 FE 00 AD 19 CA 01 74 00 F5 1A B4 01 DC 01 45 F1 CA
15:36:15.452 设备发送:08 03 05 93 00 0F F5 B6
15:36:20.464 设备接收:08 03 1E 1F C6 01 BE 01 6B 1E F3 00 DE 00 B0 1A F0 01 2F 00 D1 19 90 01 41 00 D2 1A 83 02 9E 01 C7 CE 3C
15:36:20.474 设备发送:08 03 05 A2 00 0F A4 79
15:36:25.477 设备接收:08 03 1E 00 00 00 08 00 00 00 00 00 05 00 00 00 00 00 00 00 00 00 00 00 00 00 00 00 00 00 00 00 00 7E BB
15:36:25.498 设备发送:08 03 05 B1 00 03 55 B9
15:36:30.518 设备接收:08 03 06 00 00 00 00 00 00 4B 25
15:36:30.534 设备发送:08 03 04 2B 00 01 F5 AB
15:36:35.544 设备接收:08 03 02 02 85 A4 86
15:36:35.560 设备发送:08 03 04 20 00 01 84 69
15:36:40.567 设备接收:08 03 02 00 30 64 51
15:36:40.582 设备发送:08 03 04 05 00 01 95 A2
15:36:45.585 设备接收:08 03 02 00 00 64 45
15:36:45.609 设备发送:09 03 04 84 00 04 04 58
15:36:50.609 设备接收:09 03 08 13 85 08 60 FF F0 08 60 9C E9
15:36:50.629 设备发送:09 03 04 8D 00 05 15 9A
15:36:55.619 设备接收:09 03 0A 08 E3 0C 4D 00 00 00 00 00 00 FA 71
15:36:55.638 设备发送:09 03 04 98 00 05 04 5E
15:37:00.623 设备接收:09 03 0A 08 DC 0C 51 00 00 00 00 00 00 32 41
15:37:00.645 设备发送:09 03 04 A3 00 05 75 93
15:37:05.669 设备接收:09 03 0A 08 ED 0C 56 00 00 00 00 00 00 1D 10
15:37:05.678 设备发送:09 03 06 84 00 04 05 E0
15:37:10.678 设备接收:09 03 08 00 00 7F DF 00 0E 4E 75 B4 2F
15:37:10.693 设备发送:09 03 04 04 00 01 C5 B3
15:37:15.707 设备接收:09 03 02 00 02 D8 44
15:37:15.723 设备发送:09 03 05 84 00 0F 44 63
15:37:20.731 设备接收:09 03 1E 1E CD 00 92 00 73 1E 74 00 9A 00 78 1E DF 00 A6 00 83 1F 7D 00 BB 00 97 1E 2A 00 E9 00 B4 17 E6
15:37:20.747 设备发送:09 03 05 93 00 0F F4 67
15:37:25.738 设备接收:09 03 1E 1E F0 02 1C 01 AC 1F 15 00 EA 00 BA 1E 3B 02 77 01 E8 1D C5 01 29 00 E2 1D 9D 01 33 00 E9 D5 96
15:37:25.754 设备发送:09 03 05 A2 00 0F A5 A8
15:37:30.774 设备接收:09 03 1E 00 03 00 00 00 00 00 01 00 03 00 00 00 00 00 00 00 00 00 00 00 00 00 00 00 00 00 00 00 00 07 D4
15:37:30.792 设备发送:09 03 05 B1 00 03 54 68
15:37:35.778 设备接收:09 03 06 00 00 00 00 00 00 46 B5
15:37:35.800 设备发送:09 03 04 2B 00 01 F4 7A
15:37:40.799 设备接收:09 03 02 02 76 D9 03
15:37:40.814 设备发送:09 03 04 20 00 01 85 B8
15:37:45.833 设备接收:09 03 02 00 33 19 90
15:37:45.850 设备发送:09 03 04 05 00 01 94 73
15:37:50.849 设备接收:09 03 02 00 00 59 85
15:37:50.858 设备发送:0A 03 04 84 00 04 04 6B
15:37:55.887 设备发送:0A 03 04 84 00 04 04 6B
15:38:00.885 设备发送:0A 03 04 84 00 04 04 6B
15:38:05.910 设备发送:0A 03 04 8D 00 05 15 A9
15:38:10.928 设备发送:0A 03 04 8D 00 05 15 A9
15:38:15.955 设备发送:0A 03 04 8D 00 05 15 A9
15:38:20.988 设备发送:0A 03 04 98 00 05 04 6D
15:38:25.993 设备发送:0A 03 04 98 00 05 04 6D
15:38:31.005 设备发送:0A 03 04 98 00 05 04 6D
15:38:36.049 设备发送:0A 03 04 A3 00 05 75 A0
15:38:41.050 设备发送:0A 03 04 A3 00 05 75 A0
15:38:46.090 设备发送:0A 03 04 A3 00 05 75 A0
15:38:51.082 设备发送:0A 03 06 84 00 04 05 D3
15:38:56.108 设备发送:0A 03 06 84 00 04 05 D3
15:39:01.128 设备发送:0A 03 06 84 00 04 05 D3
15:39:06.140 设备发送:0A 03 04 04 00 01 C5 80
15:39:11.168 设备发送:0A 03 04 04 00 01 C5 80
15:39:16.215 设备发送:0A 03 04 04 00 01 C5 80
15:39:21.225 设备发送:0A 03 05 84 00 0F 44 50
15:39:26.250 设备发送:0A 03 05 84 00 0F 44 50
15:39:31.267 设备发送:0A 03 05 84 00 0F 44 50
15:39:36.266 设备发送:0A 03 05 93 00 0F F4 54
15:39:41.295 设备发送:0A 03 05 93 00 0F F4 54
15:39:46.320 设备发送:0A 03 05 93 00 0F F4 54
15:39:51.345 设备发送:0A 03 05 A2 00 0F A5 9B
15:39:56.347 设备发送:0A 03 05 A2 00 0F A5 9B
15:40:01.371 设备发送:0A 03 05 A2 00 0F A5 9B
15:40:06.405 设备发送:0A 03 05 B1 00 03 54 5B
15:40:11.392 设备发送:0A 03 05 B1 00 03 54 5B
15:40:16.435 设备发送:0A 03 05 B1 00 03 54 5B
15:40:21.460 设备发送:0A 03 04 2B 00 01 F4 49
15:40:26.464 设备发送:0A 03 04 2B 00 01 F4 49
15:40:31.503 设备发送:0A 03 04 2B 00 01 F4 49
15:40:36.519 设备发送:0A 03 04 20 00 01 85 8B
15:40:41.536 设备发送:0A 03 04 20 00 01 85 8B
15:40:46.542 设备发送:0A 03 04 20 00 01 85 8B
15:40:51.568 设备发送:0A 03 04 05 00 01 94 40
15:40:56.596 设备发送:0A 03 04 05 00 01 94 40
15:41:01.610 设备发送:0A 03 04 05 00 01 94 40
15:41:06.634 设备发送:01 03 04 84 00 04 05 10
15:41:11.645 设备接收:01 03 08 13 89 09 15 FF CA 09 15 16 E9
15:41:11.661 设备发送:01 03 04 8D 00 05 14 D2
15:41:16.651 设备接收:01 03 0A 08 E9 0D 40 00 00 00 00 00 00 86 95
15:41:16.729 设备发送:01 03 04 98 00 05 05 16
15:41:21.671 设备接收:01 03 0A 08 EB 0D 42 00 00 00 00 00 00 BC 35
15:41:21.686 设备发送:01 03 04 A3 00 05 74 DB
15:41:26.716 设备接收:01 03 0A 08 EF 0D 5E 00 00 00 00 00 00 53 34
15:41:26.731 设备发送:01 03 06 84 00 04 04 A8
15:41:31.709 设备接收:01 03 08 00 00 AF 9E 00 13 3C D2 44 CC
15:41:31.724 设备发送:01 03 04 04 00 01 C4 FB
15:41:36.740 设备接收:01 03 02 00 02 39 85
15:41:36.772 设备发送:01 03 05 84 00 0F 45 2B
15:41:41.755 设备接收:01 03 1E 20 F3 01 D3 01 8A 20 CD 01 D2 01 88 20 A6 01 BE 01 75 21 9E 01 CB 01 8B 18 38 00 F5 00 98 C1 19
15:41:41.771 设备发送:01 03 05 93 00 0F F5 2F
15:41:46.764 设备接收:01 03 1E 00 00 00 00 00 00 1B E5 02 27 01 89 1D 8F 00 EB 00 B2 1D 7B 00 F3 00 B7 00 00 00 04 00 00 F3 3D
15:41:46.780 设备发送:01 03 05 A2 00 0F A4 E0
15:41:51.778 设备接收:01 03 1E 00 00 00 00 00 00 00 00 00 00 00 00 00 00 00 00 00 00 00 00 00 00 00 00 00 00 00 00 00 00 D8 BA
15:41:51.809 设备发送:01 03 05 B1 00 03 55 20
15:41:56.824 设备接收:01 03 06 00 00 00 00 00 00 21 75
15:41:56.840 设备发送:01 03 04 2B 00 01 F5 32
15:42:01.832 设备接收:01 03 02 02 CE 38 B0
15:42:01.850 设备发送:01 03 04 20 00 01 84 F0
15:42:06.859 设备接收:01 03 02 00 2B F8 5B
15:42:06.875 设备发送:01 03 04 05 00 01 95 3B
15:42:11.873 设备接收:01 03 02 00 00 B8 44
15:42:11.902 设备发送:02 03 04 84 00 04 05 23
15:42:16.894 设备接收:02 03 08 13 86 08 A4 00 0F 08 A4 7A AB
15:42:16.909 设备发送:02 03 04 8D 00 05 14 E1
15:42:21.905 设备接收:02 03 0A 08 E7 0C 9B 00 00 00 00 00 00 65 F7
15:42:21.935 设备发送:02 03 04 98 00 05 05 25
15:42:26.940 设备接收:02 03 0A 08 EE 0C C2 00 00 00 00 00 00 C6 A2
15:42:26.955 设备发送:02 03 04 A3 00 05 74 E8
15:42:31.968 设备接收:02 03 0A 08 F0 0C E5 00 00 00 00 00 00 10 00
15:42:31.984 设备发送:02 03 06 84 00 04 04 9B
15:42:36.968 设备接收:02 03 08 00 00 A7 EE 00 13 84 7A 78 B5
15:42:36.998 设备发送:02 03 04 04 00 01 C4 C8
15:42:41.979 设备接收:02 03 02 00 02 7D 85
15:42:41.991 设备发送:02 03 05 84 00 0F 45 18
15:42:47.017 设备接收:02 03 1E 21 00 00 D9 00 B8 20 CD 00 D4 00 B2 21 0E 00 DD 00 BB 20 A1 01 BF 01 75 21 45 00 D9 00 B9 8D 3A
15:42:47.052 设备发送:02 03 05 93 00 0F F5 1C
15:42:52.043 设备接收:02 03 1E 20 C5 00 D4 00 B2 21 E3 00 E6 00 C8 20 F0 01 CD 01 85 21 85 00 E3 00 C3 1F B5 01 73 01 2D 51 AC
15:42:52.058 设备发送:02 03 05 A2 00 0F A4 D3
15:42:57.065 设备接收:02 03 1E 00 00 00 04 00 00 00 00 00 00 00 00 00 00 00 00 00 00 00 00 00 00 00 00 00 00 00 00 00 00 92 31
15:42:57.096 设备发送:02 03 05 B1 00 03 55 13
15:43:02.069 设备接收:02 03 06 00 00 00 00 00 00 35 85
15:43:02.099 设备发送:02 03 04 2B 00 01 F5 01
15:43:07.076 设备接收:02 03 02 02 C9 3D 72
15:43:07.106 设备发送:02 03 04 20 00 01 84 C3
15:43:12.108 设备接收:02 03 02 00 37 BD 92
15:43:12.124 设备发送:02 03 04 05 00 01 95 08
15:43:17.160 设备接收:02 03 02 00 00 FC 44
15:43:17.173 设备发送:03 03 04 84 00 04 04 F2
15:43:22.147 设备接收:03 03 08 13 85 0C 58 FF EA 0C 59 FE 65
15:43:22.162 设备发送:03 03 04 8D 00 05 15 30
15:43:27.190 设备接收:03 03 0A 08 E9 11 FF 00 00 00 00 00 00 CE 45
15:43:27.205 设备发送:03 03 04 98 00 05 04 F4
15:43:32.186 设备接收:03 03 0A 08 F7 11 D5 00 00 00 00 00 00 C4 27
15:43:32.198 设备发送:03 03 04 A3 00 05 75 39
15:43:37.198 设备接收:03 03 0A 08 F7 11 FB 00 00 00 00 00 00 0A 25
15:43:37.218 设备发送:03 03 06 84 00 04 05 4A
15:43:42.228 设备接收:03 03 08 00 00 B9 B1 00 14 0F F4 BC AF
15:43:42.248 设备发送:03 03 04 04 00 01 C5 19
15:43:47.233 设备接收:03 03 02 00 02 40 45
15:43:47.254 设备发送:03 03 05 84 00 0F 44 C9
15:43:52.286 设备接收:03 03 1E 20 03 02 E3 02 5D 1F 98 02 F2 02 62 1F D8 02 61 01 F0 1F DF 02 5D 01 EE 18 64 01 E7 01 30 96 AE
15:43:52.308 设备发送:03 03 05 93 00 0F F4 CD
15:43:57.280 设备接收:03 03 1E 05 3D 00 00 00 00 13 12 01 D3 00 E4 1C 8E 01 74 01 10 1B FA 01 7F 01 12 05 40 00 00 00 00 14 39
15:43:57.303 设备发送:03 03 05 A2 00 0F A5 02
15:44:02.326 设备接收:03 03 1E 00 0E 00 00 00 00 00 00 00 00 00 00 00 00 00 00 00 00 00 00 00 00 00 00 00 00 00 00 00 00 81 70
15:44:02.346 设备发送:03 03 05 B1 00 03 54 C2
15:44:07.344 设备接收:03 03 06 00 00 00 00 00 00 38 15
15:44:07.357 设备发送:03 03 04 2B 00 01 F4 D0
15:44:12.340 设备接收:03 03 02 02 D1 00 B8
15:44:12.361 设备发送:03 03 04 20 00 01 85 12
15:44:17.392 设备接收:03 03 02 00 2A 40 5B
15:44:17.402 设备发送:03 03 04 05 00 01 94 D9
15:44:22.391 设备接收:03 03 02 00 00 C1 84
15:44:22.402 设备发送:04 03 04 84 00 04 05 45
15:44:27.396 设备接收:04 03 08 13 85 09 92 FF F0 09 92 1F 54
15:44:27.449 设备发送:04 03 04 8D 00 05 14 87
15:44:32.434 设备接收:04 03 0A 08 EB 0E 0E 00 00 00 00 00 00 7D E1
15:44:32.451 设备发送:04 03 04 98 00 05 05 43
15:44:37.462 设备接收:04 03 0A 08 E3 0E 08 00 00 00 00 00 00 7C 21
15:44:37.483 设备发送:04 03 04 A3 00 05 74 8E
15:44:42.474 设备接收:04 03 0A 08 F4 0E 17 00 00 00 00 00 00 79 10
15:44:42.483 设备发送:04 03 06 84 00 04 04 FD
15:44:47.482 设备接收:04 03 08 00 00 9C E0 00 11 4D CB 3C 93
15:44:47.503 设备发送:04 03 04 04 00 01 C4 AE
15:44:52.501 设备接收:04 03 02 00 02 F5 85
15:44:52.522 设备发送:04 03 05 84 00 0F 45 7E
15:44:57.536 设备发送:04 03 05 93 00 0F F5 7A
15:44:57.557 设备接收:04 03 1E 1B C5 00 DF 00 9F 1D 2E 01 C8 01 54 1B 94 00 FB 00 B1 1C 62 02 B4 01 F7 1C 6A 02 BD 01 FD C5 A1
15:45:02.535 设备接收:04 03 1E 19 B5 02 C4 01 D2 1C 15 02 51 01 AA 04 B0 00 00 00 00 04 CF 00 04 00 00 04 C2 00 00 00 00 12 5B
15:45:02.556 设备发送:04 03 05 A2 00 0F A4 B5
15:45:07.589 设备接收:04 03 1E 00 00 00 00 00 00 00 00 00 03 00 00 00 00 00 00 00 00 00 00 00 00 00 00 00 00 00 00 00 00 37 88
15:45:07.602 设备发送:04 03 05 B1 00 03 55 75
15:45:12.600 设备接收:04 03 06 00 00 00 00 00 00 1E 25
15:45:12.612 设备发送:04 03 04 2B 00 01 F5 67
15:45:17.619 设备接收:04 03 02 02 CB 34 B3
15:45:17.638 设备发送:04 03 04 20 00 01 84 A5
15:45:22.629 设备接收:04 03 02 00 22 F4 5D
15:45:22.644 设备发送:04 03 04 05 00 01 95 6E
15:45:27.645 设备接收:04 03 02 00 00 74 44
15:45:27.666 设备发送:05 03 04 84 00 04 04 94
15:45:32.675 设备接收:05 03 08 13 89 06 DF 00 0B 06 DF 7F 79
15:45:32.697 设备发送:05 03 04 8D 00 05 15 56
15:45:37.714 设备接收:05 03 0A 08 E7 0A 03 00 00 00 00 00 00 F7 53
15:45:37.723 设备发送:05 03 04 98 00 05 04 92
15:45:42.730 设备接收:05 03 0A 08 EA 0A 02 00 00 00 00 00 00 BF 03
15:45:42.749 设备发送:05 03 04 A3 00 05 75 5F
15:45:47.729 设备接收:05 03 0A 08 EF 0A 29 00 00 00 00 00 00 1B 51
15:45:47.750 设备发送:05 03 06 84 00 04 05 2C
15:45:52.743 设备接收:05 03 08 00 00 82 B1 00 0E 99 E3 A8 C5
15:45:52.764 设备发送:05 03 04 04 00 01 C5 7F
15:45:57.782 设备接收:05 03 02 00 02 C8 45
15:45:57.803 设备发送:05 03 05 84 00 0F 44 AF
15:46:02.783 设备接收:05 03 1E 04 C4 00 00 00 00 18 62 02 30 01 5D 11 69 01 EF 00 DC 18 A7 01 B9 01 16 1F 85 00 CA 00 A3 E3 91
15:46:02.836 设备发送:05 03 05 93 00 0F F4 AB
15:46:07.823 设备接收:05 03 1E 1E 73 01 42 00 FB 04 B1 00 05 00 00 1A 16 01 B9 01 26 04 BF 00 00 00 00 15 EA 02 33 01 3C C1 1A
15:46:07.833 设备发送:05 03 05 A2 00 0F A5 64
15:46:12.834 设备接收:05 03 1E 00 07 00 00 00 00 00 00 00 02 00 00 00 00 00 00 00 00 00 00 00 00 00 00 00 00 00 00 00 00 0A 9C
15:46:12.854 设备发送:05 03 05 B1 00 03 54 A4
15:46:17.873 设备接收:05 03 06 00 00 00 00 00 00 13 B5
15:46:17.904 设备发送:05 03 04 2B 00 01 F4 B6
15:46:22.903 设备接收:05 03 02 02 CB 09 73
15:46:22.915 设备发送:05 03 04 20 00 01 85 74
15:46:27.905 设备接收:05 03 02 00 2C 48 59
15:46:27.919 设备发送:05 03 04 05 00 01 94 BF
15:46:32.934 设备接收:05 03 02 00 00 49 84
15:46:32.955 设备发送:06 03 04 84 00 04 04 A7
15:46:37.953 设备接收:06 03 08 13 85 05 FB FF F8 05 FB 0C C5
15:46:37.964 设备发送:06 03 04 8D 00 05 15 65
15:46:42.974 设备接收:06 03 0A 08 E9 08 D4 00 00 00 00 00 00 98 24
15:46:42.984 设备发送:06 03 04 98 00 05 04 A1
15:46:47.983 设备接收:06 03 0A 08 E7 08 C6 00 00 00 00 00 00 E6 45
15:46:48.003 设备发送:06 03 04 A3 00 05 75 6C
15:46:53.024 设备接收:06 03 0A 08 F0 08 EC 00 00 00 00 00 00 86 77
15:46:53.044 设备发送:06 03 06 84 00 04 05 1F
15:46:58.017 设备接收:06 03 08 00 00 7E 1A 00 0E 88 5C DB 85
15:46:58.036 设备发送:06 03 04 04 00 01 C5 4C
15:47:03.052 设备接收:06 03 02 00 02 8C 45
15:47:03.071 设备发送:06 03 05 84 00 0F 44 9C
15:47:08.081 设备接收:06 03 1E 04 BC 00 05 00 00 1D 4B 01 96 01 30 1D 5F 01 A1 01 39 1B 54 00 D0 00 92 1F 33 01 A6 01 51 CB 8F
15:47:08.101 设备发送:06 03 05 93 00 0F F4 98
15:47:13.122 设备接收:06 03 1E 04 BC 00 00 00 00 04 A9 00 01 00 00 18 44 01 AE 01 0B 04 AB 00 05 00 00 15 D7 02 26 01 33 DE 7B
15:47:13.132 设备发送:06 03 05 A2 00 0F A5 57
15:47:18.150 设备接收:06 03 1E 00 09 00 00 00 00 00 00 00 00 00 00 00 00 00 00 00 00 00 00 00 00 00 00 00 00 00 00 00 00 1D 74
15:47:18.160 设备发送:06 03 05 B1 00 03 54 97
15:47:23.140 设备接收:06 03 06 00 00 00 00 00 00 07 45
15:47:23.149 设备发送:06 03 04 2B 00 01 F4 85
15:47:28.181 设备接收:06 03 02 02 C7 4D 76
15:47:28.193 设备发送:06 03 04 20 00 01 85 47
15:47:33.177 设备接收:06 03 02 00 36 8D 92
15:47:33.219 设备发送:06 03 04 05 00 01 94 8C
15:47:38.199 设备接收:06 03 02 00 00 0D 84
15:47:38.211 设备发送:07 03 04 84 00 04 05 76
15:47:43.221 设备接收:07 03 08 13 89 03 2B FF D9 03 30 17 B0
15:47:43.242 设备发送:07 03 04 8D 00 05 14 B4
15:47:48.261 设备接收:07 03 0A 08 E9 04 A4 00 00 00 00 00 00 EB 37
15:47:48.286 设备发送:07 03 04 98 00 05 05 70
15:47:53.262 设备接收:07 03 0A 08 E4 04 A9 00 00 00 00 00 00 6F 67
15:47:53.282 设备发送:07 03 04 A3 00 05 74 BD
15:47:58.286 设备接收:07 03 0A 08 EA 04 A2 00 00 00 00 00 00 99 C7
15:47:58.298 设备发送:07 03 06 84 00 04 04 CE
15:48:03.299 设备接收:07 03 08 00 00 44 2F 00 07 39 5E 73 B4
15:48:03.349 设备发送:07 03 04 04 00 01 C4 9D
15:48:08.325 设备接收:07 03 02 00 02 B1 85
15:48:08.347 设备发送:07 03 05 84 00 0F 45 4D
15:48:13.354 设备接收:07 03 1E 19 CA 01 93 01 0A 13 AE 00 F7 00 7C 19 7D 00 A7 00 6D 18 FC 02 20 01 5C 00 00 00 00 00 00 7C 38
15:48:13.376 设备发送:07 03 05 93 00 0F F5 49
15:48:18.379 设备接收:07 03 1E 00 00 00 00 00 00 00 00 00 00 00 00 00 00 00 00 00 00 00 00 00 00 00 00 00 00 00 00 00 00 B0 BB
15:48:18.394 设备发送:07 03 05 A2 00 0F A4 86
15:48:23.403 设备接收:07 03 1E 00 00 00 00 00 00 00 00 00 00 00 00 00 00 00 00 00 00 00 00 00 00 00 00 00 00 00 00 00 00 B0 BB
15:48:23.431 设备发送:07 03 05 B1 00 03 55 46
15:48:28.425 设备接收:07 03 06 00 00 00 00 00 00 0A D5
15:48:28.441 设备发送:07 03 04 2B 00 01 F5 54
15:48:33.436 设备接收:07 03 02 01 D1 F1 88
15:48:33.450 设备发送:07 03 04 20 00 01 84 96
15:48:38.468 设备接收:07 03 02 00 15 F1 8B
15:48:38.483 设备发送:07 03 04 05 00 01 95 5D
15:48:43.493 设备接收:07 03 02 00 00 30 44
15:48:43.508 设备发送:08 03 04 84 00 04 05 89
15:48:48.499 设备接收:08 03 08 13 8A 07 23 00 09 07 23 86 01
15:48:48.528 设备发送:08 03 04 8D 00 05 14 4B
15:48:53.521 设备接收:08 03 0A 08 DE 0A 92 00 00 00 00 00 00 5A 86
15:48:53.537 设备发送:08 03 04 98 00 05 05 8F
15:48:58.516 设备接收:08 03 0A 08 D6 0A 79 00 00 00 00 00 00 66 48
15:48:58.548 设备发送:08 03 04 A3 00 05 74 42
15:49:03.575 设备接收:08 03 0A 08 E6 0A BC 00 00 00 00 00 00 A7 45
15:49:03.590 设备发送:08 03 06 84 00 04 04 31
15:49:08.584 设备接收:08 03 08 00 00 90 67 00 0F BA 25 11 6B
15:49:08.600 设备发送:08 03 04 04 00 01 C4 62
15:49:13.615 设备接收:08 03 02 00 02 E5 84
15:49:13.642 设备发送:08 03 05 84 00 0F 45 B2
15:49:18.636 设备接收:08 03 1E 1B 05 01 29 00 CE 1B 67 00 89 00 60 1C 33 00 8E 00 66 1A 68 01 48 00 DD 19 EA 01 73 00 F6 02 9B
15:49:18.650 设备发送:08 03 05 93 00 0F F5 B6
15:49:23.645 设备接收:08 03 1E 1E D6 01 74 01 25 1E F8 00 BF 00 98 1B E1 00 AD 00 7B 1A 7F 00 B6 00 7B 1A 85 02 3C 01 85 3A B0
15:49:23.660 设备发送:08 03 05 A2 00 0F A4 79
15:49:28.677 设备接收:08 03 1E 00 00 00 08 00 00 00 00 00 05 00 00 00 00 00 00 00 00 00 00 00 00 00 00 00 00 00 00 00 00 7E BB
15:49:28.694 设备发送:08 03 05 B1 00 03 55 B9
15:49:33.709 设备接收:08 03 06 00 00 00 00 00 00 4B 25
15:49:33.731 设备发送:08 03 04 2B 00 01 F5 AB
15:49:38.737 设备接收:08 03 02 02 85 A4 86
15:49:38.750 设备发送:08 03 04 20 00 01 84 69
15:49:43.723 设备接收:08 03 02 00 28 64 5B
15:49:43.738 设备发送:08 03 04 05 00 01 95 A2
15:49:48.759 设备接收:08 03 02 00 00 64 45
15:49:48.787 设备发送:09 03 04 84 00 04 04 58
15:49:53.761 设备接收:09 03 08 13 8B 06 6D 00 0B 06 6D DB 86
15:49:53.793 设备发送:09 03 04 8D 00 05 15 9A
15:49:58.819 设备接收:09 03 0A 08 E2 09 74 00 00 00 00 00 00 9E DD
15:49:58.832 设备发送:09 03 04 98 00 05 04 5E
15:50:03.814 设备接收:09 03 0A 08 DB 09 7E 00 00 00 00 00 00 0A 8C
15:50:03.846 设备发送:09 03 04 A3 00 05 75 93
15:50:08.833 设备接收:09 03 0A 08 E8 09 96 00 00 00 00 00 00 22 73
15:50:08.847 设备发送:09 03 06 84 00 04 05 E0
15:50:13.861 设备接收:09 03 08 00 00 81 6D 00 0E 4E 9D 99 A5
15:50:13.877 设备发送:09 03 04 04 00 01 C5 B3
15:50:18.883 设备接收:09 03 02 00 02 D8 44
15:50:18.903 设备发送:09 03 05 84 00 0F 44 63
15:50:23.879 设备接收:09 03 1E 1E CD 00 7C 00 62 1E 74 00 81 00 65 1E DC 00 8B 00 6E 1F CD 00 9F 00 81 1F 6A 00 88 00 6D 3C 51
15:50:23.889 设备发送:09 03 05 93 00 0F F4 67
15:50:28.914 设备接收:09 03 1E 1E 4F 01 BE 01 5A 1F 17 00 9D 00 7D 1E 39 01 D4 01 6A 1D C5 00 FE 00 C2 1D 9C 01 03 00 C4 46 3C
15:50:28.925 设备发送:09 03 05 A2 00 0F A5 A8
15:50:33.945 设备接收:09 03 1E 00 02 00 00 00 00 00 01 00 03 00 00 00 00 00 00 00 00 00 00 00 00 00 00 00 00 00 00 00 00 C7 D5
15:50:33.955 设备发送:09 03 05 B1 00 03 54 68
15:50:38.965 设备接收:09 03 06 00 00 00 00 00 00 46 B5
15:50:38.974 设备发送:09 03 04 2B 00 01 F4 7A
15:50:43.964 设备接收:09 03 02 02 76 D9 03
15:50:43.986 设备发送:09 03 04 20 00 01 85 B8
15:50:48.995 设备接收:09 03 02 00 2B 19 9A
15:50:49.017 设备发送:09 03 04 05 00 01 94 73
15:50:54.034 设备接收:09 03 02 00 00 59 85
15:50:54.055 设备发送:0A 03 04 84 00 04 04 6B
15:50:59.045 设备发送:0A 03 04 84 00 04 04 6B
15:51:04.089 设备发送:0A 03 04 84 00 04 04 6B
15:51:09.102 设备发送:0A 03 04 8D 00 05 15 A9
15:51:14.116 设备发送:0A 03 04 8D 00 05 15 A9
15:51:19.139 设备发送:0A 03 04 8D 00 05 15 A9
15:51:24.153 设备发送:0A 03 04 98 00 05 04 6D
15:51:29.189 设备发送:0A 03 04 98 00 05 04 6D
15:51:34.205 设备发送:0A 03 04 98 00 05 04 6D
15:51:39.213 设备发送:0A 03 04 A3 00 05 75 A0
15:51:44.230 设备发送:0A 03 04 A3 00 05 75 A0
15:51:49.270 设备发送:0A 03 04 A3 00 05 75 A0
15:51:54.280 设备发送:0A 03 06 84 00 04 05 D3
15:51:59.306 设备发送:0A 03 06 84 00 04 05 D3
15:52:04.344 设备发送:0A 03 06 84 00 04 05 D3
15:52:09.364 设备发送:0A 03 04 04 00 01 C5 80
15:52:14.374 设备发送:0A 03 04 04 00 01 C5 80
15:52:19.395 设备发送:0A 03 04 04 00 01 C5 80
15:52:24.413 设备发送:0A 03 05 84 00 0F 44 50
15:52:29.427 设备发送:0A 03 05 84 00 0F 44 50
15:52:34.434 设备发送:0A 03 05 84 00 0F 44 50
15:52:39.459 设备发送:0A 03 05 93 00 0F F4 54
15:52:44.483 设备发送:0A 03 05 93 00 0F F4 54
15:52:49.505 设备发送:0A 03 05 93 00 0F F4 54
15:52:54.531 设备发送:0A 03 05 A2 00 0F A5 9B
15:52:59.535 设备发送:0A 03 05 A2 00 0F A5 9B
15:53:04.562 设备发送:0A 03 05 A2 00 0F A5 9B
15:53:09.584 设备发送:0A 03 05 B1 00 03 54 5B
15:53:14.618 设备发送:0A 03 05 B1 00 03 54 5B
15:53:19.612 设备发送:0A 03 05 B1 00 03 54 5B
15:53:24.621 设备发送:0A 03 04 2B 00 01 F4 49
15:53:29.662 设备发送:0A 03 04 2B 00 01 F4 49
15:53:34.672 设备发送:0A 03 04 2B 00 01 F4 49
15:53:39.683 设备发送:0A 03 04 20 00 01 85 8B
15:53:44.726 设备发送:0A 03 04 20 00 01 85 8B
15:53:49.751 设备发送:0A 03 04 20 00 01 85 8B
15:53:54.767 设备发送:0A 03 04 05 00 01 94 40
15:53:59.793 设备发送:0A 03 04 05 00 01 94 40
15:54:04.802 设备发送:0A 03 04 05 00 01 94 40
15:54:09.803 设备发送:01 03 04 84 00 04 05 10
15:54:14.823 设备接收:01 03 08 13 85 07 7F 00 0A 07 7F 77 A9
15:54:14.832 设备发送:01 03 04 8D 00 05 14 D2
15:54:19.842 设备接收:01 03 0A 08 E2 0A EA 00 00 00 00 00 00 BE 49
15:54:19.862 设备发送:01 03 04 98 00 05 05 16
15:54:24.853 设备接收:01 03 0A 08 E9 0B 06 00 00 00 00 00 00 21 7B
15:54:24.874 设备发送:01 03 04 A3 00 05 74 DB
15:54:29.890 设备接收:01 03 0A 08 ED 0B 22 00 00 00 00 00 00 77 B9
15:54:29.910 设备发送:01 03 06 84 00 04 04 A8
15:54:34.895 设备接收:01 03 08 00 00 B1 69 00 13 3D 00 33 6A
15:54:34.916 设备发送:01 03 04 04 00 01 C4 FB
15:54:39.908 设备接收:01 03 02 00 02 39 85
15:54:39.921 设备发送:01 03 05 84 00 0F 45 2B
15:54:44.930 设备接收:01 03 1E 20 F3 01 93 01 54 21 1F 01 86 01 4B 20 CB 01 7B 01 3E 21 78 01 88 01 4F 18 8A 00 C9 00 7E 3F DD
15:54:44.982 设备发送:01 03 05 93 00 0F F5 2F
15:54:49.984 设备接收:01 03 1E 00 00 00 00 00 00 1B DF 01 A7 01 2E 1D D6 00 C3 00 95 1D 7B 00 CD 00 9B 00 00 00 04 00 00 E2 9E
15:54:49.994 设备发送:01 03 05 A2 00 0F A4 E0
15:54:54.978 设备接收:01 03 1E 00 00 00 00 00 00 00 00 00 00 00 00 00 00 00 00 00 00 00 00 00 00 00 00 00 00 00 00 00 00 D8 BA
15:54:55.000 设备发送:01 03 05 B1 00 03 55 20
15:54:59.996 设备接收:01 03 06 00 00 00 00 00 00 21 75
15:55:00.017 设备发送:01 03 04 2B 00 01 F5 32
15:55:05.029 设备接收:01 03 02 02 CE 38 B0
15:55:05.050 设备发送:01 03 04 20 00 01 84 F0
15:55:10.043 设备接收:01 03 02 00 25 79 9F
15:55:10.062 设备发送:01 03 04 05 00 01 95 3B
15:55:11.501 设备接收:01 03 02 00 00 B8 44
15:55:11.519 设备发送:02 03 04 84 00 04 05 23
15:55:16.518 设备接收:02 03 08 13 89 07 31 FF F1 07 31 1D 32
15:55:16.529 设备发送:02 03 04 8D 00 05 14 E1
15:55:21.546 设备接收:02 03 0A 08 E0 0A 8B 00 00 00 00 00 00 D2 2C
15:55:21.563 设备发送:02 03 04 98 00 05 05 25
15:55:26.579 设备接收:02 03 0A 08 E9 0A 88 00 00 00 00 00 00 8B 7C
15:55:26.591 设备发送:02 03 04 A3 00 05 74 E8
15:55:31.596 设备接收:02 03 0A 08 ED 0A A5 00 00 00 00 00 00 44 BE
15:55:31.606 设备发送:02 03 06 84 00 04 04 9B
15:55:36.599 设备接收:02 03 08 00 00 A9 A6 00 13 84 A6 98 0C
15:55:36.619 设备发送:02 03 04 04 00 01 C4 C8
15:55:41.631 设备发送:02 03 05 84 00 0F 45 18
15:55:41.642 设备接收:02 03 02 00 02 7D 85
15:55:46.637 设备接收:02 03 1E 21 4F 00 AF 00 95 20 CD 00 AD 00 91 21 11 00 B5 00 99 21 6C 01 6B 01 37 21 47 00 B1 00 97 B9 86
15:55:46.649 设备发送:02 03 05 93 00 0F F5 1C
15:55:51.667 设备接收:02 03 1E 20 CA 00 AD 00 92 21 5E 00 BE 00 A2 20 CA 01 7E 01 40 21 37 00 C0 00 A3 1E C9 01 34 00 F3 2E B6
15:55:51.676 设备发送:02 03 05 A2 00 0F A4 D3
15:55:56.679 设备接收:02 03 1E 00 00 00 03 00 00 00 00 00 00 00 00 00 00 00 00 00 00 00 00 00 00 00 00 00 00 00 00 00 00 6D 7D
15:55:56.698 设备发送:02 03 05 B1 00 03 55 13
15:56:01.718 设备接收:02 03 06 00 00 00 00 00 00 35 85
15:56:01.729 设备发送:02 03 04 2B 00 01 F5 01
15:56:06.716 设备接收:02 03 02 02 C9 3D 72
15:56:06.738 设备发送:02 03 04 20 00 01 84 C3
15:56:11.731 设备接收:02 03 02 00 3B BD 97
15:56:11.749 设备发送:02 03 04 05 00 01 95 08
15:56:16.771 设备接收:02 03 02 00 00 FC 44
15:56:16.790 设备发送:03 03 04 84 00 04 04 F2
15:56:21.798 设备接收:03 03 08 13 8A 0A 28 00 12 0A 28 32 A9
15:56:21.810 设备发送:03 03 04 8D 00 05 15 30
15:56:26.802 设备接收:03 03 0A 08 E5 0E D2 00 00 00 00 00 00 27 0B
15:56:26.812 设备发送:03 03 04 98 00 05 04 F4
15:56:31.805 设备接收:03 03 0A 08 F4 0E D3 00 00 00 00 00 00 F7 9B
15:56:31.827 设备发送:03 03 04 A3 00 05 75 39
15:56:36.850 设备接收:03 03 0A 08 F5 0E F3 00 00 00 00 00 00 DB C9
15:56:36.863 设备发送:03 03 06 84 00 04 05 4A
15:56:41.852 设备接收:03 03 08 00 00 BC 22 00 14 10 33 71 45
15:56:41.873 设备发送:03 03 04 04 00 01 C5 19
15:56:46.867 设备接收:03 03 02 00 02 40 45
15:56:46.887 设备发送:03 03 05 84 00 0F 44 C9
15:56:51.914 设备接收:03 03 1E 1F DE 02 6F 01 FC 1F C0 02 77 02 01 20 02 01 F8 01 9D 1F 91 02 01 01 9F 18 3D 01 9C 01 00 59 10
15:56:51.937 设备发送:03 03 05 93 00 0F F4 CD
15:56:56.936 设备接收:03 03 1E 05 40 00 00 00 00 13 89 01 70 00 B8 1C 3E 01 3C 00 E4 1C 52 01 41 00 E9 05 43 00 00 00 00 72 26
15:56:56.957 设备发送:03 03 05 A2 00 0F A5 02
15:57:01.941 设备接收:03 03 1E 00 0E 00 00 00 00 00 00 00 00 00 00 00 00 00 00 00 00 00 00 00 00 00 00 00 00 00 00 00 00 81 70
15:57:01.961 设备发送:03 03 05 B1 00 03 54 C2
15:57:06.980 设备接收:03 03 06 00 00 00 00 00 00 38 15
15:57:07.001 设备发送:03 03 04 2B 00 01 F4 D0
15:57:12.017 设备接收:03 03 02 02 D1 00 B8
15:57:12.030 设备发送:03 03 04 20 00 01 85 12
15:57:17.007 设备接收:03 03 02 00 2B 81 9B
15:57:17.027 设备发送:03 03 04 05 00 01 94 D9
15:57:22.052 设备接收:03 03 02 00 00 C1 84
15:57:22.073 设备发送:04 03 04 84 00 04 05 45
15:57:27.080 设备发送:04 03 04 84 00 04 05 45
15:57:32.088 设备发送:04 03 04 84 00 04 05 45
15:57:37.088 设备接收:04 03 08 13 8B 07 07 FF F2 07 07 98 68
15:57:37.111 设备发送:04 03 04 8D 00 05 14 87
15:57:42.130 设备接收:04 03 0A 08 E3 0A 4E 00 00 00 00 00 00 5A 16
15:57:42.150 设备发送:04 03 04 98 00 05 05 43
15:57:47.138 设备接收:04 03 0A 08 E1 0A 40 00 00 00 00 00 00 AC B6
15:57:47.160 设备发送:04 03 04 A3 00 05 74 8E
15:57:52.178 设备接收:04 03 0A 08 EE 0A 54 00 00 00 00 00 00 B9 47
15:57:52.189 设备发送:04 03 06 84 00 04 04 FD
15:57:57.172 设备接收:04 03 08 00 00 9E BD 00 11 4D FA 11 68
15:57:57.191 设备发送:04 03 04 04 00 01 C4 AE
15:58:02.191 设备接收:04 03 02 00 02 F5 85
15:58:02.211 设备发送:04 03 05 84 00 0F 45 7E
15:58:07.208 设备接收:04 03 1E 1C 17 00 B4 00 82 1C DE 01 79 01 16 1B 91 00 BB 00 84 1D A2 01 87 01 29 1C 68 02 3B 01 9F 49 42
15:58:07.230 设备发送:04 03 05 93 00 0F F5 7A
15:58:12.225 设备接收:04 03 1E 1A 7C 01 F3 01 52 1A FE 01 B6 01 2E 04 BB 00 00 00 00 04 D9 00 02 00 00 04 D1 00 00 00 00 00 69
15:58:12.248 设备发送:04 03 05 A2 00 0F A4 B5
15:58:17.264 设备接收:04 03 1E 00 00 00 00 00 00 00 01 00 03 00 00 00 00 00 00 00 00 00 00 00 00 00 00 00 00 00 00 00 00 FA 14
15:58:17.283 设备发送:04 03 05 B1 00 03 55 75
15:58:22.290 设备接收:04 03 06 00 00 00 00 00 00 1E 25
15:58:22.301 设备发送:04 03 04 2B 00 01 F5 67
15:58:27.302 设备接收:04 03 02 02 CB 34 B3
15:58:27.314 设备发送:04 03 04 20 00 01 84 A5
15:58:32.312 设备接收:04 03 02 00 34 75 93
15:58:32.322 设备发送:04 03 04 05 00 01 95 6E
15:58:37.358 设备接收:04 03 02 00 00 74 44
15:58:37.368 设备发送:05 03 04 84 00 04 04 94
15:58:42.370 设备接收:05 03 08 13 86 05 41 FF ED 05 41 79 2D
15:58:42.389 设备发送:05 03 04 8D 00 05 15 56
15:58:47.377 设备接收:05 03 0A 08 E0 07 CC 00 00 00 00 00 00 2F F6
15:58:47.389 设备发送:05 03 04 98 00 05 04 92
15:58:52.388 设备接收:05 03 0A 08 E3 07 AD 00 00 00 00 00 00 4B C0
15:58:52.409 设备发送:05 03 04 A3 00 05 75 5F
15:58:57.409 设备接收:05 03 0A 08 E8 07 DC 00 00 00 00 00 00 59 F7
15:58:57.419 设备发送:05 03 06 84 00 04 05 2C
15:59:02.438 设备接收:05 03 08 00 00 84 03 00 0E 9A 05 11 C3
15:59:02.459 设备发送:05 03 04 04 00 01 C5 7F
15:59:07.450 设备接收:05 03 02 00 02 C8 45
15:59:07.477 设备发送:05 03 05 84 00 0F 44 AF
15:59:12.486 设备接收:05 03 1E 04 D4 00 00 00 00 18 65 01 8A 00 F6 17 83 01 44 00 C3 18 59 01 60 00 DB 1F 87 00 9E 00 7F A5 38
15:59:12.501 设备发送:05 03 05 93 00 0F F4 AB
15:59:17.511 设备接收:05 03 1E 1E 6D 01 04 00 CA 04 C0 00 04 00 00 19 9E 01 6B 00 EE 04 CD 00 00 00 00 15 E8 01 BD 00 F9 88 3E
15:59:17.532 设备发送:05 03 05 A2 00 0F A5 64
15:59:22.528 设备接收:05 03 1E 00 07 00 00 00 00 00 01 00 03 00 00 00 00 00 00 00 00 00 00 00 00 00 00 00 00 00 00 00 00 D7 D1 FF
15:59:22.549 设备发送:05 03 05 B1 00 03 54 A4
15:59:27.561 设备发送:05 03 05 B1 00 03 54 A4
15:59:32.563 设备发送:05 03 05 B1 00 03 54 A4
15:59:37.594 设备发送:05 03 04 2B 00 01 F4 B6
15:59:42.609 设备发送:05 03 04 2B 00 01 F4 B6
15:59:47.635 设备发送:05 03 04 2B 00 01 F4 B6
15:59:52.641 设备发送:05 03 04 20 00 01 85 74
15:59:57.675 设备发送:05 03 04 20 00 01 85 74
16:00:02.695 设备发送:05 03 04 20 00 01 85 74
16:00:07.710 设备接收:FF FF FF FF
16:00:07.731 设备发送:05 03 04 05 00 01 94 BF
16:00:12.715 设备接收:FF FF FF FF FF FF FF FF FF FF FF FF FF FF FF FF FF FF
16:00:12.733 设备发送:06 03 04 84 00 04 04 A7
16:00:17.723 设备接收:FF FF FF FF
16:00:17.744 设备发送:06 03 04 8D 00 05 15 65
16:00:22.772 设备发送:06 03 04 8D 00 05 15 65
16:00:27.765 设备接收:06 03 0A 08 E3 06 D5 00 00 00 00 00 00 77 C8
16:00:27.818 设备发送:06 03 04 98 00 05 04 A1
16:00:32.806 设备接收:06 03 0A 08 DE 06 E4 00 00 00 00 00 00 5B 9A
16:00:32.816 设备发送:06 03 04 A3 00 05 75 6C
16:00:37.826 设备接收:06 03 0A 08 E8 07 14 00 00 00 00 00 00 15 F8
16:00:37.838 设备发送:06 03 06 84 00 04 05 1F
16:00:42.833 设备接收:06 03 08 00 00 7F 52 00 0E 88 7B 7A 40
16:00:42.854 设备发送:06 03 04 04 00 01 C5 4C
16:00:47.856 设备接收:06 03 02 00 02 8C 45
16:00:47.878 设备发送:06 03 05 84 00 0F 44 9C
16:00:52.880 设备接收:06 03 1E 04 B5 00 05 00 00 1D 21 01 41 00 EF 1D 30 01 4A 00 F7 1B A4 00 A7 00 76 1F 5B 01 4C 01 0B F9 5C
16:00:52.901 设备发送:06 03 05 93 00 0F F4 98
16:00:57.889 设备接收:06 03 1E 04 B2 00 00 00 00 04 A3 00 00 00 00 18 1B 01 54 00 D1 04 A4 00 04 00 00 15 D7 01 B1 00 F2 A8 A8
16:00:57.931 设备发送:06 03 05 A2 00 0F A5 57
16:01:02.937 设备接收:06 03 1E 00 09 00 00 00 00 00 00 00 00 00 00 00 00 00 00 00 00 00 00 00 00 00 00 00 00 00 00 00 00 1D 74
16:01:02.959 设备发送:06 03 05 B1 00 03 54 97
16:01:07.951 设备接收:06 03 06 00 00 00 00 00 00 07 45
16:01:07.972 设备发送:06 03 04 2B 00 01 F4 85
16:01:12.956 设备接收:06 03 02 02 C7 4D 76
16:01:12.975 设备发送:06 03 04 20 00 01 85 47
16:01:17.986 设备接收:06 03 02 00 29 CC 5A
16:01:18.007 设备发送:06 03 04 05 00 01 94 8C
16:01:23.019 设备接收:06 03 02 00 00 0D 84
16:01:23.039 设备发送:07 03 04 84 00 04 05 76
16:01:28.024 设备接收:07 03 08 13 8B 02 55 FF D7 02 60 7D C4
16:01:28.034 设备发送:07 03 04 8D 00 05 14 B4
16:01:33.037 设备接收:07 03 0A 08 EB 03 70 00 00 00 00 00 00 27 BC
16:01:33.053 设备发送:07 03 04 98 00 05 05 70
16:01:38.059 设备接收:07 03 0A 08 E8 03 6E 00 00 00 00 00 00 CD 4D
16:01:38.081 设备发送:07 03 04 A3 00 05 74 BD
16:01:43.072 设备接收:07 03 0A 08 EA 03 70 00 00 00 00 00 00 2A 2C
16:01:43.123 设备发送:07 03 06 84 00 04 04 CE
16:01:48.103 设备接收:07 03 08 00 00 44 CD 00 07 39 6E 8B B6
16:01:48.124 设备发送:07 03 04 04 00 01 C4 9D
16:01:53.131 设备接收:07 03 02 00 02 B1 85
16:01:53.151 设备发送:07 03 05 84 00 0F 45 4D
16:01:58.134 设备接收:07 03 1E 17 4B 01 1A 00 A8 17 6F 00 AB 00 66 16 AD 00 95 00 57 19 24 01 A4 01 0E 00 00 00 00 00 00 1B 2C
16:01:58.146 设备发送:07 03 05 93 00 0F F5 49
16:02:03.157 设备接收:07 03 1E 00 00 00 00 00 00 00 00 00 00 00 00 00 00 00 00 00 00 00 00 00 00 00 00 00 00 00 00 00 00 B0 BB
16:02:03.180 设备发送:07 03 05 A2 00 0F A4 86
16:02:08.187 设备接收:07 03 1E 00 00 00 00 00 00 00 00 00 00 00 00 00 00 00 00 00 00 00 00 00 00 00 00 00 00 00 00 00 00 B0 BB
16:02:08.207 设备发送:07 03 05 B1 00 03 55 46
16:02:13.188 设备接收:07 03 06 00 00 00 00 00 00 0A D5
16:02:13.239 设备发送:07 03 04 2B 00 01 F5 54
16:02:18.227 设备接收:07 03 02 01 D1 F1 88
16:02:18.250 设备发送:07 03 04 20 00 01 84 96
16:02:23.239 设备接收:07 03 02 00 12 B0 49
16:02:23.249 设备发送:07 03 04 05 00 01 95 5D
16:02:28.277 设备接收:07 03 02 00 00 30 44
16:02:28.297 设备发送:08 03 04 84 00 04 05 89
16:02:33.314 设备接收:08 03 08 13 8B 05 7A 00 01 05 7A CB B6
16:02:33.325 设备发送:08 03 04 8D 00 05 14 4B
16:02:38.318 设备接收:08 03 0A 08 DF 08 24 00 00 00 00 00 00 01 04
16:02:38.337 设备发送:08 03 04 98 00 05 05 8F
16:02:43.334 设备接收:08 03 0A 08 D2 08 19 00 00 00 00 00 00 B5 57
16:02:43.344 设备发送:08 03 04 A3 00 05 74 42
16:02:48.338 设备接收:08 03 0A 08 E2 08 5D 00 00 00 00 00 00 E5 52
16:02:48.360 设备发送:08 03 06 84 00 04 04 31
16:02:53.370 设备接收:08 03 08 00 00 91 DB 00 0F BA 4A 01 4D
16:02:53.391 设备发送:08 03 04 04 00 01 C4 62
16:02:58.386 设备接收:08 03 02 00 02 E5 84
16:02:58.409 设备发送:08 03 05 84 00 0F 45 B2
16:03:03.427 设备接收:08 03 1E 1A 67 00 EA 00 9E 1B 17 00 6A 00 4A 1B E3 00 73 00 52 19 A2 01 51 00 DD 1A 3D 01 1C 00 BF 52 9E
16:03:03.448 设备发送:08 03 05 93 00 0F F5 B6
16:03:08.418 设备接收:08 03 1E 1F C4 01 05 00 D4 1E EC 00 94 00 75 1B 90 00 89 00 61 1A 2E 00 8C 00 5E 1A 7C 01 B1 01 25 CA FE
16:03:08.471 设备发送:08 03 05 A2 00 0F A4 79
16:03:13.453 设备接收:08 03 1E 00 01 00 08 00 00 00 00 00 05 00 00 00 00 00 00 00 00 00 00 00 00 00 00 00 00 00 00 00 00 BE BA
16:03:13.474 设备发送:08 03 05 B1 00 03 55 B9
16:03:18.498 设备接收:08 03 06 00 00 00 00 00 00 4B 25
16:03:18.509 设备发送:08 03 04 2B 00 01 F5 AB
16:03:23.494 设备接收:08 03 02 02 85 A4 86
16:03:23.514 设备发送:08 03 04 20 00 01 84 69
16:03:28.521 设备接收:08 03 02 00 22 E4 5C
16:03:28.532 设备发送:08 03 04 05 00 01 95 A2
16:03:33.537 设备接收:08 03 02 00 00 64 45
16:03:33.558 设备发送:09 03 04 84 00 04 04 58
16:03:38.557 设备接收:09 03 08 13 89 04 CF 00 1D 04 CF 61 60
16:03:38.568 设备发送:09 03 04 8D 00 05 15 9A
16:03:43.585 设备接收:09 03 0A 08 DD 07 18 00 00 00 00 00 00 A6 A6
16:03:43.596 设备发送:09 03 04 98 00 05 04 5E
16:03:48.589 设备接收:09 03 0A 08 D8 07 33 00 00 00 00 00 00 02 F4
16:03:48.609 设备发送:09 03 04 A3 00 05 75 93
16:03:53.638 设备接收:09 03 0A 08 E5 07 37 00 00 00 00 00 00 4B A5
16:03:53.648 设备发送:09 03 06 84 00 04 05 E0
16:03:58.628 设备接收:09 03 08 00 00 82 B8 00 0E 4E BE D5 9D
16:03:58.681 设备发送:09 03 04 04 00 01 C5 B3
16:04:03.660 设备接收:09 03 02 00 02 D8 44
16:04:03.682 设备发送:09 03 05 84 00 0F 44 63
16:04:08.686 设备接收:09 03 1E 1E CC 00 59 00 46 1F 13 00 5E 00 4B 1E DE 00 63 00 4E 1F CC 00 74 00 5E 1E C6 00 6A 00 54 E2 8A
16:04:08.698 设备发送:09 03 05 93 00 0F F4 67
16:04:13.703 设备接收:09 03 1E 1E 9E 01 44 00 FE 1E C6 00 76 00 5D 1E 62 01 5C 01 0F 1D 72 00 BC 00 8E 1D E8 00 BB 00 8F 3C 5F
16:04:13.721 设备发送:09 03 05 A2 00 0F A5 A8
16:04:18.758 设备接收:09 03 1E 00 04 00 00 00 00 00 03 00 03 00 00 00 00 00 00 00 00 00 00 00 00 00 00 00 00 00 00 00 00 DE A8
16:04:18.779 设备发送:09 03 05 B1 00 03 54 68
16:04:23.770 设备接收:09 03 06 00 00 00 00 00 00 46 B5
16:04:23.790 设备发送:09 03 04 2B 00 01 F4 7A
16:04:28.791 设备接收:09 03 02 02 76 D9 03
16:04:28.805 设备发送:09 03 04 20 00 01 85 B8
16:04:33.811 设备接收:09 03 02 00 23 18 5C
16:04:33.833 设备发送:09 03 04 05 00 01 94 73
16:04:38.833 设备接收:09 03 02 00 00 59 85
16:04:38.854 设备发送:0A 03 04 84 00 04 04 6B
16:04:43.864 设备发送:0A 03 04 84 00 04 04 6B
16:04:48.880 设备发送:0A 03 04 84 00 04 04 6B
16:04:53.911 设备发送:0A 03 04 8D 00 05 15 A9
16:04:58.920 设备发送:0A 03 04 8D 00 05 15 A9
16:05:03.949 设备发送:0A 03 04 8D 00 05 15 A9
16:05:08.963 设备发送:0A 03 04 98 00 05 04 6D
16:05:14.010 设备发送:0A 03 04 98 00 05 04 6D
16:05:19.025 设备发送:0A 03 04 98 00 05 04 6D
16:05:24.025 设备发送:0A 03 04 A3 00 05 75 A0
16:05:29.063 设备发送:0A 03 04 A3 00 05 75 A0
16:05:34.064 设备发送:0A 03 04 A3 00 05 75 A0
16:05:39.110 设备发送:0A 03 06 84 00 04 05 D3
16:05:44.107 设备发送:0A 03 06 84 00 04 05 D3
16:05:49.144 设备发送:0A 03 06 84 00 04 05 D3
16:05:54.148 设备发送:0A 03 04 04 00 01 C5 80
16:05:59.185 设备发送:0A 03 04 04 00 01 C5 80
16:06:04.188 设备发送:0A 03 04 04 00 01 C5 80
16:06:09.193 设备发送:0A 03 05 84 00 0F 44 50
16:06:14.253 设备发送:0A 03 05 84 00 0F 44 50
16:06:19.271 设备发送:0A 03 05 84 00 0F 44 50
16:06:24.273 设备发送:0A 03 05 93 00 0F F4 54
16:06:29.273 设备发送:0A 03 05 93 00 0F F4 54
16:06:34.328 设备发送:0A 03 05 93 00 0F F4 54
16:06:39.327 设备发送:0A 03 05 A2 00 0F A5 9B
16:06:44.382 设备发送:0A 03 05 A2 00 0F A5 9B
16:06:49.400 设备发送:0A 03 05 A2 00 0F A5 9B
16:06:54.383 设备发送:0A 03 05 B1 00 03 54 5B
16:06:59.422 设备发送:0A 03 05 B1 00 03 54 5B
16:07:04.422 设备发送:0A 03 05 B1 00 03 54 5B
16:07:09.468 设备发送:0A 03 04 2B 00 01 F4 49
16:07:14.488 设备发送:0A 03 04 2B 00 01 F4 49
16:07:19.489 设备发送:0A 03 04 2B 00 01 F4 49
16:07:24.521 设备发送:0A 03 04 20 00 01 85 8B
16:07:29.521 设备发送:0A 03 04 20 00 01 85 8B
16:07:34.557 设备发送:0A 03 04 20 00 01 85 8B
16:07:39.581 设备发送:0A 03 04 05 00 01 94 40
16:07:44.605 设备发送:0A 03 04 05 00 01 94 40
16:07:49.630 设备发送:0A 03 04 05 00 01 94 40
16:07:54.648 设备发送:01 03 04 84 00 04 05 10
16:07:59.627 设备接收:01 03 08 13 8A 04 A3 FF FF 04 A3 78 06
16:07:59.642 设备发送:01 03 04 8D 00 05 14 D2
16:08:04.663 设备接收:01 03 0A 08 DF 06 D4 00 00 00 00 00 00 6D 4E
16:08:04.678 设备发送:01 03 04 98 00 05 05 16
16:08:09.664 设备接收:01 03 0A 08 E0 06 EC 00 00 00 00 00 00 C1 7C
16:08:09.680 设备发送:01 03 04 A3 00 05 74 DB
16:08:14.671 设备接收:01 03 0A 08 E9 06 FB 00 00 00 00 00 00 CC 2D
16:08:14.702 设备发送:01 03 06 84 00 04 04 A8
16:08:19.729 设备接收:01 03 08 00 00 B2 D4 00 13 3D 25 9E 99
16:08:19.745 设备发送:01 03 04 04 00 01 C4 FB
16:08:24.752 设备接收:01 03 02 00 02 39 85
16:08:24.768 设备发送:01 03 05 84 00 0F 45 2B
16:08:29.739 设备接收:01 03 1E 1D D4 01 20 00 DC 21 1D 00 E0 00 BE 21 22 00 CD 00 AE 21 22 00 E3 00 C1 18 88 00 8D 00 59 12 91
16:08:29.770 设备发送:01 03 05 93 00 0F F5 2F
16:08:34.764 设备接收:01 03 1E 00 00 00 00 00 00 1B B9 01 2E 00 D6 1D 34 00 8B 00 68 1D 2D 00 95 00 6F 00 00 00 03 00 00 3E 92
16:08:34.780 设备发送:01 03 05 A2 00 0F A4 E0
16:08:39.785 设备接收:01 03 1E 00 00 00 00 00 00 00 00 00 00 00 00 00 00 00 00 00 00 00 00 00 00 00 00 00 00 00 00 00 00 D8 BA
16:08:39.801 设备发送:01 03 05 B1 00 03 55 20
16:08:44.797 设备接收:01 03 06 00 00 00 00 00 00 21 75
16:08:44.844 设备发送:01 03 04 2B 00 01 F5 32
16:08:49.843 设备接收:01 03 02 02 CE 38 B0
16:08:49.858 设备发送:01 03 04 20 00 01 84 F0
16:08:54.855 设备接收:01 03 02 00 33 F8 51
16:08:54.870 设备发送:01 03 04 05 00 01 95 3B
16:08:59.885 设备接收:01 03 02 00 00 B8 44
16:08:59.900 设备发送:02 03 04 84 00 04 05 23
16:09:04.880 设备接收:02 03 08 13 86 04 B9 00 00 04 B9 63 6F
16:09:04.895 设备发送:02 03 04 8D 00 05 14 E1
16:09:09.905 设备接收:02 03 0A 08 E0 06 F2 00 00 00 00 00 00 3A BE
16:09:09.936 设备发送:02 03 04 98 00 05 05 25
16:09:14.935 设备接收:02 03 0A 08 E0 07 0D 00 00 00 00 00 00 F4 7D
16:09:14.950 设备发送:02 03 04 A3 00 05 74 E8
16:09:19.949 设备接收:02 03 0A 08 E9 06 FF 00 00 00 00 00 00 8C 2E
16:09:19.965 设备发送:02 03 06 84 00 04 04 9B
16:09:24.962 设备接收:02 03 08 00 00 AB 04 00 13 84 C9 20 1B
16:09:24.979 设备发送:02 03 04 04 00 01 C4 C8
16:09:29.991 设备接收:02 03 02 00 02 7D 85
16:09:30.007 设备发送:02 03 05 84 00 0F 45 18
16:09:35.003 设备接收:02 03 1E 21 96 00 60 00 52 21 1D 00 5C 00 4E 21 08 00 75 00 63 21 18 00 FD 00 D7 20 9E 00 78 00 64 39 FF
16:09:35.019 设备发送:02 03 05 93 00 0F F5 1C
16:09:40.026 设备接收:02 03 1E 21 68 00 66 00 57 21 A9 00 80 00 6E 20 77 01 13 00 E5 20 E3 00 89 00 74 1D 85 00 D3 00 9F EF 4C
16:09:40.073 设备发送:02 03 05 A2 00 0F A4 D3
16:09:45.052 设备接收:02 03 1E 00 00 00 03 00 00 00 00 00 00 00 00 00 00 00 00 00 00 00 00 00 00 00 00 00 00 00 00 00 00 6D 7D
16:09:45.067 设备发送:02 03 05 B1 00 03 55 13
16:09:50.075 设备接收:02 03 06 00 00 00 00 00 00 35 85
16:09:50.091 设备发送:02 03 04 2B 00 01 F5 01
16:09:55.102 设备接收:02 03 02 02 C9 3D 72
16:09:55.127 设备发送:02 03 04 20 00 01 84 C3
16:10:00.124 设备接收:02 03 02 00 38 FD 96
16:10:00.145 设备发送:02 03 04 05 00 01 95 08
16:10:05.121 设备接收:02 03 02 00 00 FC 44
16:10:05.141 设备发送:03 03 04 84 00 04 04 F2
16:10:10.168 设备接收:03 03 08 13 85 06 F2 FF ED 06 F2 10 09
16:10:10.184 设备发送:03 03 04 8D 00 05 15 30
16:10:15.190 设备接收:03 03 0A 08 E0 0A 35 00 00 00 00 00 00 8E A6
16:10:15.206 设备发送:03 03 04 98 00 05 04 F4
16:10:20.210 设备接收:03 03 0A 08 E9 0A 30 00 00 00 00 00 00 B1 F6
16:10:20.219 设备发送:03 03 04 A3 00 05 75 39
16:10:25.233 设备接收:03 03 0A 08 EF 0A 58 00 00 00 00 00 00 73 90
16:10:25.245 设备发送:03 03 06 84 00 04 05 4A
16:10:30.244 设备接收:03 03 08 00 00 BE 0C 00 14 10 64 D9 5F
16:10:30.264 设备发送:03 03 04 04 00 01 C5 19
16:10:35.257 设备接收:03 03 02 00 02 40 45
16:10:35.269 设备发送:03 03 05 84 00 0F 44 C9
16:10:40.258 设备接收:03 03 1E 1F DE 01 A7 01 59 1F 98 01 B4 01 61 1F 10 01 65 01 1C 20 08 01 64 01 24 17 ED 01 27 00 B5 D8 34
16:10:40.277 设备发送:03 03 05 93 00 0F F4 CD
16:10:45.296 设备接收:03 03 1E 05 3D 00 00 00 00 12 EA 01 17 00 87 1B ED 00 DC 00 9D 1B B0 00 E2 00 A0 05 42 00 00 00 00 7C FB
16:10:45.316 设备发送:03 03 05 A2 00 0F A5 02
16:10:50.317 设备接收:03 03 1E 00 0E 00 00 00 00 00 00 00 00 00 00 00 00 00 00 00 00 00 00 00 00 00 00 00 00 00 00 00 00 81 70
16:10:50.338 设备发送:03 03 05 B1 00 03 54 C2
16:10:55.320 设备接收:03 03 06 00 00 00 00 00 00 38 15
16:10:55.341 设备发送:03 03 04 2B 00 01 F4 D0
16:11:00.368 设备接收:03 03 02 02 D1 00 B8
16:11:00.379 设备发送:03 03 04 20 00 01 85 12
16:11:05.367 设备接收:03 03 02 00 27 81 9E
16:11:05.386 设备发送:03 03 04 05 00 01 94 D9
16:11:10.389 设备接收:03 03 02 00 00 C1 84
16:11:10.409 设备发送:04 03 04 84 00 04 05 45
16:11:15.401 设备接收:04 03 08 13 85 04 BE 00 1A 04 BF 5A E2
16:11:15.420 设备发送:04 03 04 8D 00 05 14 87
16:11:20.412 设备接收:04 03 0A 08 E2 07 0B 00 00 00 00 00 00 82 DB
16:11:20.466 设备发送:04 03 04 98 00 05 05 43
16:11:25.457 设备接收:04 03 0A 08 DA 07 00 00 00 00 00 00 00 0B DA
16:11:25.468 设备发送:04 03 04 A3 00 05 74 8E
16:11:30.466 设备接收:04 03 0A 08 EA 07 1D 00 00 00 00 00 00 92 DA
16:11:30.478 设备发送:04 03 06 84 00 04 04 FD
16:11:35.491 设备接收:04 03 08 00 00 A0 06 00 11 4E 1B 31 15
16:11:35.512 设备发送:04 03 04 04 00 01 C4 AE
16:11:40.500 设备接收:04 03 02 00 02 F5 85
16:11:40.522 设备发送:04 03 05 84 00 0F 45 7E
16:11:45.532 设备接收:04 03 1E 1B 78 00 81 00 5A 1D 2D 01 0E 00 CA 1B 42 00 88 00 5F 1D 53 01 1D 00 D6 1C 43 01 94 01 24 66 C6
16:11:45.554 设备发送:04 03 05 93 00 0F F5 7A
16:11:50.541 设备接收:04 03 1E 1C 6B 01 21 00 D2 1B 32 01 18 00 C3 04 B8 00 01 00 00 04 D6 00 06 00 00 04 CE 00 00 00 00 10 32
16:11:50.564 设备发送:04 03 05 A2 00 0F A4 B5
16:11:55.584 设备接收:04 03 1E 00 00 00 00 00 00 00 01 00 04 00 00 00 00 00 00 00 00 00 00 00 00 00 00 00 00 00 00 00 00 8C A3
16:11:55.605 设备发送:04 03 05 B1 00 03 55 75
16:12:00.578 设备接收:04 03 06 00 00 00 00 00 00 1E 25
16:12:00.598 设备发送:04 03 04 2B 00 01 F5 67
16:12:05.599 设备接收:04 03 02 02 CB 34 B3
16:12:05.621 设备发送:04 03 04 20 00 01 84 A5
16:12:10.625 设备接收:04 03 02 00 25 B5 9F
16:12:10.646 设备发送:04 03 04 05 00 01 95 6E
16:12:15.645 设备接收:04 03 02 00 00 74 44
16:12:15.666 设备发送:05 03 04 84 00 04 04 94
16:12:20.675 设备接收:05 03 08 13 85 03 A3 FF E0 03 A3 A0 77
16:12:20.685 设备发送:05 03 04 8D 00 05 15 56
16:12:25.698 设备接收:05 03 0A 08 DD 05 77 00 00 00 00 00 00 A9 B5
16:12:25.718 设备发送:05 03 04 98 00 05 04 92
16:12:30.732 设备接收:05 03 0A 08 DC 05 62 00 00 00 00 00 00 E0 E4
16:12:30.742 设备发送:05 03 04 A3 00 05 75 5F
16:12:35.747 设备接收:05 03 0A 08 E5 05 8C 00 00 00 00 00 00 D0 BB
16:12:35.768 设备发送:05 03 06 84 00 04 05 2C
16:12:40.742 设备接收:05 03 08 00 00 84 FD 00 0E 9A 1E 78 1C
16:12:40.753 设备发送:05 03 04 04 00 01 C5 7F
16:12:45.780 设备接收:05 03 02 00 02 C8 45
16:12:45.791 设备发送:05 03 05 84 00 0F 44 AF
16:12:50.786 设备接收:05 03 1E 04 C8 00 00 00 00 17 C6 01 26 00 B3 18 72 00 BD 00 76 17 B7 00 FA 00 97 1F 35 00 6F 00 59 22 EB
16:12:50.795 设备发送:05 03 05 93 00 0F F4 AB
16:12:55.808 设备接收:05 03 1E 1E 6F 00 B1 00 8A 04 B4 00 00 00 00 19 EF 01 03 00 AC 04 C0 00 00 00 00 15 EA 01 3F 00 B3 32 AB FF
16:12:55.819 设备发送:05 03 05 A2 00 0F A5 64
16:13:00.826 设备接收:FF FF FF FF FF FF FF FF FF FF FF FF FF FF FF FF FF
16:13:00.847 设备发送:05 03 05 B1 00 03 54 A4
16:13:05.860 设备接收:FF FF FF FF FF FF FF FF FF FF FF FF FF FF FF FF FF FF FF FF FF FF FF FF FF FF FF FF FF FF FF FF FF FF FF FF FF FF FF FF FF FF FF FF FF FF FF FF FF FF
16:13:05.882 设备发送:05 03 04 2B 00 01 F4 B6
16:13:10.889 设备发送:05 03 04 2B 00 01 F4 B6
16:13:15.895 设备发送:05 03 04 2B 00 01 F4 B6
16:13:20.945 设备发送:05 03 04 20 00 01 85 74
16:13:25.933 设备发送:05 03 04 20 00 01 85 74
16:13:30.963 设备发送:05 03 04 20 00 01 85 74
16:13:35.976 设备发送:05 03 04 05 00 01 94 BF
16:13:41.017 设备发送:05 03 04 05 00 01 94 BF
16:13:46.016 设备发送:05 03 04 05 00 01 94 BF
16:13:51.054 设备发送:06 03 04 84 00 04 04 A7
16:13:56.066 设备发送:06 03 04 84 00 04 04 A7
16:14:01.076 设备发送:06 03 04 84 00 04 04 A7
16:14:06.122 设备发送:06 03 04 8D 00 05 15 65
16:14:11.139 设备发送:06 03 04 8D 00 05 15 65
16:14:16.155 设备发送:06 03 04 8D 00 05 15 65
16:14:21.181 设备发送:06 03 04 98 00 05 04 A1
16:14:26.189 设备发送:06 03 04 98 00 05 04 A1
16:14:31.220 设备发送:06 03 04 98 00 05 04 A1
16:14:36.229 设备发送:06 03 04 A3 00 05 75 6C
16:14:41.241 设备发送:06 03 04 A3 00 05 75 6C
16:14:46.276 设备发送:06 03 04 A3 00 05 75 6C
16:14:51.303 设备发送:06 03 06 84 00 04 05 1F
16:14:56.320 设备发送:06 03 06 84 00 04 05 1F
16:15:01.321 设备发送:06 03 06 84 00 04 05 1F
16:15:06.347 设备发送:06 03 04 04 00 01 C5 4C
16:15:11.380 设备发送:06 03 04 04 00 01 C5 4C
16:15:16.390 设备发送:06 03 04 04 00 01 C5 4C
16:15:21.389 设备发送:06 03 05 84 00 0F 44 9C
16:15:26.434 设备发送:06 03 05 84 00 0F 44 9C
16:15:31.455 设备发送:06 03 05 84 00 0F 44 9C
16:15:36.467 设备发送:06 03 05 93 00 0F F4 98
16:15:41.498 设备发送:06 03 05 93 00 0F F4 98
16:15:46.510 设备发送:06 03 05 93 00 0F F4 98
16:15:51.512 设备发送:06 03 05 A2 00 0F A5 57
16:15:56.535 设备发送:06 03 05 A2 00 0F A5 57
16:16:01.584 设备发送:06 03 05 A2 00 0F A5 57
16:16:06.585 设备发送:06 03 05 B1 00 03 54 97
16:16:11.614 设备发送:06 03 05 B1 00 03 54 97
16:16:16.591 设备接收:06 03 06 00 00 00 00 00 00 07 45
16:16:16.643 设备发送:06 03 04 2B 00 01 F4 85
16:16:21.634 设备接收:06 03 02 02 C7 4D 76
16:16:21.655 设备发送:06 03 04 20 00 01 85 47
16:16:26.638 设备接收:06 03 02 00 32 8C 51
16:16:26.648 设备发送:06 03 04 05 00 01 94 8C
16:16:31.664 设备接收:06 03 02 00 00 0D 84
16:16:31.675 设备发送:07 03 04 84 00 04 05 76
16:16:36.681 设备接收:07 03 08 13 85 01 67 FF D1 01 76 CA CC
16:16:36.703 设备发送:07 03 04 8D 00 05 14 B4
16:16:41.694 设备接收:07 03 0A 08 E8 02 1D 00 00 00 00 00 00 4E 46
16:16:41.715 设备发送:07 03 04 98 00 05 05 70
16:16:46.723 设备接收:07 03 0A 08 E0 02 25 00 00 00 00 00 00 90 45
16:16:46.736 设备发送:07 03 04 A3 00 05 74 BD
16:16:51.749 设备接收:07 03 0A 08 E8 02 19 00 00 00 00 00 00 0B 86
16:16:51.771 设备发送:07 03 06 84 00 04 04 CE
16:16:56.770 设备接收:07 03 08 00 00 45 47 00 07 39 7A 13 B7
16:16:56.779 设备发送:07 03 04 04 00 01 C4 9D
16:17:01.792 设备接收:07 03 02 00 02 B1 85
16:17:01.814 设备发送:07 03 05 84 00 0F 45 4D
16:17:06.823 设备接收:07 03 1E 1A 1A 00 87 00 5A 18 B0 00 7F 00 50 18 3E 00 64 00 3E 19 24 00 F5 00 9E 00 00 00 00 00 00 82 59
16:17:06.832 设备发送:07 03 05 93 00 0F F5 49
16:17:11.816 设备接收:07 03 1E 00 00 00 00 00 00 00 00 00 00 00 00 00 00 00 00 00 00 00 00 00 00 00 00 00 00 00 00 00 00 B0 BB
16:17:11.838 设备发送:07 03 05 A2 00 0F A4 86
16:17:16.859 设备接收:07 03 1E 00 00 00 00 00 00 00 00 00 00 00 00 00 00 00 00 00 00 00 00 00 00 00 00 00 00 00 00 00 00 B0 BB
16:17:16.881 设备发送:07 03 05 B1 00 03 55 46
16:17:21.874 设备接收:07 03 06 00 00 00 00 00 00 0A D5
16:17:21.896 设备发送:07 03 04 2B 00 01 F5 54
16:17:26.881 设备接收:07 03 02 01 D1 F1 88
16:17:26.900 设备发送:07 03 04 20 00 01 84 96
16:17:31.922 设备接收:07 03 02 00 10 31 88
16:17:31.930 设备发送:07 03 04 05 00 01 95 5D
16:17:36.936 设备接收:07 03 02 00 00 30 44
16:17:36.949 设备发送:08 03 04 84 00 04 05 89
16:17:41.951 设备接收:08 03 08 13 89 03 10 00 1B 03 11 93 91
16:17:41.963 设备发送:08 03 04 8D 00 05 14 4B
16:17:46.989 设备接收:08 03 0A 08 DA 04 A6 00 00 00 00 00 00 9C 09
16:17:47.002 设备发送:08 03 04 98 00 05 05 8F
16:17:51.990 设备接收:08 03 0A 08 D4 04 93 00 00 00 00 00 00 B5 6A
16:17:52.000 设备发送:08 03 04 A3 00 05 74 42
16:17:57.004 设备接收:08 03 0A 08 DE 04 E3 00 00 00 00 00 00 BA 0D
16:17:57.025 设备发送:08 03 06 84 00 04 04 31
16:18:02.035 设备接收:08 03 08 00 00 92 DF 00 0F BA 64 70 A2
16:18:02.045 设备发送:08 03 04 04 00 01 C4 62
16:18:07.060 设备接收:08 03 02 00 02 E5 84
16:18:07.071 设备发送:08 03 05 84 00 0F 45 B2
16:18:12.093 设备接收:08 03 1E 1A 1A 00 94 00 63 1B 68 00 29 00 1D 1A A4 00 4E 00 35 1A 91 00 C4 00 85 19 ED 00 94 00 62 8F 0C
16:18:12.103 设备发送:08 03 05 93 00 0F F5 B6
16:18:17.102 设备接收:08 03 1E 1E 87 00 81 00 64 1E 58 00 41 00 32 1B 41 00 5E 00 41 19 8F 00 61 00 3F 1A 34 01 10 00 B6 16 60
16:18:17.153 设备发送:08 03 05 A2 00 0F A4 79
16:18:22.144 设备接收:08 03 1E 00 01 00 08 00 00 00 00 00 04 00 00 00 00 00 00 00 00 00 00 00 00 00 00 00 00 00 00 00 00 AE 6B
16:18:22.163 设备发送:08 03 05 B1 00 03 55 B9
16:18:27.174 设备接收:08 03 06 00 00 00 00 00 00 4B 25
16:18:27.189 设备发送:08 03 04 2B 00 01 F5 AB
16:18:32.196 设备接收:08 03 02 02 85 A4 86
16:18:32.206 设备发送:08 03 04 20 00 01 84 69
16:18:37.187 设备接收:08 03 02 00 2D A4 58
16:18:37.241 设备发送:08 03 04 05 00 01 95 A2
16:18:42.237 设备接收:08 03 02 00 00 64 45
16:18:42.247 设备发送:09 03 04 84 00 04 04 58
16:18:47.236 设备接收:09 03 08 13 85 02 E7 FF EA 02 E7 4F 58
16:18:47.258 设备发送:09 03 04 8D 00 05 15 9A
16:18:52.253 设备接收:09 03 0A 08 DE 04 54 00 00 00 00 00 00 7F 87
16:18:52.275 设备发送:09 03 04 98 00 05 04 5E
16:18:57.274 设备接收:09 03 0A 08 D9 04 6D 00 00 00 00 00 00 F0 B4
16:18:57.313 设备发送:09 03 04 A3 00 05 75 93
16:19:02.298 设备接收:09 03 0A 08 E2 04 72 00 00 00 00 00 00 39 44
16:19:02.328 设备发送:09 03 06 84 00 04 05 E0
16:19:07.317 设备接收:09 03 08 00 00 83 A0 00 0E 4E D5 B5 A1
16:19:07.370 设备发送:09 03 04 04 00 01 C5 B3
16:19:12.350 设备接收:09 03 02 00 02 D8 44
16:19:12.371 设备发送:09 03 05 84 00 0F 44 63
16:19:17.384 设备接收:09 03 1E 1F 1D 00 21 00 1B 1D D3 00 25 00 1C 1E DF 00 2A 00 21 19 8D 00 78 00 4E 1E 2A 00 46 00 36 4B 58
16:19:17.395 设备发送:09 03 05 93 00 0F F4 67
16:19:22.400 设备接收:09 03 1E 1E 01 00 D2 00 A1 1E 7B 00 4D 00 3C 1D 70 00 E7 00 AE 1D C4 00 71 00 56 1D 48 00 79 00 5A E9 DF
16:19:22.420 设备发送:09 03 05 A2 00 0F A5 A8
16:19:27.418 设备接收:09 03 1E 00 03 00 00 00 00 00 01 00 03 00 00 00 00 00 00 00 00 00 00 00 00 00 00 00 00 00 00 00 00 07 D4
16:19:27.440 设备发送:09 03 05 B1 00 03 54 68
16:19:32.463 设备接收:09 03 06 00 00 00 00 00 00 46 B5
16:19:32.483 设备发送:09 03 04 2B 00 01 F4 7A
16:19:37.459 设备接收:09 03 02 02 76 D9 03
16:19:37.499 设备发送:09 03 04 20 00 01 85 B8
16:19:42.503 设备接收:09 03 02 00 31 98 51
16:19:42.523 设备发送:09 03 04 05 00 01 94 73
16:19:47.509 设备接收:09 03 02 00 00 59 85
16:19:47.517 设备发送:0A 03 04 84 00 04 04 6B
16:19:52.543 设备发送:0A 03 04 84 00 04 04 6B
16:19:57.584 设备发送:0A 03 04 84 00 04 04 6B
16:20:02.596 设备发送:0A 03 04 8D 00 05 15 A9
16:20:07.617 设备发送:0A 03 04 8D 00 05 15 A9
16:20:12.645 设备发送:0A 03 04 8D 00 05 15 A9
16:20:17.644 设备发送:0A 03 04 98 00 05 04 6D
16:20:22.680 设备发送:0A 03 04 98 00 05 04 6D
16:20:27.679 设备发送:0A 03 04 98 00 05 04 6D
16:20:32.708 设备发送:0A 03 04 A3 00 05 75 A0
16:20:37.731 设备发送:0A 03 04 A3 00 05 75 A0
16:20:42.735 设备发送:0A 03 04 A3 00 05 75 A0
16:20:47.780 设备发送:0A 03 06 84 00 04 05 D3
16:20:52.785 设备发送:0A 03 06 84 00 04 05 D3
16:20:57.835 设备发送:0A 03 06 84 00 04 05 D3
16:21:02.834 设备发送:0A 03 04 04 00 01 C5 80
16:21:07.855 设备发送:0A 03 04 04 00 01 C5 80
16:21:12.852 设备发送:0A 03 04 04 00 01 C5 80
16:21:17.891 设备发送:0A 03 05 84 00 0F 44 50
16:21:22.916 设备发送:0A 03 05 84 00 0F 44 50
16:21:27.942 设备发送:0A 03 05 84 00 0F 44 50
16:21:32.934 设备发送:0A 03 05 93 00 0F F4 54
16:21:37.978 设备发送:0A 03 05 93 00 0F F4 54
16:21:42.982 设备发送:0A 03 05 93 00 0F F4 54
16:21:47.998 设备发送:0A 03 05 A2 00 0F A5 9B
16:21:53.028 设备发送:0A 03 05 A2 00 0F A5 9B
16:21:58.048 设备发送:0A 03 05 A2 00 0F A5 9B
16:22:03.062 设备发送:0A 03 05 B1 00 03 54 5B
16:22:08.089 设备发送:0A 03 05 B1 00 03 54 5B
16:22:13.096 设备发送:0A 03 05 B1 00 03 54 5B
16:22:18.125 设备发送:0A 03 04 2B 00 01 F4 49
16:22:23.144 设备发送:0A 03 04 2B 00 01 F4 49
16:22:28.172 设备发送:0A 03 04 2B 00 01 F4 49
16:22:33.190 设备发送:0A 03 04 20 00 01 85 8B
16:22:38.195 设备发送:0A 03 04 20 00 01 85 8B
16:22:43.224 设备发送:0A 03 04 20 00 01 85 8B
16:22:48.252 设备发送:0A 03 04 05 00 01 94 40
16:22:53.273 设备发送:0A 03 04 05 00 01 94 40
16:22:58.293 设备发送:0A 03 04 05 00 01 94 40
16:23:03.322 设备发送:01 03 04 84 00 04 05 10
16:23:08.334 设备发送:01 03 04 84 00 04 05 10
16:23:13.346 设备发送:01 03 04 84 00 04 05 10
16:23:18.364 设备接收:01 03 08 13 85 02 87 FF FD 02 87 55 1C
16:23:18.376 设备发送:01 03 04 8D 00 05 14 D2
16:23:23.391 设备接收:01 03 0A 08 D8 03 DE 00 00 00 00 00 00 21 41
16:23:23.401 设备发送:01 03 04 98 00 05 05 16
16:23:28.385 设备接收:01 03 0A 08 D7 03 E9 00 00 00 00 00 00 26 72
16:23:28.405 设备发送:01 03 04 A3 00 05 74 DB
16:23:33.421 设备接收:01 03 0A 08 E1 04 05 00 00 00 00 00 00 35 FB
16:23:33.439 设备发送:01 03 06 84 00 04 04 A8
16:23:38.428 设备接收:01 03 08 00 00 B3 C0 00 13 3D 3C 6E 81
16:23:38.450 设备发送:01 03 04 04 00 01 C4 FB
16:23:43.449 设备接收:01 03 02 00 02 39 85
16:23:43.471 设备发送:01 03 05 84 00 0F 45 2B
16:23:48.460 设备接收:01 03 1E 20 55 00 B5 00 96 20 E4 00 7E 00 6A 21 27 00 72 00 60 21 26 00 83 00 6F 18 39 00 44 00 2A DB B9
16:23:48.482 设备发送:01 03 05 93 00 0F F5 2F
16:23:53.490 设备接收:01 03 1E 00 00 00 00 00 00 1C 06 00 8B 00 64 1C E5 00 3E 00 2E 1D 7B 00 46 00 35 00 00 00 03 00 00 07 77
16:23:53.498 设备发送:01 03 05 A2 00 0F A4 E0
16:23:58.502 设备接收:01 03 1E 00 00 00 00 00 00 00 00 00 00 00 00 00 00 00 00 00 00 00 00 00 00 00 00 00 00 00 00 00 00 D8 BA
16:23:58.511 设备发送:01 03 05 B1 00 03 55 20
16:24:03.525 设备接收:01 03 06 00 00 00 00 00 00 21 75
16:24:03.538 设备发送:01 03 04 2B 00 01 F5 32
16:24:08.546 设备接收:01 03 02 02 CE 38 B0
16:24:08.555 设备发送:01 03 04 20 00 01 84 F0
16:24:13.556 设备接收:01 03 02 00 25 79 9F
16:24:13.577 设备发送:01 03 04 05 00 01 95 3B
16:24:18.596 设备接收:01 03 02 00 00 B8 44
16:24:18.606 设备发送:02 03 04 84 00 04 05 23
16:24:23.623 设备接收:02 03 08 13 84 02 49 FF FD 02 49 A2 DC
16:24:23.635 设备发送:02 03 04 8D 00 05 14 E1
16:24:28.639 设备接收:02 03 0A 08 D9 03 A3 00 00 00 00 00 00 84 15
16:24:28.659 设备发送:02 03 04 98 00 05 05 25
16:24:33.656 设备接收:02 03 0A 08 D8 03 95 00 00 00 00 00 00 DF 86
16:24:33.668 设备发送:02 03 04 A3 00 05 74 E8
16:24:38.670 设备接收:02 03 0A 08 E0 03 C0 00 00 00 00 00 00 E9 42
16:24:38.691 设备发送:02 03 06 84 00 04 04 9B
16:24:43.691 设备接收:02 03 08 00 00 AB D0 00 13 84 DD 10 06
16:24:43.705 设备发送:02 03 04 04 00 01 C4 C8
16:24:48.710 设备接收:02 03 02 00 02 7D 85
16:24:48.732 设备发送:02 03 05 84 00 0F 45 18
16:24:53.743 设备接收:02 03 1E 20 FB 00 32 00 2A 20 B3 00 34 00 2B 20 6D 00 3B 00 31 1D 09 00 A8 00 7D 20 A2 00 3D 00 33 7F 38
16:24:53.756 设备发送:02 03 05 93 00 0F F5 1C
16:24:58.761 设备接收:02 03 1E 20 C8 00 32 00 2A 20 55 00 48 00 3B 20 29 00 7B 00 65 20 C0 00 42 00 37 1C 46 00 6C 00 4E 1B 67
16:24:58.772 设备发送:02 03 05 A2 00 0F A4 D3
16:25:03.771 设备接收:02 03 1E 00 00 00 02 00 00 00 00 00 00 00 00 00 00 00 00 00 00 00 00 00 00 00 00 00 00 00 00 00 00 93 FF
16:25:03.797 设备发送:02 03 05 B1 00 03 55 13
16:25:08.776 设备接收:02 03 06 00 00 00 00 00 00 35 85
16:25:08.796 设备发送:02 03 04 2B 00 01 F5 01
16:25:13.816 设备接收:02 03 02 02 C9 3D 72
16:25:13.838 设备发送:02 03 04 20 00 01 84 C3
16:25:18.812 设备接收:02 03 02 00 31 3D 90
16:25:18.834 设备发送:02 03 04 05 00 01 95 08
16:25:23.844 设备接收:02 03 02 00 00 FC 44
16:25:23.865 设备发送:03 03 04 84 00 04 04 F2
16:25:28.855 设备接收:03 03 08 13 85 03 9E FF E7 03 9F 62 EA
16:25:28.878 设备发送:03 03 04 8D 00 05 15 30
16:25:33.892 设备接收:03 03 0A 08 DC 05 6F 00 00 00 00 00 00 35 E2
16:25:33.904 设备发送:03 03 04 98 00 05 04 F4
16:25:38.907 设备接收:03 03 0A 08 DB 05 80 00 00 00 00 00 00 0D 1C
16:25:38.927 设备发送:03 03 04 A3 00 05 75 39
16:25:43.940 设备接收:03 03 0A 08 E4 05 9E 00 00 00 00 00 00 E6 EC
16:25:43.959 设备发送:03 03 06 84 00 04 05 4A
16:25:48.949 设备接收:03 03 08 00 00 BF 59 00 14 10 85 14 CA
16:25:48.971 设备发送:03 03 04 04 00 01 C5 19
16:25:53.971 设备接收:03 03 02 00 02 40 45
16:25:53.992 设备发送:03 03 05 84 00 0F 44 C9
16:25:58.968 设备接收:03 03 1E 20 2D 00 EA 00 C1 1F 6F 00 FA 00 C9 1E 20 00 B0 00 87 1F B5 00 BF 00 9B 18 3C 00 84 00 51 32 D2
16:25:58.989 设备发送:03 03 05 93 00 0F F4 CD
16:26:04.005 设备接收:03 03 1E 05 37 00 00 00 00 12 E9 00 7E 00 3D 1C 3F 00 83 00 5E 1C A2 00 85 00 61 05 3C 00 00 00 00 FF B2
16:26:04.017 设备发送:03 03 05 A2 00 0F A5 02
16:26:09.022 设备接收:03 03 1E 00 0C 00 00 00 00 00 00 00 00 00 00 00 00 00 00 00 00 00 00 00 00 00 00 00 00 00 00 00 00 01 73
16:26:09.038 设备发送:03 03 05 B1 00 03 54 C2
16:26:14.040 设备接收:03 03 06 00 00 00 00 00 00 38 15
16:26:14.059 设备发送:03 03 04 2B 00 01 F4 D0
16:26:19.071 设备接收:03 03 02 02 D1 00 B8
16:26:19.092 设备发送:03 03 04 20 00 01 85 12
16:26:24.088 设备接收:03 03 02 00 22 41 9D
16:26:24.097 设备发送:03 03 04 05 00 01 94 D9
16:26:29.097 设备接收:03 03 02 00 00 C1 84
16:26:29.107 设备发送:04 03 04 84 00 04 05 45
16:26:34.122 设备接收:04 03 08 13 8A 02 89 FF FF 02 89 F2 15
16:26:34.144 设备发送:04 03 04 8D 00 05 14 87
16:26:39.144 设备接收:04 03 0A 08 DB 03 DF 00 00 00 00 00 00 29 74
16:26:39.165 设备发送:04 03 04 98 00 05 05 43
16:26:44.161 设备接收:04 03 0A 08 D3 03 D3 00 00 00 00 00 00 82 B4
16:26:44.182 设备发送:04 03 04 A3 00 05 74 8E
16:26:49.182 设备接收:04 03 0A 08 DE 03 F1 00 00 00 00 00 00 D8 26
16:26:49.192 设备发送:04 03 06 84 00 04 04 FD
16:26:54.204 设备接收:04 03 08 00 00 A0 ED 00 11 4E 32 D4 DC
16:26:54.236 设备发送:04 03 04 04 00 01 C4 AE
16:26:59.207 设备接收:04 03 02 00 02 F5 85
16:26:59.268 设备发送:04 03 05 84 00 0F 45 7E
16:27:04.241 设备接收:04 03 1E 1B C7 00 37 00 27 1D 2D 00 7F 00 5F 1B E2 00 3C 00 2B 1D 52 00 A4 00 7B 1B 7C 00 EC 00 A6 5C 6C
16:27:04.256 设备发送:04 03 05 93 00 0F F5 7A
16:27:09.254 设备接收:04 03 1E 1C 11 00 B8 00 84 18 57 00 9F 00 63 04 AE 00 00 00 00 04 CA 00 05 00 00 04 C3 00 00 00 00 3F EC
16:27:09.275 设备发送:04 03 05 A2 00 0F A4 B5
16:27:14.282 设备接收:04 03 1E 00 00 00 00 00 00 00 01 00 04 00 00 00 00 00 00 00 00 00 00 00 00 00 00 00 00 00 00 00 00 8C A3
16:27:14.304 设备发送:04 03 05 B1 00 03 55 75
16:27:19.295 设备接收:04 03 06 00 00 00 00 00 00 1E 25
16:27:19.314 设备发送:04 03 04 2B 00 01 F5 67
16:27:24.312 设备接收:04 03 02 02 CB 34 B3
16:27:24.334 设备发送:04 03 04 20 00 01 84 A5
16:27:29.336 设备接收:04 03 02 00 30 74 50
16:27:29.359 设备发送:04 03 04 05 00 01 95 6E
16:27:34.351 设备接收:04 03 02 00 00 74 44
16:27:34.372 设备发送:05 03 04 84 00 04 04 94
16:27:39.365 设备接收:05 03 08 13 85 01 C8 FF FF 01 C8 F5 15
16:27:39.388 设备发送:05 03 04 8D 00 05 15 56
16:27:44.384 设备接收:05 03 0A 08 DA 02 CE 00 00 00 00 00 00 E6 A8
16:27:44.437 设备发送:05 03 04 98 00 05 04 92
16:27:49.437 设备接收:05 03 0A 08 D6 02 D9 00 00 00 00 00 00 D4 A9
16:27:49.449 设备发送:05 03 04 A3 00 05 75 5F
16:27:54.449 设备接收:05 03 0A 08 DD 03 0A 00 00 00 00 00 00 84 98
16:27:54.458 设备发送:05 03 06 84 00 04 05 2C
16:27:59.449 设备接收:05 03 08 00 00 85 AA 00 0E 9A 2F CD D5
16:27:59.470 设备发送:05 03 04 04 00 01 C5 7F
16:28:04.480 设备接收:05 03 02 00 02 C8 45
16:28:04.501 设备发送:05 03 05 84 00 0F 44 AF
16:28:09.492 设备接收:05 03 1E 04 B2 00 00 00 00 17 23 00 B7 00 6C 17 82 00 73 00 45 18 07 00 73 00 47 1E E7 00 35 00 2A 44 E9
16:28:09.523 设备发送:05 03 05 93 00 0F F4 AB
16:28:14.516 设备接收:05 03 1E 1D 81 00 64 00 4B 04 A0 00 03 00 00 19 4E 00 7B 00 50 04 AE 00 00 00 00 15 99 00 B4 00 63 52 40 FF
16:28:14.535 设备发送:05 03 05 A2 00 0F A5 64
16:28:19.555 设备接收:05 03 1E 00 07 00 00 00 00 00 01 00 03 00 00 00 00 00 00 00 00 00 00 00 00 00 00 00 00 00 00 00 00 D7 D1
16:28:19.564 设备发送:05 03 05 B1 00 03 54 A4
16:28:24.556 设备接收:05 03 06 00 00 00 00 00 00 13 B5
16:28:24.578 设备发送:05 03 04 2B 00 01 F4 B6
16:28:29.589 设备接收:05 03 02 02 CB 09 73
16:28:29.608 设备发送:05 03 04 20 00 01 85 74
16:28:34.613 设备接收:05 03 02 00 33 09 91
16:28:34.634 设备发送:05 03 04 05 00 01 94 BF
16:28:39.625 设备接收:05 03 02 00 00 49 84
16:28:39.645 设备发送:06 03 04 84 00 04 04 A7
16:28:44.655 设备接收:06 03 08 13 85 01 63 FF E2 01 64 4F F2
16:28:44.666 设备发送:06 03 04 8D 00 05 15 65
16:28:49.682 设备接收:06 03 0A 08 DB 02 45 00 00 00 00 00 00 D5 F3
16:28:49.700 设备发送:06 03 04 98 00 05 04 A1
16:28:54.687 设备接收:06 03 0A 08 D7 02 5A 00 00 00 00 00 00 6E 32
16:28:54.701 设备发送:06 03 04 A3 00 05 75 6C
16:28:59.704 设备接收:06 03 0A 08 E0 02 79 00 00 00 00 00 00 0E C1
16:28:59.726 设备发送:06 03 06 84 00 04 05 1F
16:29:04.726 设备接收:06 03 08 00 00 80 7F 00 0E 88 99 42 00
16:29:04.748 设备发送:06 03 04 04 00 01 C5 4C
16:29:09.760 设备接收:06 03 02 00 02 8C 45
16:29:09.769 设备发送:06 03 05 84 00 0F 44 9C
16:29:14.760 设备接收:06 03 1E 04 A6 00 04 00 00 1C 84 00 6E 00 50 1C E2 00 6D 00 51 1B 55 00 39 00 28 1E 6B 00 6F 00 57 44 45
16:29:14.790 设备发送:06 03 05 93 00 0F F4 98
16:29:19.801 设备接收:06 03 1E 04 A4 00 00 00 00 04 93 00 01 00 00 17 CB 00 70 00 44 04 94 00 05 00 00 15 88 00 9D 00 56 8E 56
16:29:19.809 设备发送:06 03 05 A2 00 0F A5 57
16:29:24.827 设备接收:06 03 1E 00 08 00 00 00 00 00 00 00 00 00 00 00 00 00 00 00 00 00 00 00 00 00 00 00 00 00 00 00 00 DD 75
16:29:24.847 设备发送:06 03 05 B1 00 03 54 97
16:29:29.833 设备接收:06 03 06 00 00 00 00 00 00 07 45
16:29:29.845 设备发送:06 03 04 2B 00 01 F4 85
16:29:34.868 设备接收:06 03 02 02 C7 4D 76
16:29:34.881 设备发送:06 03 04 20 00 01 85 47
16:29:39.873 设备接收:06 03 02 00 35 CD 93
16:29:39.882 设备发送:06 03 04 05 00 01 94 8C
16:29:44.914 设备接收:06 03 02 00 00 0D 84
16:29:44.923 设备发送:07 03 04 84 00 04 05 76
16:29:49.918 设备接收:07 03 08 13 8B 00 E5 FF CF 00 FD 7D 32
16:29:49.941 设备发送:07 03 04 8D 00 05 14 B4
16:29:54.948 设备接收:07 03 0A 08 DE 01 70 00 00 00 00 00 00 CD 34
16:29:54.969 设备发送:07 03 04 98 00 05 05 70
16:29:59.957 设备接收:07 03 0A 08 D9 01 74 00 00 00 00 00 00 AE C4
16:29:59.975 设备发送:07 03 04 A3 00 05 74 BD
16:30:04.986 设备接收:07 03 0A 08 E1 01 67 00 00 00 00 00 00 BF C4
16:30:05.006 设备发送:07 03 06 84 00 04 04 CE
16:30:10.002 设备接收:07 03 08 00 00 45 85 00 07 39 81 2B E5
16:30:10.011 设备发送:07 03 04 04 00 01 C4 9D
16:30:15.010 设备接收:07 03 02 00 02 B1 85
16:30:15.019 设备发送:07 03 05 84 00 0F 45 4D
16:30:20.044 设备接收:07 03 1E 19 2A 00 63 00 3F 1B 2E 00 3E 00 2B 1B 5E 00 2F 00 21 17 E4 00 AE 00 6A 00 00 00 00 00 00 87 A2
16:30:20.076 设备发送:07 03 05 93 00 0F F5 49
16:30:25.074 设备接收:07 03 1E 00 00 00 00 00 00 00 00 00 00 00 00 00 00 00 00 00 00 00 00 00 00 00 00 00 00 00 00 00 00 B0 BB
16:30:25.086 设备发送:07 03 05 A2 00 0F A4 86
16:30:30.079 设备接收:07 03 1E 00 00 00 00 00 00 00 00 00 00 00 00 00 00 00 00 00 00 00 00 00 00 00 00 00 00 00 00 00 00 B0 BB
16:30:30.129 设备发送:07 03 05 B1 00 03 55 46
16:30:35.143 设备接收:07 03 06 00 00 00 00 00 00 0A D5
16:30:35.158 设备发送:07 03 04 2B 00 01 F5 54
16:30:40.166 设备接收:07 03 02 01 D1 F1 88
16:30:40.182 设备发送:07 03 04 20 00 01 84 96
16:30:45.149 设备接收:07 03 02 00 0F 70 40
16:30:45.180 设备发送:07 03 04 05 00 01 95 5D
16:30:50.177 设备接收:07 03 02 00 00 30 44
16:30:50.189 设备发送:08 03 04 84 00 04 05 89
16:30:55.206 设备接收:08 03 08 13 87 01 A7 FF F8 01 A7 C8 9D
16:30:55.224 设备发送:08 03 04 8D 00 05 14 4B
16:31:00.235 设备接收:08 03 0A 08 D3 02 CA 00 00 00 00 00 00 DA 75
16:31:00.251 设备发送:08 03 04 98 00 05 05 8F
16:31:05.253 设备接收:08 03 0A 08 CE 02 AD 00 00 00 00 00 00 59 E3
16:31:05.269 设备发送:08 03 04 A3 00 05 74 42
16:31:10.285 设备接收:08 03 0A 08 DE 03 02 00 00 00 00 00 00 0A E5
16:31:10.313 设备发送:08 03 06 84 00 04 04 31
16:31:15.291 设备接收:08 03 08 00 00 93 5C 00 0F BA 71 F5 62
16:31:15.307 设备发送:08 03 04 04 00 01 C4 62
16:31:20.306 设备接收:08 03 02 00 02 E5 84
16:31:20.321 设备发送:08 03 05 84 00 0F 45 B2
16:31:25.334 设备接收:08 03 1E 1A 18 00 5B 00 3C 1B 17 00 20 00 16 1A A3 00 27 00 1B 1A 43 00 7F 00 55 19 ED 00 5C 00 3D D5 6C
16:31:25.350 设备发送:08 03 05 93 00 0F F5 B6
16:31:30.364 设备接收:08 03 1E 1E 36 00 57 00 43 1E 56 00 32 00 26 1B 41 00 30 00 21 19 8F 00 31 00 20 1A 84 00 9C 00 6A 66 41
16:31:30.395 设备发送:08 03 05 A2 00 0F A4 79
16:31:35.399 设备接收:08 03 1E 00 00 00 08 00 00 00 00 00 04 00 00 00 00 00 00 00 00 00 00 00 00 00 00 00 00 00 00 00 00 6E 6A
16:31:35.414 设备发送:08 03 05 B1 00 03 55 B9
16:31:40.423 设备接收:08 03 06 00 00 00 00 00 00 4B 25
16:31:40.461 设备发送:08 03 04 2B 00 01 F5 AB
16:31:45.438 设备接收:08 03 02 02 85 A4 86
16:31:45.454 设备发送:08 03 04 20 00 01 84 69
16:31:50.445 设备接收:08 03 02 00 34 65 92
16:31:50.460 设备发送:08 03 04 05 00 01 95 A2
16:31:55.476 设备接收:08 03 02 00 00 64 45
16:31:55.505 设备发送:09 03 04 84 00 04 04 58
16:32:00.504 设备接收:09 03 08 13 8A 01 A9 FF E4 01 AA 79 63
16:32:00.519 设备发送:09 03 04 8D 00 05 15 9A
16:32:05.519 设备接收:09 03 0A 08 D5 02 9A 00 00 00 00 00 00 A3 51
16:32:05.534 设备发送:09 03 04 98 00 05 04 5E
16:32:10.529 设备接收:09 03 0A 08 D4 02 C5 00 00 00 00 00 00 01 C4
16:32:10.546 设备发送:09 03 04 A3 00 05 75 93
16:32:15.563 设备接收:09 03 0A 08 DF 02 CE 00 00 00 00 00 00 C8 34
16:32:15.579 设备发送:09 03 06 84 00 04 05 E0
16:32:20.571 设备接收:09 03 08 00 00 84 1A 00 0E 4E E1 6C 1A
16:32:20.586 设备发送:09 03 04 04 00 01 C5 B3
16:32:25.593 设备接收:09 03 02 00 02 D8 44
16:32:25.608 设备发送:09 03 05 84 00 0F 44 63
16:32:30.628 设备接收:09 03 1E 1D DC 00 18 00 12 1E 23 00 1A 00 14 1D 4E 00 1C 00 15 19 DD 00 48 00 2F 1D DA 00 23 00 1B 31 14
16:32:30.660 设备发送:09 03 05 93 00 0F F4 67
16:32:35.649 设备接收:09 03 1E 1D FE 00 77 00 5C 1E CA 00 25 00 1D 1D 25 00 89 00 66 1D 76 00 41 00 31 1D 9A 00 42 00 32 A8 3C
16:32:35.680 设备发送:09 03 05 A2 00 0F A5 A8
16:32:40.689 设备接收:09 03 1E 00 03 00 00 00 00 00 00 00 03 00 00 00 00 00 00 00 00 00 00 00 00 00 00 00 00 00 00 00 00 CA 48
16:32:40.704 设备发送:09 03 05 B1 00 03 54 68
16:32:45.691 设备接收:09 03 06 00 00 00 00 00 00 46 B5
16:32:45.722 设备发送:09 03 04 2B 00 01 F4 7A
16:32:50.715 设备接收:09 03 02 02 76 D9 03
16:32:50.732 设备发送:09 03 04 20 00 01 85 B8
16:32:55.726 设备接收:09 03 02 00 20 58 5D
16:32:55.742 设备发送:09 03 04 05 00 01 94 73
16:33:00.758 设备接收:09 03 02 00 00 59 85
16:33:00.774 设备发送:0A 03 04 84 00 04 04 6B
16:33:05.792 设备发送:0A 03 04 84 00 04 04 6B
16:33:10.837 设备发送:0A 03 04 84 00 04 04 6B
16:33:15.845 设备发送:0A 03 04 8D 00 05 15 A9
16:33:20.856 设备发送:0A 03 04 8D 00 05 15 A9
16:33:25.886 设备发送:0A 03 04 8D 00 05 15 A9
16:33:30.903 设备发送:0A 03 04 98 00 05 04 6D
16:33:35.911 设备发送:0A 03 04 98 00 05 04 6D
16:33:40.942 设备发送:0A 03 04 98 00 05 04 6D
16:33:45.941 设备发送:0A 03 04 A3 00 05 75 A0
16:33:50.969 设备发送:0A 03 04 A3 00 05 75 A0
16:33:55.981 设备发送:0A 03 04 A3 00 05 75 A0
16:34:01.032 设备发送:0A 03 06 84 00 04 05 D3
16:34:06.019 设备发送:0A 03 06 84 00 04 05 D3
16:34:11.057 设备发送:0A 03 06 84 00 04 05 D3
16:34:16.083 设备发送:0A 03 04 04 00 01 C5 80
16:34:21.078 设备发送:0A 03 04 04 00 01 C5 80
16:34:26.098 设备发送:0A 03 04 04 00 01 C5 80
16:34:31.129 设备发送:0A 03 05 84 00 0F 44 50
16:34:36.162 设备发送:0A 03 05 84 00 0F 44 50
16:34:41.192 设备发送:0A 03 05 84 00 0F 44 50
16:34:46.182 设备发送:0A 03 05 93 00 0F F4 54
16:34:51.215 设备发送:0A 03 05 93 00 0F F4 54
16:34:56.246 设备发送:0A 03 05 93 00 0F F4 54
16:35:01.255 设备发送:0A 03 05 A2 00 0F A5 9B
16:35:06.288 设备发送:0A 03 05 A2 00 0F A5 9B
16:35:11.301 设备发送:0A 03 05 A2 00 0F A5 9B
16:35:16.331 设备发送:0A 03 05 B1 00 03 54 5B
16:35:21.343 设备发送:0A 03 05 B1 00 03 54 5B
16:35:26.363 设备发送:0A 03 05 B1 00 03 54 5B
16:35:31.387 设备发送:0A 03 04 2B 00 01 F4 49
16:35:36.406 设备发送:0A 03 04 2B 00 01 F4 49
16:35:41.402 设备发送:0A 03 04 2B 00 01 F4 49
16:35:46.423 设备发送:0A 03 04 20 00 01 85 8B
16:35:51.465 设备发送:0A 03 04 20 00 01 85 8B

