
14:28:44.408 设备接收:02 03 08 00 00 8B 57 00 12 CA 91 C6 ED
14:28:44.412 设备发送:02 03 04 04 00 01 C4 C8
14:28:45.236 设备接收:02 03 02 00 02 7D 85
14:28:45.249 设备发送:03 03 04 84 00 04 04 F2
14:28:46.041 设备接收:03 03 08 13 87 18 39 FF CC 18 3A CD 9B
14:28:46.057 设备发送:03 03 04 8D 00 21 15 2B
14:28:46.885 设备接收:03 03 42 08 FE 22 C5 00 00 00 00 00 00 00 00 00 00 00 00 00 00 00 00 00 00 09 1F 22 B3 00 00 00 00 00 00 00 00 00 00 00 00 00 00 00 00 00 00 09 15 22 C6 00 00 00 00 00 00 00 00 00 00 00 00 00 00 00 00 00 00 DB 8A
14:28:46.900 设备发送:03 03 06 84 00 04 05 4A
14:28:47.680 设备接收:03 03 08 00 00 98 1D 00 13 41 68 AE 0E
14:28:47.696 设备发送:03 03 04 04 00 01 C5 19
14:28:48.505 设备接收:03 03 02 00 02 40 45
14:28:48.536 设备发送:04 03 04 84 00 04 05 45
14:28:49.349 设备发送:04 03 04 84 00 04 05 45
14:28:50.159 设备接收:04 03 08 13 87 14 62 FF D5 14 62 67 D3
14:28:50.175 设备发送:04 03 04 8D 00 21 14 9C
14:28:50.985 设备接收:04 03 42 09 08 1D 74 00 00 00 00 00 00 00 00 00 00 00 00 00 00 00 00 00 00 08 F7 1D 66 00 00 00 00 00 00 00 00 00 00 00 00 00 00 00 00 00 00 09 15 1D 6F 00 00 00 00 00 00 00 00 00 00 00 00 00 00 00 00 00 00 3A 7C
14:28:51.000 设备发送:04 03 06 84 00 04 04 FD
14:28:51.832 设备发送:04 03 06 84 00 04 04 FD
14:28:52.614 设备接收:04 03 08 00 00 7E 66 00 10 9E B4 EF DF
14:28:52.629 设备发送:04 03 04 04 00 01 C4 AE
14:28:53.441 设备接收:04 03 02 00 02 F5 85
14:28:53.457 设备发送:05 03 04 84 00 04 04 94
14:28:54.270 设备接收:05 03 08 13 86 10 FC FF 9A 10 FD A8 C8
14:28:54.287 设备发送:05 03 04 8D 00 21 15 4D
14:28:55.095 设备接收:05 03 42 09 01 18 88 00 00 00 00 00 00 00 00 00 00 00 00 00 00 00 00 00 00 09 0C 18 74 00 00 00 00 00 00 00 00 00 00 00 00 00 00 00 00 00 00 09 0D 18 7C 00 00 00 00 00 00 00 00 00 00 00 00 00 00 00 00 00 00 26 F0
14:28:55.110 设备发送:05 03 06 84 00 04 05 2C
14:28:55.923 设备接收:05 03 08 00 00 6A 0C 00 0E 08 4F BE 1B
14:28:55.939 设备发送:05 03 04 04 00 01 C5 7F
14:28:56.709 设备接收:05 03 02 00 02 C8 45
14:28:56.724 设备发送:06 03 04 84 00 04 04 A7
14:28:57.537 设备接收:06 03 08 13 85 10 92 FF 9A 10 94 BD 6B
14:28:57.553 设备发送:06 03 04 8D 00 21 15 7E
14:28:58.363 设备接收:06 03 42 09 02 17 E4 00 00 00 00 00 00 00 00 00 00 00 00 00 00 00 00 00 00 09 0E 17 E8 00 00 00 00 00 00 00 00 00 00 00 00 00 00 00 00 00 00 09 11 18 01 00 00 00 00 00 00 00 00 00 00 00 00 00 00 00 00 00 00 6F 10
14:28:58.378 设备发送:06 03 06 84 00 04 05 1F
14:28:59.185 设备接收:06 03 08 00 00 66 B5 00 0D FD 52 5B 11
14:28:59.201 设备发送:06 03 04 04 00 01 C5 4C
14:29:00.011 设备接收:06 03 02 00 02 8C 45
14:29:00.027 设备发送:07 03 04 84 00 04 05 76
14:29:00.852 设备发送:07 03 04 84 00 04 05 76
14:29:01.664 设备发送:07 03 04 84 00 04 05 76
14:29:02.475 设备发送:07 03 04 8D 00 21 14 AF
14:29:03.286 设备发送:07 03 04 8D 00 21 14 AF
14:29:04.131 设备发送:07 03 04 8D 00 21 14 AF
14:29:04.945 设备发送:07 03 06 84 00 04 04 CE
14:29:05.757 设备发送:07 03 06 84 00 04 04 CE
14:29:06.588 设备发送:07 03 06 84 00 04 04 CE
14:29:07.406 设备发送:07 03 04 04 00 01 C4 9D
14:29:08.223 设备发送:07 03 04 04 00 01 C4 9D
14:29:09.038 设备发送:07 03 04 04 00 01 C4 9D
14:29:09.853 设备发送:08 03 04 84 00 04 05 89
14:29:10.681 设备发送:08 03 04 84 00 04 05 89
14:29:11.511 设备发送:08 03 04 84 00 04 05 89
14:29:12.320 设备发送:08 03 04 8D 00 21 14 50
14:29:13.132 设备发送:08 03 04 8D 00 21 14 50
14:29:13.944 设备发送:08 03 04 8D 00 21 14 50
14:29:14.770 设备发送:08 03 06 84 00 04 04 31
14:29:15.602 设备发送:08 03 06 84 00 04 04 31
14:29:16.416 设备发送:08 03 06 84 00 04 04 31
14:29:17.255 设备发送:08 03 04 04 00 01 C4 62
14:29:18.069 设备发送:08 03 04 04 00 01 C4 62
14:29:18.881 设备发送:08 03 04 04 00 01 C4 62
14:29:19.691 设备发送:09 03 04 84 00 04 04 58
14:29:20.531 设备发送:09 03 04 84 00 04 04 58
14:29:21.348 设备发送:09 03 04 84 00 04 04 58
14:29:22.161 设备发送:09 03 04 8D 00 21 15 81
14:29:22.986 设备发送:09 03 04 8D 00 21 15 81
14:29:23.817 设备发送:09 03 04 8D 00 21 15 81
14:29:24.627 设备发送:09 03 06 84 00 04 05 E0
14:29:25.437 设备发送:09 03 06 84 00 04 05 E0
14:29:26.262 设备发送:09 03 06 84 00 04 05 E0
14:29:27.075 设备发送:09 03 04 04 00 01 C5 B3
14:29:27.900 设备发送:09 03 04 04 00 01 C5 B3
14:29:28.726 设备发送:09 03 04 04 00 01 C5 B3
14:29:29.538 设备发送:0A 03 04 84 00 04 04 6B
14:29:30.369 设备发送:0A 03 04 84 00 04 04 6B
14:29:31.193 设备发送:0A 03 04 84 00 04 04 6B
14:29:32.009 设备发送:0A 03 04 8D 00 21 15 B2
14:29:32.820 设备发送:0A 03 04 8D 00 21 15 B2
14:29:33.657 设备发送:0A 03 04 8D 00 21 15 B2
14:29:34.468 设备发送:0A 03 06 84 00 04 05 D3
14:29:35.277 设备发送:0A 03 06 84 00 04 05 D3
14:29:36.102 设备发送:0A 03 06 84 00 04 05 D3
14:29:36.928 设备发送:0A 03 04 04 00 01 C5 80
14:29:37.741 设备发送:0A 03 04 04 00 01 C5 80
14:29:38.552 设备发送:0A 03 04 04 00 01 C5 80
14:29:39.383 设备发送:01 03 04 84 00 04 05 10
14:29:40.167 设备接收:01 03 08 13 85 15 8E 00 25 15 8E F5 E3
14:29:40.199 设备发送:01 03 04 8D 00 21 14 C9
14:29:41.016 设备接收:01 03 42 08 FF 1F 54 00 00 00 00 00 00 00 00 00 00 00 00 00 00 00 00 00 00 09 17 1F 5C 00 00 00 00 00 00 00 00 00 00 00 00 00 00 00 00 00 00 09 11 1F 64 00 00 00 00 00 00 00 00 00 00 00 00 00 00 00 00 00 00 97 69
14:29:41.031 设备发送:01 03 06 84 00 04 04 A8
14:29:41.818 设备接收:01 03 08 00 00 88 2F 00 12 7C 66 5E 76
14:29:41.833 设备发送:01 03 04 04 00 01 C4 FB
14:29:42.647 设备接收:01 03 02 00 02 39 85
14:29:42.663 设备发送:02 03 04 84 00 04 05 23
14:29:43.444 设备接收:02 03 08 13 85 16 25 FF 7B 16 26 8F C4
14:29:43.475 设备发送:02 03 04 8D 00 21 14 FA
14:29:44.287 设备接收:02 03 42 09 01 1F D9 00 00 00 00 00 00 00 00 00 00 00 00 00 00 00 00 00 00 09 1B 1F E9 00 00 00 00 00 00 00 00 00 00 00 00 00 00 00 00 00 00 09 0F 1F ED 00 00 00 00 00 00 00 00 00 00 00 00 00 00 00 00 00 00 98 12
14:29:44.303 设备发送:02 03 06 84 00 04 04 9B
14:29:45.115 设备接收:02 03 08 00 00 8B BA 00 12 CA 9B EA FD
14:29:45.146 设备发送:02 03 04 04 00 01 C4 C8
14:29:45.959 设备接收:02 03 02 00 02 7D 85
14:29:45.975 设备发送:03 03 04 84 00 04 04 F2
14:29:46.740 设备接收:03 03 08 13 85 17 DC FF CD 17 DC 76 C8
14:29:46.771 设备发送:03 03 04 8D 00 21 15 2B
14:29:47.583 设备接收:03 03 42 09 01 22 4A 00 00 00 00 00 00 00 00 00 00 00 00 00 00 00 00 00 00 09 21 22 39 00 00 00 00 00 00 00 00 00 00 00 00 00 00 00 00 00 00 09 15 22 4D 00 00 00 00 00 00 00 00 00 00 00 00 00 00 00 00 00 00 9C 19
14:29:47.599 设备发送:03 03 06 84 00 04 05 4A
14:29:48.411 设备接收:03 03 08 00 00 98 88 00 13 41 72 23 D8
14:29:48.427 设备发送:03 03 04 04 00 01 C5 19
14:29:49.223 设备接收:03 03 02 00 02 40 45
14:29:49.238 设备发送:04 03 04 84 00 04 05 45
14:29:50.048 设备接收:04 03 08 13 85 14 22 FF 85 14 24 C4 3F
14:29:50.064 设备发送:04 03 04 8D 00 21 14 9C
14:29:50.862 设备接收:04 03 42 09 0A 1D 12 00 00 00 00 00 00 00 00 00 00 00 00 00 00 00 00 00 00 08 F7 1D 0A 00 00 00 00 00 00 00 00 00 00 00 00 00 00 00 00 00 00 09 15 1D 0B 00 00 00 00 00 00 00 00 00 00 00 00 00 00 00 00 00 00 83 00
14:29:50.877 设备发送:04 03 06 84 00 04 04 FD
14:29:51.661 设备接收:04 03 08 00 00 7E BB 00 10 9E BD C3 CA
14:29:51.677 设备发送:04 03 04 04 00 01 C4 AE
14:29:52.504 设备接收:04 03 02 00 02 F5 85
14:29:52.519 设备发送:05 03 04 84 00 04 04 94
14:29:53.329 设备接收:05 03 08 13 86 10 E0 00 1A 10 E0 88 FF
14:29:53.344 设备发送:05 03 04 8D 00 21 15 4D
14:29:54.140 设备接收:05 03 42 09 02 18 59 00 00 00 00 00 00 00 00 00 00 00 00 00 00 00 00 00 00 09 0F 18 48 00 00 00 00 00 00 00 00 00 00 00 00 00 00 00 00 00 00 09 0D 18 4F 00 00 00 00 00 00 00 00 00 00 00 00 00 00 00 00 00 00 3A DA
14:29:54.156 设备发送:05 03 06 84 00 04 05 2C
14:29:54.971 设备接收:05 03 08 00 00 6A 53 00 0E 08 56 EB DC
14:29:54.985 设备发送:05 03 04 04 00 01 C5 7F
14:29:55.769 设备接收:05 03 02 00 02 C8 45
14:29:55.784 设备发送:06 03 04 84 00 04 04 A7
14:29:56.594 设备接收:06 03 08 13 86 10 69 FF DB 10 69 FA 2A
14:29:56.610 设备发送:06 03 04 8D 00 21 15 7E
14:29:57.419 设备接收:06 03 42 09 05 17 AA 00 00 00 00 00 00 00 00 00 00 00 00 00 00 00 00 00 00 09 0D 17 A8 00 00 00 00 00 00 00 00 00 00 00 00 00 00 00 00 00 00 09 10 17 BC 00 00 00 00 00 00 00 00 00 00 00 00 00 00 00 00 00 00 D3 68
14:29:57.434 设备发送:06 03 06 84 00 04 05 1F
14:29:58.244 设备接收:06 03 08 00 00 66 FA 00 0D FD 59 4F 18
14:29:58.260 设备发送:06 03 04 04 00 01 C5 4C
14:29:59.070 设备接收:06 03 02 00 02 8C 45
14:29:59.085 设备发送:07 03 04 84 00 04 05 76
14:29:59.884 设备发送:07 03 04 84 00 04 05 76
14:30:00.726 设备发送:07 03 04 84 00 04 05 76
14:30:01.542 设备发送:07 03 04 8D 00 21 14 AF
14:30:02.361 设备发送:07 03 04 8D 00 21 14 AF
14:30:03.177 设备发送:07 03 04 8D 00 21 14 AF
14:30:03.989 设备发送:07 03 06 84 00 04 04 CE
14:30:04.817 设备发送:07 03 06 84 00 04 04 CE
14:30:05.626 设备发送:07 03 06 84 00 04 04 CE
14:30:06.467 设备发送:07 03 04 04 00 01 C4 9D
14:30:07.280 设备发送:07 03 04 04 00 01 C4 9D
14:30:08.107 设备发送:07 03 04 04 00 01 C4 9D
14:30:08.919 设备发送:08 03 04 84 00 04 05 89
14:30:09.728 设备发送:08 03 04 84 00 04 05 89
14:30:10.553 设备发送:08 03 04 84 00 04 05 89
14:30:11.398 设备发送:08 03 04 8D 00 21 14 50
14:30:12.218 设备发送:08 03 04 8D 00 21 14 50
14:30:13.033 设备发送:08 03 04 8D 00 21 14 50
14:30:13.848 设备发送:08 03 06 84 00 04 04 31
14:30:14.665 设备发送:08 03 06 84 00 04 04 31
14:30:15.494 设备发送:08 03 06 84 00 04 04 31
14:30:16.307 设备发送:08 03 04 04 00 01 C4 62
14:30:17.135 设备发送:08 03 04 04 00 01 C4 62
14:30:17.924 设备发送:08 03 04 04 00 01 C4 62
14:30:18.764 设备发送:09 03 04 84 00 04 04 58
14:30:19.576 设备发送:09 03 04 84 00 04 04 58
14:30:20.401 设备发送:09 03 04 84 00 04 04 58
14:30:21.214 设备发送:09 03 04 8D 00 21 15 81
14:30:22.038 设备发送:09 03 04 8D 00 21 15 81
14:30:22.851 设备发送:09 03 04 8D 00 21 15 81
14:30:23.697 设备发送:09 03 06 84 00 04 05 E0
14:30:24.508 设备发送:09 03 06 84 00 04 05 E0
14:30:25.333 设备发送:09 03 06 84 00 04 05 E0
14:30:26.144 设备发送:09 03 04 04 00 01 C5 B3
14:30:26.955 设备发送:09 03 04 04 00 01 C5 B3
14:30:27.769 设备发送:09 03 04 04 00 01 C5 B3
14:30:28.598 设备发送:0A 03 04 84 00 04 04 6B
14:30:29.426 设备发送:0A 03 04 84 00 04 04 6B
14:30:30.238 设备发送:0A 03 04 84 00 04 04 6B
14:30:31.051 设备发送:0A 03 04 8D 00 21 15 B2
14:30:31.866 设备发送:0A 03 04 8D 00 21 15 B2
14:30:32.709 设备发送:0A 03 04 8D 00 21 15 B2
14:30:33.521 设备发送:0A 03 06 84 00 04 05 D3
14:30:34.347 设备发送:0A 03 06 84 00 04 05 D3
14:30:35.160 设备发送:0A 03 06 84 00 04 05 D3
14:30:35.977 设备发送:0A 03 04 04 00 01 C5 80
14:30:36.802 设备发送:0A 03 04 04 00 01 C5 80
14:30:37.614 设备发送:0A 03 04 04 00 01 C5 80
14:30:38.422 设备发送:01 03 04 84 00 04 05 10
14:30:39.237 设备接收:01 03 08 13 8B 15 3E FF D5 15 3E 6A 6A
14:30:39.253 设备发送:01 03 04 8D 00 21 14 C9
14:30:40.092 设备接收:01 03 42 08 FE 1E 92 00 00 00 00 00 00 00 00 00 00 00 00 00 00 00 00 00 00 09 16 1E 9F 00 00 00 00 00 00 00 00 00 00 00 00 00 00 00 00 00 00 09 12 1E AE 00 00 00 00 00 00 00 00 00 00 00 00 00 00 00 00 00 00 41 14
14:30:40.108 设备发送:01 03 06 84 00 04 04 A8
14:30:40.877 设备接收:01 03 08 00 00 88 8A 00 12 7C 6F D2 69
14:30:40.909 设备发送:01 03 04 04 00 01 C4 FB
14:30:41.720 设备接收:01 03 02 00 02 39 85
14:30:41.736 设备发送:02 03 04 84 00 04 05 23
14:30:42.515 设备接收:02 03 08 13 8C 15 BA FF D4 15 BA B2 53
14:30:42.547 设备发送:02 03 04 8D 00 21 14 FA
14:30:43.350 设备接收:02 03 42 08 FF 1F 3D 00 00 00 00 00 00 00 00 00 00 00 00 00 00 00 00 00 00 09 1C 1F 4B 00 00 00 00 00 00 00 00 00 00 00 00 00 00 00 00 00 00 09 10 1F 56 00 00 00 00 00 00 00 00 00 00 00 00 00 00 00 00 00 00 A2 02
14:30:43.366 设备发送:02 03 06 84 00 04 04 9B
14:30:44.163 设备接收:02 03 08 00 00 8C 15 00 12 CA A4 7F 42
14:30:44.194 设备发送:02 03 04 04 00 01 C4 C8
14:30:45.006 设备接收:02 03 02 00 02 7D 85
14:30:45.022 设备发送:03 03 04 84 00 04 04 F2
14:30:45.806 设备接收:03 03 08 13 8C 17 76 FF CD 17 77 B6 6F
14:30:45.822 设备发送:03 03 04 8D 00 21 15 2B
14:30:46.649 设备接收:03 03 42 08 FD 21 C0 00 00 00 00 00 00 00 00 00 00 00 00 00 00 00 00 00 00 09 1D 21 BB 00 00 00 00 00 00 00 00 00 00 00 00 00 00 00 00 00 00 09 13 21 CB 00 00 00 00 00 00 00 00 00 00 00 00 00 00 00 00 00 00 35 BE
14:30:46.665 设备发送:03 03 06 84 00 04 05 4A
14:30:47.447 设备接收:03 03 08 00 00 98 EB 00 13 41 7C 66 14
14:30:47.463 设备发送:03 03 04 04 00 01 C5 19
14:30:48.246 设备接收:03 03 02 00 02 40 45
14:30:48.310 设备发送:04 03 04 84 00 04 05 45
14:30:49.096 设备接收:04 03 08 13 8B 13 A8 FF D4 13 A8 E1 D3
14:30:49.111 设备发送:04 03 04 8D 00 21 14 9C
14:30:49.907 设备接收:04 03 42 09 05 1C 6B 00 00 00 00 00 00 00 00 00 00 00 00 00 00 00 00 00 00 08 F5 1C 66 00 00 00 00 00 00 00 00 00 00 00 00 00 00 00 00 00 00 09 13 1C 6D 00 00 00 00 00 00 00 00 00 00 00 00 00 00 00 00 00 00 0B 94
14:30:49.923 设备发送:04 03 06 84 00 04 04 FD
14:30:50.723 设备接收:04 03 08 00 00 7F 10 00 10 9E C5 E7 E1
14:30:50.738 设备发送:04 03 04 04 00 01 C4 AE
14:30:51.562 设备接收:04 03 02 00 02 F5 85
14:30:51.578 设备发送:05 03 04 84 00 04 04 94
14:30:52.373 设备接收:05 03 08 13 8B 10 7C FF DB 10 7C E5 A2
14:30:52.388 设备发送:05 03 04 8D 00 21 15 4D
14:30:53.216 设备接收:05 03 42 08 FE 17 D1 00 00 00 00 00 00 00 00 00 00 00 00 00 00 00 00 00 00 09 0B 17 C5 00 00 00 00 00 00 00 00 00 00 00 00 00 00 00 00 00 00 09 0C 17 CB 00 00 00 00 00 00 00 00 00 00 00 00 00 00 00 00 00 00 53 17
14:30:53.231 设备发送:05 03 06 84 00 04 05 2C
14:30:54.011 设备接收:05 03 08 00 00 6A 9B 00 0E 08 5E 0B CA
14:30:54.026 设备发送:05 03 04 04 00 01 C5 7F
14:30:54.823 设备接收:05 03 02 00 02 C8 45
14:30:54.840 设备发送:06 03 04 84 00 04 04 A7
14:30:55.636 设备接收:06 03 08 13 8B 10 0F FF DC 10 0F 1F 09
14:30:55.681 设备发送:06 03 04 8D 00 21 15 7E
14:30:56.478 设备接收:06 03 42 09 01 17 2D 00 00 00 00 00 00 00 00 00 00 00 00 00 00 00 00 00 00 09 09 17 29 00 00 00 00 00 00 00 00 00 00 00 00 00 00 00 00 00 00 09 0D 17 40 00 00 00 00 00 00 00 00 00 00 00 00 00 00 00 00 00 00 A3 78
14:30:56.494 设备发送:06 03 06 84 00 04 05 1F
14:30:57.294 设备接收:06 03 08 00 00 67 3E 00 0D FD 60 7F 0A
14:30:57.309 设备发送:06 03 04 04 00 01 C5 4C
14:30:58.136 设备接收:06 03 02 00 02 8C 45
14:30:58.152 设备发送:07 03 04 84 00 04 05 76
14:30:58.969 设备发送:07 03 04 84 00 04 05 76
14:30:59.782 设备发送:07 03 04 84 00 04 05 76
14:31:00.593 设备发送:07 03 04 8D 00 21 14 AF
14:31:01.408 设备发送:07 03 04 8D 00 21 14 AF
14:31:02.239 设备发送:07 03 04 8D 00 21 14 AF
14:31:03.052 设备发送:07 03 06 84 00 04 04 CE
14:31:03.879 设备发送:07 03 06 84 00 04 04 CE
14:31:04.687 设备发送:07 03 06 84 00 04 04 CE
14:31:05.528 设备发送:07 03 04 04 00 01 C4 9D
14:31:06.355 设备发送:07 03 04 04 00 01 C4 9D
14:31:07.167 设备发送:07 03 04 04 00 01 C4 9D
14:31:07.979 设备发送:08 03 04 84 00 04 05 89
14:31:08.797 设备发送:08 03 04 84 00 04 05 89
14:31:09.612 设备发送:08 03 04 84 00 04 05 89
14:31:10.441 设备发送:08 03 04 8D 00 21 14 50
14:31:11.253 设备发送:08 03 04 8D 00 21 14 50
14:31:12.096 设备发送:08 03 04 8D 00 21 14 50
14:31:12.909 设备发送:08 03 06 84 00 04 04 31
14:31:13.735 设备发送:08 03 06 84 00 04 04 31
14:31:14.548 设备发送:08 03 06 84 00 04 04 31
14:31:15.361 设备发送:08 03 04 04 00 01 C4 62
14:31:16.173 设备发送:08 03 04 04 00 01 C4 62
14:31:17.000 设备发送:08 03 04 04 00 01 C4 62
14:31:17.812 设备发送:09 03 04 84 00 04 04 58
14:31:18.640 设备发送:09 03 04 84 00 04 04 58
14:31:19.469 设备发送:09 03 04 84 00 04 04 58
14:31:20.278 设备发送:09 03 04 8D 00 21 15 81
14:31:21.089 设备发送:09 03 04 8D 00 21 15 81
14:31:21.920 设备发送:09 03 04 8D 00 21 15 81
14:31:22.744 设备发送:09 03 06 84 00 04 05 E0
14:31:23.567 设备发送:09 03 06 84 00 04 05 E0
14:31:24.378 设备发送:09 03 06 84 00 04 05 E0
14:31:25.206 设备发送:09 03 04 04 00 01 C5 B3
14:31:26.019 设备发送:09 03 04 04 00 01 C5 B3
14:31:26.829 设备发送:09 03 04 04 00 01 C5 B3
14:31:27.644 设备发送:0A 03 04 84 00 04 04 6B
14:31:28.470 设备发送:0A 03 04 84 00 04 04 6B
14:31:29.294 设备发送:0A 03 04 84 00 04 04 6B
14:31:30.105 设备发送:0A 03 04 8D 00 21 15 B2
14:31:30.921 设备发送:0A 03 04 8D 00 21 15 B2
14:31:31.768 设备发送:0A 03 04 8D 00 21 15 B2
14:31:32.587 设备发送:0A 03 06 84 00 04 05 D3
14:31:33.396 设备发送:0A 03 06 84 00 04 05 D3
14:31:34.209 设备发送:0A 03 06 84 00 04 05 D3
14:31:35.051 设备发送:0A 03 04 04 00 01 C5 80
14:31:35.866 设备发送:0A 03 04 04 00 01 C5 80
14:31:36.678 设备发送:0A 03 04 04 00 01 C5 80
14:31:37.504 设备发送:01 03 04 84 00 04 05 10
14:31:38.288 设备接收:01 03 08 13 87 15 05 FF 83 15 06 A2 6D
14:31:38.303 设备发送:01 03 04 8D 00 21 14 C9
14:31:39.131 设备接收:01 03 42 08 FC 1E 53 00 00 00 00 00 00 00 00 00 00 00 00 00 00 00 00 00 00 09 10 1E 59 00 00 00 00 00 00 00 00 00 00 00 00 00 00 00 00 00 00 09 0F 1E 6D 00 00 00 00 00 00 00 00 00 00 00 00 00 00 00 00 00 00 73 D5
14:31:39.147 设备发送:01 03 06 84 00 04 04 A8
14:31:39.943 设备接收:01 03 08 00 00 88 E3 00 12 7C 78 CE 6E
14:31:39.958 设备发送:01 03 04 04 00 01 C4 FB
14:31:40.754 设备接收:01 03 02 00 02 39 85
14:31:40.785 设备发送:02 03 04 84 00 04 05 23
14:31:41.585 设备接收:02 03 08 13 87 15 87 FF 7D 15 88 34 A3
14:31:41.663 设备发送:02 03 04 8D 00 21 14 FA
14:31:42.399 设备接收:02 03 42 08 FE 1E EC 00 00 00 00 00 00 00 00 00 00 00 00 00 00 00 00 00 00 09 18 1E F8 00 00 00 00 00 00 00 00 00 00 00 00 00 00 00 00 00 00 09 11 1E FC 00 00 00 00 00 00 00 00 00 00 00 00 00 00 00 00 00 00 C3 A7
14:31:42.415 设备发送:02 03 06 84 00 04 04 9B
14:31:43.242 设备接收:02 03 08 00 00 8C 6F 00 12 CA AD 66 8E
14:31:43.258 设备发送:02 03 04 04 00 01 C4 C8
14:31:44.042 设备接收:02 03 02 00 02 7D 85
14:31:44.057 设备发送:03 03 04 84 00 04 04 F2
14:31:44.872 设备接收:03 03 08 13 87 17 39 FF CF 17 39 78 95
14:31:44.888 设备发送:03 03 04 8D 00 21 15 2B
14:31:45.699 设备接收:03 03 42 08 FB 21 78 00 00 00 00 00 00 00 00 00 00 00 00 00 00 00 00 00 00 09 19 21 65 00 00 00 00 00 00 00 00 00 00 00 00 00 00 00 00 00 00 09 12 21 79 00 00 00 00 00 00 00 00 00 00 00 00 00 00 00 00 00 00 9F F0
14:31:45.715 设备发送:03 03 06 84 00 04 05 4A
14:31:46.493 设备接收:03 03 08 00 00 99 4C 00 13 41 86 D2 5F
14:31:46.508 设备发送:03 03 04 04 00 01 C5 19
14:31:47.333 设备接收:03 03 02 00 02 40 45
14:31:47.349 设备发送:04 03 04 84 00 04 05 45
14:31:48.130 设备接收:04 03 08 13 87 13 7B FF D5 13 7B B8 5C
14:31:48.177 设备发送:04 03 04 8D 00 21 14 9C
14:31:48.975 设备接收:04 03 42 09 04 1C 24 00 00 00 00 00 00 00 00 00 00 00 00 00 00 00 00 00 00 08 F5 1C 25 00 00 00 00 00 00 00 00 00 00 00 00 00 00 00 00 00 00 09 15 1C 2A 00 00 00 00 00 00 00 00 00 00 00 00 00 00 00 00 00 00 D2 4C
14:31:48.990 设备发送:04 03 06 84 00 04 04 FD
14:31:49.802 设备接收:04 03 08 00 00 7F 62 00 10 9E CE 9E 2D
14:31:49.817 设备发送:04 03 04 04 00 01 C4 AE
14:31:50.631 设备接收:04 03 02 00 02 F5 85
14:31:50.647 设备发送:05 03 04 84 00 04 04 94
14:31:51.443 设备接收:05 03 08 13 87 10 4E 00 1A 10 4E F0 5B
14:31:51.458 设备发送:05 03 04 8D 00 21 15 4D
14:31:52.254 设备接收:05 03 42 08 FC 17 89 00 00 00 00 00 00 00 00 00 00 00 00 00 00 00 00 00 00 09 0B 17 80 00 00 00 00 00 00 00 00 00 00 00 00 00 00 00 00 00 00 09 0E 17 8D 00 00 00 00 00 00 00 00 00 00 00 00 00 00 00 00 00 00 62 0C
14:31:52.270 设备发送:05 03 06 84 00 04 05 2C
14:31:53.065 设备接收:05 03 08 00 00 6A DF 00 0E 08 64 7B D6
14:31:53.113 设备发送:05 03 04 04 00 01 C5 7F
14:31:53.910 设备接收:05 03 02 00 02 C8 45
14:31:53.926 设备发送:06 03 04 84 00 04 04 A7
14:31:54.726 设备接收:06 03 08 13 88 0F E9 FF DD 0F E9 FF CA
14:31:54.742 设备发送:06 03 04 8D 00 21 15 7E
14:31:55.554 设备接收:06 03 42 09 02 16 FC 00 00 00 00 00 00 00 00 00 00 00 00 00 00 00 00 00 00 09 08 16 F7 00 00 00 00 00 00 00 00 00 00 00 00 00 00 00 00 00 00 09 0E 17 11 00 00 00 00 00 00 00 00 00 00 00 00 00 00 00 00 00 00 F7 38
14:31:55.570 设备发送:06 03 06 84 00 04 05 1F
14:31:56.369 设备接收:06 03 08 00 00 67 83 00 0D FD 66 93 13
14:31:56.384 设备发送:06 03 04 04 00 01 C5 4C
14:31:57.181 设备接收:06 03 02 00 02 8C 45
14:31:57.213 设备发送:07 03 04 84 00 04 05 76
14:31:58.026 设备发送:07 03 04 84 00 04 05 76
14:31:58.837 设备发送:07 03 04 84 00 04 05 76
14:31:59.664 设备发送:07 03 04 8D 00 21 14 AF
14:32:00.475 设备发送:07 03 04 8D 00 21 14 AF
14:32:01.305 设备发送:07 03 04 8D 00 21 14 AF
14:32:02.119 设备发送:07 03 06 84 00 04 04 CE
14:32:02.949 设备发送:07 03 06 84 00 04 04 CE
14:32:03.764 设备发送:07 03 06 84 00 04 04 CE
14:32:04.574 设备发送:07 03 04 04 00 01 C4 9D
14:32:05.414 设备发送:07 03 04 04 00 01 C4 9D
14:32:06.227 设备发送:07 03 04 04 00 01 C4 9D
14:32:07.056 设备发送:08 03 04 84 00 04 05 89
14:32:07.866 设备发送:08 03 04 84 00 04 05 89
14:32:08.696 设备发送:08 03 04 84 00 04 05 89
14:32:09.518 设备发送:08 03 04 8D 00 21 14 50
14:32:10.329 设备发送:08 03 04 8D 00 21 14 50
14:32:11.143 设备发送:08 03 04 8D 00 21 14 50
14:32:11.969 设备发送:08 03 06 84 00 04 04 31
14:32:12.782 设备发送:08 03 06 84 00 04 04 31
14:32:13.610 设备发送:08 03 06 84 00 04 04 31
14:32:14.445 设备发送:08 03 04 04 00 01 C4 62
14:32:15.259 设备发送:08 03 04 04 00 01 C4 62
14:32:16.072 设备发送:08 03 04 04 00 01 C4 62
14:32:16.886 设备发送:09 03 04 84 00 04 04 58
14:32:17.711 设备发送:09 03 04 84 00 04 04 58
14:32:18.525 设备发送:09 03 04 84 00 04 04 58
14:32:19.356 设备发送:09 03 04 8D 00 21 15 81
14:32:20.168 设备发送:09 03 04 8D 00 21 15 81
14:32:20.995 设备发送:09 03 04 8D 00 21 15 81
14:32:21.805 设备发送:09 03 06 84 00 04 05 E0
14:32:22.632 设备发送:09 03 06 84 00 04 05 E0
14:32:23.459 设备发送:09 03 06 84 00 04 05 E0
14:32:24.273 设备发送:09 03 04 04 00 01 C5 B3
14:32:25.101 设备发送:09 03 04 04 00 01 C5 B3
14:32:25.882 设备发送:09 03 04 04 00 01 C5 B3
14:32:26.723 设备发送:0A 03 04 84 00 04 04 6B
14:32:27.563 设备发送:0A 03 04 84 00 04 04 6B
14:32:28.381 设备发送:0A 03 04 84 00 04 04 6B
14:32:29.194 设备发送:0A 03 04 8D 00 21 15 B2
14:32:30.008 设备发送:0A 03 04 8D 00 21 15 B2
14:32:30.833 设备发送:0A 03 04 8D 00 21 15 B2
14:32:31.647 设备发送:0A 03 06 84 00 04 05 D3
14:32:32.469 设备发送:0A 03 06 84 00 04 05 D3
14:32:33.278 设备发送:0A 03 06 84 00 04 05 D3
14:32:34.109 设备发送:0A 03 04 04 00 01 C5 80
14:32:34.921 设备发送:0A 03 04 04 00 01 C5 80
14:32:35.734 设备发送:0A 03 04 04 00 01 C5 80
14:32:36.558 设备发送:01 03 04 84 00 04 05 10
14:32:37.373 设备接收:01 03 08 13 86 15 1D FF D1 15 1E 33 74
14:32:37.388 设备发送:01 03 04 8D 00 21 14 C9
14:32:38.185 设备接收:01 03 42 08 FB 1E 20 00 00 00 00 00 00 00 00 00 00 00 00 00 00 00 00 00 00 09 10 1E 2A 00 00 00 00 00 00 00 00 00 00 00 00 00 00 00 00 00 00 09 0D 1E 36 00 00 00 00 00 00 00 00 00 00 00 00 00 00 00 00 00 00 19 44
14:32:38.202 设备发送:01 03 06 84 00 04 04 A8
14:32:39.029 设备接收:01 03 08 00 00 89 39 00 12 7C 80 97 EE
14:32:39.044 设备发送:01 03 04 04 00 01 C4 FB
14:32:39.828 设备接收:01 03 02 00 02 39 85
14:32:39.844 设备发送:02 03 04 84 00 04 05 23
14:32:40.657 设备接收:02 03 08 13 86 15 B0 00 24 15 B0 30 72
14:32:40.671 设备发送:02 03 04 8D 00 21 14 FA
14:32:41.468 设备接收:02 03 42 08 FF 1F 3D 00 00 00 00 00 00 00 00 00 00 00 00 00 00 00 00 00 00 09 16 1F 40 00 00 00 00 00 00 00 00 00 00 00 00 00 00 00 00 00 00 09 0E 1F 50 00 00 00 00 00 00 00 00 00 00 00 00 00 00 00 00 00 00 7B 57
14:32:41.484 设备发送:02 03 06 84 00 04 04 9B
14:32:42.266 设备接收:02 03 08 00 00 8C C9 00 12 CA B6 2E 9C
14:32:42.313 设备发送:02 03 04 04 00 01 C4 C8
14:32:43.109 设备接收:02 03 02 00 02 7D 85
14:32:43.125 设备发送:03 03 04 84 00 04 04 F2
14:32:43.938 设备接收:03 03 08 13 85 17 61 00 26 17 61 9A 82
14:32:43.953 设备发送:03 03 04 8D 00 21 15 2B
14:32:44.764 设备接收:03 03 42 08 F9 21 AF 00 00 00 00 00 00 00 00 00 00 00 00 00 00 00 00 00 00 09 1A 21 AE 00 00 00 00 00 00 00 00 00 00 00 00 00 00 00 00 00 00 09 12 21 C2 00 00 00 00 00 00 00 00 00 00 00 00 00 00 00 00 00 00 AC F5
14:32:44.780 设备发送:03 03 06 84 00 04 05 4A
14:32:45.573 设备接收:03 03 08 00 00 99 AD 00 13 41 90 EF 87
14:32:45.589 设备发送:03 03 04 04 00 01 C5 19
14:32:46.404 设备接收:03 03 02 00 02 40 45
14:32:46.419 设备发送:04 03 04 84 00 04 05 45
14:32:47.201 设备接收:04 03 08 13 86 13 98 00 20 13 98 0C E5
14:32:47.216 设备发送:04 03 04 8D 00 21 14 9C
14:32:48.046 设备接收:04 03 42 09 07 1C 55 00 00 00 00 00 00 00 00 00 00 00 00 00 00 00 00 00 00 08 F3 1C 49 00 00 00 00 00 00 00 00 00 00 00 00 00 00 00 00 00 00 09 14 1C 4D 00 00 00 00 00 00 00 00 00 00 00 00 00 00 00 00 00 00 56 F4
14:32:48.061 设备发送:04 03 06 84 00 04 04 FD
14:32:48.842 设备接收:04 03 08 00 00 7F B3 00 10 9E D6 62 35
14:32:48.857 设备发送:04 03 04 04 00 01 C4 AE
14:32:49.652 设备接收:04 03 02 00 02 F5 85
14:32:49.683 设备发送:05 03 04 84 00 04 04 94
14:32:50.509 设备接收:05 03 08 13 86 10 5B FF 9B 10 5C 0D 69
14:32:50.525 设备发送:05 03 04 8D 00 21 15 4D
14:32:51.305 设备接收:05 03 42 08 FC 17 AB 00 00 00 00 00 00 00 00 00 00 00 00 00 00 00 00 00 00 09 07 17 98 00 00 00 00 00 00 00 00 00 00 00 00 00 00 00 00 00 00 09 0A 17 A7 00 00 00 00 00 00 00 00 00 00 00 00 00 00 00 00 00 00 D7 2F
14:32:51.321 设备发送:05 03 06 84 00 04 05 2C
14:32:52.148 设备接收:05 03 08 00 00 6B 23 00 0E 08 6B 6A 17
14:32:52.164 设备发送:05 03 04 04 00 01 C5 7F
14:32:52.942 设备接收:05 03 02 00 02 C8 45
14:32:52.990 设备发送:06 03 04 84 00 04 04 A7
14:32:53.787 设备接收:06 03 08 13 86 0F FD FF 9F 0F FE C0 13
14:32:53.803 设备发送:06 03 04 8D 00 21 15 7E
14:32:54.581 设备接收:06 03 42 08 FD 17 2C 00 00 00 00 00 00 00 00 00 00 00 00 00 00 00 00 00 00 09 04 17 23 00 00 00 00 00 00 00 00 00 00 00 00 00 00 00 00 00 00 09 09 17 3D 00 00 00 00 00 00 00 00 00 00 00 00 00 00 00 00 00 00 64 C4
14:32:54.596 设备发送:06 03 06 84 00 04 05 1F
14:32:55.423 设备接收:06 03 08 00 00 67 C5 00 0D FD 6D 5B 1B
14:32:55.438 设备发送:06 03 04 04 00 01 C5 4C
14:32:56.239 设备接收:06 03 02 00 02 8C 45
14:32:56.255 设备发送:07 03 04 84 00 04 05 76
14:32:57.081 设备发送:07 03 04 84 00 04 05 76
14:32:57.893 设备发送:07 03 04 84 00 04 05 76
14:32:58.717 设备发送:07 03 04 8D 00 21 14 AF
14:32:59.547 设备发送:07 03 04 8D 00 21 14 AF
14:33:00.358 设备发送:07 03 04 8D 00 21 14 AF
14:33:01.192 设备发送:07 03 06 84 00 04 04 CE
14:33:02.002 设备发送:07 03 06 84 00 04 04 CE
14:33:02.813 设备发送:07 03 06 84 00 04 04 CE
14:33:03.638 设备发送:07 03 04 04 00 01 C4 9D
14:33:04.449 设备发送:07 03 04 04 00 01 C4 9D
14:33:05.265 设备发送:07 03 04 04 00 01 C4 9D
14:33:06.096 设备发送:08 03 04 84 00 04 05 89
14:33:06.908 设备发送:08 03 04 84 00 04 05 89
14:33:07.737 设备发送:08 03 04 84 00 04 05 89
14:33:08.553 设备发送:08 03 04 8D 00 21 14 50
14:33:09.385 设备发送:08 03 04 8D 00 21 14 50
14:33:10.195 设备发送:08 03 04 8D 00 21 14 50
14:33:11.013 设备发送:08 03 06 84 00 04 04 31
14:33:11.845 设备发送:08 03 06 84 00 04 04 31
14:33:12.661 设备发送:08 03 06 84 00 04 04 31
14:33:13.478 设备发送:08 03 04 04 00 01 C4 62
14:33:14.292 设备发送:08 03 04 04 00 01 C4 62
14:33:15.126 设备发送:08 03 04 04 00 01 C4 62
14:33:15.940 设备发送:09 03 04 84 00 04 04 58
14:33:16.755 设备发送:09 03 04 84 00 04 04 58
14:33:17.569 设备发送:09 03 04 84 00 04 04 58
14:33:18.414 设备发送:09 03 04 8D 00 21 15 81
14:33:19.232 设备发送:09 03 04 8D 00 21 15 81
14:33:20.047 设备发送:09 03 04 8D 00 21 15 81
14:33:20.876 设备发送:09 03 06 84 00 04 05 E0
14:33:21.689 设备发送:09 03 06 84 00 04 05 E0
14:33:22.502 设备发送:09 03 06 84 00 04 05 E0
14:33:23.315 设备发送:09 03 04 04 00 01 C5 B3
14:33:24.148 设备发送:09 03 04 04 00 01 C5 B3
14:33:24.960 设备发送:09 03 04 04 00 01 C5 B3
14:33:25.792 设备发送:0A 03 04 84 00 04 04 6B
14:33:26.590 设备发送:0A 03 04 84 00 04 04 6B
14:33:27.406 设备发送:0A 03 04 84 00 04 04 6B
14:33:28.240 设备发送:0A 03 04 8D 00 21 15 B2
14:33:29.073 设备发送:0A 03 04 8D 00 21 15 B2
14:33:29.891 设备发送:0A 03 04 8D 00 21 15 B2
14:33:30.678 设备发送:0A 03 06 84 00 04 05 D3
14:33:31.510 设备发送:0A 03 06 84 00 04 05 D3
14:33:32.325 设备发送:0A 03 06 84 00 04 05 D3
14:33:33.154 设备发送:0A 03 04 04 00 01 C5 80
14:33:33.983 设备发送:0A 03 04 04 00 01 C5 80
14:33:34.798 设备发送:0A 03 04 04 00 01 C5 80
14:33:35.627 设备发送:01 03 04 84 00 04 05 10
14:33:36.439 设备接收:01 03 08 13 85 15 35 FF D1 15 35 20 6D
14:33:36.455 设备发送:01 03 04 8D 00 21 14 C9
14:33:37.240 设备接收:01 03 42 08 FE 1E DD 00 00 00 00 00 00 00 00 00 00 00 00 00 00 00 00 00 00 09 14 1E EA 00 00 00 00 00 00 00 00 00 00 00 00 00 00 00 00 00 00 09 0F 1E EF 00 00 00 00 00 00 00 00 00 00 00 00 00 00 00 00 00 00 A4 03
14:33:37.271 设备发送:01 03 06 84 00 04 04 A8
14:33:38.053 设备接收:01 03 08 00 00 89 93 00 12 7C 89 4F F0
14:33:38.069 设备发送:01 03 04 04 00 01 C4 FB
14:33:38.855 设备接收:01 03 02 00 02 39 85
14:33:38.903 设备发送:02 03 04 84 00 04 05 23
14:33:39.699 设备接收:02 03 08 13 86 15 C8 FF D0 15 C9 20 7C
14:33:39.715 设备发送:02 03 04 8D 00 21 14 FA
14:33:40.532 设备接收:02 03 42 08 FF 1F 54 00 00 00 00 00 00 00 00 00 00 00 00 00 00 00 00 00 00 09 16 1F 6E 00 00 00 00 00 00 00 00 00 00 00 00 00 00 00 00 00 00 09 0D 1F 6D 00 00 00 00 00 00 00 00 00 00 00 00 00 00 00 00 00 00 F6 11
14:33:40.548 设备发送:02 03 06 84 00 04 04 9B
14:33:41.332 设备接收:02 03 08 00 00 8D 24 00 12 CA BF 43 5C
14:33:41.348 设备发送:02 03 04 04 00 01 C4 C8
14:33:42.162 设备接收:02 03 02 00 02 7D 85
14:33:42.178 设备发送:03 03 04 84 00 04 04 F2
14:33:42.965 设备接收:03 03 08 13 86 17 8F FF 73 17 90 A0 15
14:33:42.980 设备发送:03 03 04 8D 00 21 15 2B
14:33:43.810 设备接收:03 03 42 08 F9 21 E9 00 00 00 00 00 00 00 00 00 00 00 00 00 00 00 00 00 00 09 1A 21 E4 00 00 00 00 00 00 00 00 00 00 00 00 00 00 00 00 00 00 09 13 21 FD 00 00 00 00 00 00 00 00 00 00 00 00 00 00 00 00 00 00 F0 F7
14:33:43.826 设备发送:03 03 06 84 00 04 05 4A
14:33:44.612 设备接收:03 03 08 00 00 9A 0F 00 13 41 99 D6 6B
14:33:44.628 设备发送:03 03 04 04 00 01 C5 19
14:33:45.441 设备接收:03 03 02 00 02 40 45
14:33:45.472 设备发送:04 03 04 84 00 04 05 45
14:33:46.254 设备接收:04 03 08 13 86 13 D2 FF 87 13 D3 54 EB
14:33:46.270 设备发送:04 03 04 8D 00 21 14 9C
14:33:47.072 设备接收:04 03 42 09 06 1C AA 00 00 00 00 00 00 00 00 00 00 00 00 00 00 00 00 00 00 08 F3 1C A0 00 00 00 00 00 00 00 00 00 00 00 00 00 00 00 00 00 00 09 13 1C 9C 00 00 00 00 00 00 00 00 00 00 00 00 00 00 00 00 00 00 F0 F5
14:33:47.088 设备发送:04 03 06 84 00 04 04 FD
14:33:47.886 设备接收:04 03 08 00 00 80 06 00 10 9E DE FA 26
14:33:47.918 设备发送:04 03 04 04 00 01 C4 AE
14:33:48.702 设备接收:04 03 02 00 02 F5 85
14:33:48.718 设备发送:05 03 04 84 00 04 04 94
14:33:49.552 设备接收:05 03 08 13 86 10 83 FF DB 10 83 6D 36
14:33:49.567 设备发送:05 03 04 8D 00 21 15 4D
14:33:50.350 设备接收:05 03 42 08 FD 17 D5 00 00 00 00 00 00 00 00 00 00 00 00 00 00 00 00 00 00 09 08 17 C4 00 00 00 00 00 00 00 00 00 00 00 00 00 00 00 00 00 00 09 0A 17 D6 00 00 00 00 00 00 00 00 00 00 00 00 00 00 00 00 00 00 CB 51
14:33:50.397 设备发送:05 03 06 84 00 04 05 2C
14:33:51.181 设备接收:05 03 08 00 00 6B 68 00 0E 08 72 0F D3
14:33:51.197 设备发送:05 03 04 04 00 01 C5 7F
14:33:52.009 设备接收:05 03 02 00 02 C8 45
14:33:52.024 设备发送:06 03 04 84 00 04 04 A7
14:33:52.820 设备接收:06 03 08 13 87 10 15 00 18 10 15 7A E9
14:33:52.835 设备发送:06 03 04 8D 00 21 15 7E
14:33:53.638 设备接收:06 03 42 09 00 17 3F 00 00 00 00 00 00 00 00 00 00 00 00 00 00 00 00 00 00 09 08 17 38 00 00 00 00 00 00 00 00 00 00 00 00 00 00 00 00 00 00 09 0B 17 4F 00 00 00 00 00 00 00 00 00 00 00 00 00 00 00 00 00 00 9F F3
14:33:53.685 设备发送:06 03 06 84 00 04 05 1F
14:33:54.465 设备接收:06 03 08 00 00 68 09 00 0D FD 74 8A 3E
14:33:54.481 设备发送:06 03 04 04 00 01 C5 4C
14:33:55.294 设备接收:06 03 02 00 02 8C 45
14:33:55.310 设备发送:07 03 04 84 00 04 05 76
14:33:56.122 设备发送:07 03 04 84 00 04 05 76
14:33:56.950 设备发送:07 03 04 84 00 04 05 76
14:33:57.762 设备发送:07 03 04 8D 00 21 14 AF
14:33:58.592 设备发送:07 03 04 8D 00 21 14 AF
14:33:59.405 设备发送:07 03 04 8D 00 21 14 AF
14:34:00.217 设备发送:07 03 06 84 00 04 04 CE
14:34:01.063 设备发送:07 03 06 84 00 04 04 CE
14:34:01.876 设备发送:07 03 06 84 00 04 04 CE
14:34:02.693 设备发送:07 03 04 04 00 01 C4 9D
14:34:03.507 设备发送:07 03 04 04 00 01 C4 9D
14:34:04.334 设备发送:07 03 04 04 00 01 C4 9D
14:34:05.147 设备发送:08 03 04 84 00 04 05 89
14:34:05.956 设备发送:08 03 04 84 00 04 05 89
14:34:06.785 设备发送:08 03 04 84 00 04 05 89
14:34:07.596 设备发送:08 03 04 8D 00 21 14 50
14:34:08.426 设备发送:08 03 04 8D 00 21 14 50
14:34:09.256 设备发送:08 03 04 8D 00 21 14 50
14:34:10.069 设备发送:08 03 06 84 00 04 04 31
14:34:10.882 设备发送:08 03 06 84 00 04 04 31
14:34:11.695 设备发送:08 03 06 84 00 04 04 31
14:34:12.529 设备发送:08 03 04 04 00 01 C4 62
14:34:13.345 设备发送:08 03 04 04 00 01 C4 62
14:34:14.161 设备发送:08 03 04 04 00 01 C4 62
14:34:14.975 设备发送:09 03 04 84 00 04 04 58
14:34:15.807 设备发送:09 03 04 84 00 04 04 58
14:34:16.624 设备发送:09 03 04 84 00 04 04 58
14:34:17.441 设备发送:09 03 04 8D 00 21 15 81
14:34:18.271 设备发送:09 03 04 8D 00 21 15 81
14:34:19.089 设备发送:09 03 04 8D 00 21 15 81
14:34:19.907 设备发送:09 03 06 84 00 04 05 E0
14:34:20.736 设备发送:09 03 06 84 00 04 05 E0
14:34:21.548 设备发送:09 03 06 84 00 04 05 E0
14:34:22.361 设备发送:09 03 04 04 00 01 C5 B3
14:34:23.173 设备发送:09 03 04 04 00 01 C5 B3
14:34:24.004 设备发送:09 03 04 04 00 01 C5 B3
14:34:24.822 设备发送:0A 03 04 84 00 04 04 6B
14:34:25.657 设备发送:0A 03 04 84 00 04 04 6B
14:34:26.474 设备发送:0A 03 04 84 00 04 04 6B
14:34:27.290 设备发送:0A 03 04 8D 00 21 15 B2
14:34:28.108 设备发送:0A 03 04 8D 00 21 15 B2
14:34:28.925 设备发送:0A 03 04 8D 00 21 15 B2
14:34:29.741 设备发送:0A 03 06 84 00 04 05 D3
14:34:30.556 设备发送:0A 03 06 84 00 04 05 D3
14:34:31.392 设备发送:0A 03 06 84 00 04 05 D3
14:34:32.209 设备发送:0A 03 04 04 00 01 C5 80
14:34:33.023 设备发送:0A 03 04 04 00 01 C5 80
14:34:33.839 设备发送:0A 03 04 04 00 01 C5 80
14:34:34.684 设备发送:01 03 04 84 00 04 05 10
14:34:35.467 设备接收:01 03 08 13 8B 15 16 FF 81 15 18 CA 66
14:34:35.482 设备发送:01 03 04 8D 00 21 14 C9
14:34:36.296 设备接收:01 03 42 08 F9 1E 6D 00 00 00 00 00 00 00 00 00 00 00 00 00 00 00 00 00 00 09 11 1E 7D 00 00 00 00 00 00 00 00 00 00 00 00 00 00 00 00 00 00 09 0D 1E 86 00 00 00 00 00 00 00 00 00 00 00 00 00 00 00 00 00 00 00 0E
14:34:36.312 设备发送:01 03 06 84 00 04 04 A8
14:34:37.111 设备接收:01 03 08 00 00 89 EC 00 12 7C 92 1A 31
14:34:37.127 设备发送:01 03 04 04 00 01 C4 FB
14:34:37.926 设备接收:01 03 02 00 02 39 85
14:34:37.942 设备发送:02 03 04 84 00 04 05 23
14:34:38.772 设备接收:02 03 08 13 8B 15 9B 00 24 15 9B 88 AB
14:34:38.788 设备发送:02 03 04 8D 00 21 14 FA
14:34:39.571 设备接收:02 03 42 08 FD 1F 12 00 00 00 00 00 00 00 00 00 00 00 00 00 00 00 00 00 00 09 18 1F 29 00 00 00 00 00 00 00 00 00 00 00 00 00 00 00 00 00 00 09 0D 1F 2E 00 00 00 00 00 00 00 00 00 00 00 00 00 00 00 00 00 00 22 53
14:34:39.586 设备发送:02 03 06 84 00 04 04 9B
14:34:40.403 设备接收:02 03 08 00 00 8D 81 00 12 CA C8 4F 63
14:34:40.419 设备发送:02 03 04 04 00 01 C4 C8
14:34:41.203 设备接收:02 03 02 00 02 7D 85
14:34:41.234 设备发送:03 03 04 84 00 04 04 F2
14:34:42.033 设备接收:03 03 08 13 8B 17 4D FF CF 17 4D 04 B9
14:34:42.065 设备发送:03 03 04 8D 00 21 15 2B
14:34:42.865 设备接收:03 03 42 08 F9 21 93 00 00 00 00 00 00 00 00 00 00 00 00 00 00 00 00 00 00 09 19 21 8C 00 00 00 00 00 00 00 00 00 00 00 00 00 00 00 00 00 00 09 10 21 9C 00 00 00 00 00 00 00 00 00 00 00 00 00 00 00 00 00 00 96 65
14:34:42.881 设备发送:03 03 06 84 00 04 05 4A
14:34:43.667 设备接收:03 03 08 00 00 9A 74 00 13 41 A4 F3 B0
14:34:43.683 设备发送:03 03 04 04 00 01 C5 19
14:34:44.500 设备接收:03 03 02 00 02 40 45
14:34:44.531 设备发送:04 03 04 84 00 04 05 45
14:34:45.316 设备接收:04 03 08 13 8B 13 76 00 1F 13 76 88 72
14:34:45.331 设备发送:04 03 04 8D 00 21 14 9C
14:34:46.117 设备接收:04 03 42 09 05 1C 3D 00 00 00 00 00 00 00 00 00 00 00 00 00 00 00 00 00 00 08 F1 1C 26 00 00 00 00 00 00 00 00 00 00 00 00 00 00 00 00 00 00 09 10 1C 30 00 00 00 00 00 00 00 00 00 00 00 00 00 00 00 00 00 00 B0 95
14:34:46.133 设备发送:04 03 06 84 00 04 04 FD
14:34:46.967 设备接收:04 03 08 00 00 80 57 00 10 9E E6 06 38
14:34:46.982 设备发送:04 03 04 04 00 01 C4 AE
14:34:47.781 设备接收:04 03 02 00 02 F5 85
14:34:47.798 设备发送:05 03 04 84 00 04 04 94
14:34:48.600 设备接收:05 03 08 13 8B 10 56 FF D9 10 56 DC 7B
14:34:48.616 设备发送:05 03 04 8D 00 21 15 4D
14:34:49.407 设备接收:05 03 42 08 FD 17 A7 00 00 00 00 00 00 00 00 00 00 00 00 00 00 00 00 00 00 09 07 17 93 00 00 00 00 00 00 00 00 00 00 00 00 00 00 00 00 00 00 09 09 17 99 00 00 00 00 00 00 00 00 00 00 00 00 00 00 00 00 00 00 C2 0D
14:34:49.423 设备发送:05 03 06 84 00 04 05 2C
14:34:50.227 设备接收:05 03 08 00 00 6B AE 00 0E 08 79 C6 05
14:34:50.259 设备发送:05 03 04 04 00 01 C5 7F
14:34:51.063 设备接收:05 03 02 00 02 C8 45
14:34:51.079 设备发送:06 03 04 84 00 04 04 A7
14:34:51.881 设备接收:06 03 08 13 8B 0F F9 FF A1 0F FA 8D 1C
14:34:51.912 设备发送:06 03 04 8D 00 21 15 7E
14:34:52.695 设备接收:06 03 42 08 FC 17 23 00 00 00 00 00 00 00 00 00 00 00 00 00 00 00 00 00 00 09 06 17 1D 00 00 00 00 00 00 00 00 00 00 00 00 00 00 00 00 00 00 09 0B 17 39 00 00 00 00 00 00 00 00 00 00 00 00 00 00 00 00 00 00 51 50
14:34:52.724 设备发送:06 03 06 84 00 04 05 1F
14:34:53.513 设备接收:06 03 08 00 00 68 4B 00 0D FD 7A 73 F5
14:34:53.543 设备发送:06 03 04 04 00 01 C5 4C
14:34:54.340 设备接收:06 03 02 00 02 8C 45
14:34:54.356 设备发送:07 03 04 84 00 04 05 76
14:34:55.186 设备发送:07 03 04 84 00 04 05 76
14:34:56.003 设备发送:07 03 04 84 00 04 05 76
14:34:56.818 设备发送:07 03 04 8D 00 21 14 AF
14:34:57.636 设备发送:07 03 04 8D 00 21 14 AF
14:34:58.455 设备发送:07 03 04 8D 00 21 14 AF
14:34:59.284 设备发送:07 03 06 84 00 04 04 CE
14:35:00.114 设备发送:07 03 06 84 00 04 04 CE
14:35:00.901 设备发送:07 03 06 84 00 04 04 CE
14:35:01.744 设备发送:07 03 04 04 00 01 C4 9D
14:35:02.560 设备发送:07 03 04 04 00 01 C4 9D
14:35:03.373 设备发送:07 03 04 04 00 01 C4 9D
14:35:04.189 设备发送:08 03 04 84 00 04 05 89
14:35:05.023 设备发送:08 03 04 84 00 04 05 89
14:35:05.840 设备发送:08 03 04 84 00 04 05 89
14:35:06.673 设备发送:08 03 04 8D 00 21 14 50
14:35:07.501 设备发送:08 03 04 8D 00 21 14 50
14:35:08.318 设备发送:08 03 04 8D 00 21 14 50
14:35:09.129 设备发送:08 03 06 84 00 04 04 31
14:35:09.942 设备发送:08 03 06 84 00 04 04 31
14:35:10.770 设备发送:08 03 06 84 00 04 04 31
14:35:11.585 设备发送:08 03 04 04 00 01 C4 62
14:35:12.397 设备发送:08 03 04 04 00 01 C4 62
14:35:13.215 设备发送:08 03 04 04 00 01 C4 62
14:35:14.047 设备发送:09 03 04 84 00 04 04 58
14:35:14.862 设备发送:09 03 04 84 00 04 04 58
14:35:15.677 设备发送:09 03 04 84 00 04 04 58
14:35:16.523 设备发送:09 03 04 8D 00 21 15 81
14:35:17.339 设备发送:09 03 04 8D 00 21 15 81
14:35:18.157 设备发送:09 03 04 8D 00 21 15 81
14:35:18.973 设备发送:09 03 06 84 00 04 05 E0
14:35:19.789 设备发送:09 03 06 84 00 04 05 E0
14:35:20.609 设备发送:09 03 06 84 00 04 05 E0
14:35:21.410 设备发送:09 03 04 04 00 01 C5 B3
14:35:22.240 设备发送:09 03 04 04 00 01 C5 B3
14:35:23.054 设备发送:09 03 04 04 00 01 C5 B3
14:35:23.885 设备发送:0A 03 04 84 00 04 04 6B
14:35:24.702 设备发送:0A 03 04 84 00 04 04 6B
14:35:25.516 设备发送:0A 03 04 84 00 04 04 6B
14:35:26.332 设备发送:0A 03 04 8D 00 21 15 B2
14:35:27.166 设备发送:0A 03 04 8D 00 21 15 B2
14:35:27.980 设备发送:0A 03 04 8D 00 21 15 B2
14:35:28.798 设备发送:0A 03 06 84 00 04 05 D3
14:35:29.614 设备发送:0A 03 06 84 00 04 05 D3
14:35:30.433 设备发送:0A 03 06 84 00 04 05 D3
14:35:31.283 设备发送:0A 03 04 04 00 01 C5 80
14:35:32.067 设备发送:0A 03 04 04 00 01 C5 80
14:35:32.914 设备发送:0A 03 04 04 00 01 C5 80
14:35:33.725 设备发送:01 03 04 84 00 04 05 10
14:35:34.538 设备接收:01 03 08 13 87 15 16 FF 84 15 18 16 67
14:35:34.553 设备发送:01 03 04 8D 00 21 14 C9
14:35:35.336 设备接收:01 03 42 08 FA 1E 91 00 00 00 00 00 00 00 00 00 00 00 00 00 00 00 00 00 00 09 14 1E 96 00 00 00 00 00 00 00 00 00 00 00 00 00 00 00 00 00 00 09 0E 1E A3 00 00 00 00 00 00 00 00 00 00 00 00 00 00 00 00 00 00 07 F2
14:35:35.352 设备发送:01 03 06 84 00 04 04 A8
14:35:36.167 设备接收:01 03 08 00 00 8A 43 00 12 7C 9B 0E 1C
14:35:36.183 设备发送:01 03 04 04 00 01 C4 FB
14:35:36.969 设备接收:01 03 02 00 02 39 85
14:35:36.985 设备发送:02 03 04 84 00 04 05 23
14:35:37.790 设备接收:02 03 08 13 86 15 AC FF 7D 15 AE 81 BF
14:35:37.837 设备发送:02 03 04 8D 00 21 14 FA
14:35:38.620 设备接收:02 03 42 08 FB 1F 49 00 00 00 00 00 00 00 00 00 00 00 00 00 00 00 00 00 00 09 16 1F 51 00 00 00 00 00 00 00 00 00 00 00 00 00 00 00 00 00 00 09 09 1F 50 00 00 00 00 00 00 00 00 00 00 00 00 00 00 00 00 00 00 D7 10
14:35:38.636 设备发送:02 03 06 84 00 04 04 9B
14:35:39.452 设备接收:02 03 08 00 00 8D DB 00 12 CA D1 D6 A4
14:35:39.484 设备发送:02 03 04 04 00 01 C4 C8
14:35:40.265 设备接收:02 03 02 00 02 7D 85
14:35:40.280 设备发送:03 03 04 84 00 04 04 F2
14:35:41.095 设备接收:03 03 08 13 87 17 5B FF CF 17 5B 00 B4
14:35:41.110 设备发送:03 03 04 8D 00 21 15 2B
14:35:41.921 设备接收:03 03 42 08 FA 21 A6 00 00 00 00 00 00 00 00 00 00 00 00 00 00 00 00 00 00 09 1B 21 97 00 00 00 00 00 00 00 00 00 00 00 00 00 00 00 00 00 00 09 0F 21 AC 00 00 00 00 00 00 00 00 00 00 00 00 00 00 00 00 00 00 C0 8E
14:35:41.938 设备发送:03 03 06 84 00 04 05 4A
14:35:42.752 设备接收:03 03 08 00 00 9A D5 00 13 41 AD 8E 6F
14:35:42.768 设备发送:03 03 04 04 00 01 C5 19
14:35:43.549 设备接收:03 03 02 00 02 40 45
14:35:43.565 设备发送:04 03 04 84 00 04 05 45
14:35:44.380 设备接收:04 03 08 13 88 13 99 FF D5 13 99 3F 03
14:35:44.411 设备发送:04 03 04 8D 00 21 14 9C
14:35:45.193 设备接收:04 03 42 09 02 1C 5F 00 00 00 00 00 00 00 00 00 00 00 00 00 00 00 00 00 00 08 F2 1C 5A 00 00 00 00 00 00 00 00 00 00 00 00 00 00 00 00 00 00 09 10 1C 5F 00 00 00 00 00 00 00 00 00 00 00 00 00 00 00 00 00 00 74 0F
14:35:45.209 设备发送:04 03 06 84 00 04 04 FD
14:35:46.022 设备接收:04 03 08 00 00 80 AB 00 10 9E EE 57 EA
14:35:46.037 设备发送:04 03 04 04 00 01 C4 AE
14:35:46.852 设备接收:04 03 02 00 02 F5 85
14:35:46.867 设备发送:05 03 04 84 00 04 04 94
14:35:47.648 设备接收:05 03 08 13 88 10 59 00 1B 10 5A 2A 97
14:35:47.679 设备发送:05 03 04 8D 00 21 15 4D
14:35:48.492 设备接收:05 03 42 08 FB 17 A2 00 00 00 00 00 00 00 00 00 00 00 00 00 00 00 00 00 00 09 0A 17 94 00 00 00 00 00 00 00 00 00 00 00 00 00 00 00 00 00 00 09 0A 17 A0 00 00 00 00 00 00 00 00 00 00 00 00 00 00 00 00 00 00 48 7D
14:35:48.508 设备发送:05 03 06 84 00 04 05 2C
14:35:49.288 设备接收:05 03 08 00 00 6B F2 00 0E 08 80 D6 4A
14:35:49.335 设备发送:05 03 04 04 00 01 C5 7F
14:35:50.118 设备接收:05 03 02 00 02 C8 45
14:35:50.150 设备发送:06 03 04 84 00 04 04 A7
14:35:50.933 设备接收:06 03 08 13 89 0F FA FF DD 0F FB EA C4
14:35:50.948 设备发送:06 03 04 8D 00 21 15 7E
14:35:51.779 设备接收:06 03 42 08 FC 17 19 00 00 00 00 00 00 00 00 00 00 00 00 00 00 00 00 00 00 09 06 17 11 00 00 00 00 00 00 00 00 00 00 00 00 00 00 00 00 00 00 09 09 17 30 00 00 00 00 00 00 00 00 00 00 00 00 00 00 00 00 00 00 39 BD
14:35:51.795 设备发送:06 03 06 84 00 04 05 1F
14:35:52.579 设备接收:06 03 08 00 00 68 8E 00 0D FD 81 FE 67
14:35:52.594 设备发送:06 03 04 04 00 01 C5 4C
14:35:53.410 设备接收:06 03 02 00 02 8C 45
14:35:53.428 设备发送:07 03 04 84 00 04 05 76
14:35:54.209 设备接收:07 03 08 13 8A 08 97 FF E9 08 9D B2 92
14:35:54.257 设备发送:07 03 04 8D 00 21 14 AF
14:35:55.054 设备接收:07 03 42 08 FF 0C 7B 00 00 00 00 00 00 00 00 00 00 00 00 00 00 00 00 00 00 08 F9 0C 7B 00 00 00 00 00 00 00 00 00 00 00 00 00 00 00 00 00 00 08 FB 0C 7B 00 00 00 00 00 00 00 00 00 00 00 00 00 00 00 00 00 00 53 AE
14:35:55.070 设备发送:07 03 06 84 00 04 04 CE
14:35:55.885 设备接收:07 03 08 00 00 39 96 00 06 EE 13 2A 47
14:35:55.901 设备发送:07 03 04 04 00 01 C4 9D
14:35:56.686 设备接收:07 03 02 00 02 B1 85
14:35:56.702 设备发送:08 03 04 84 00 04 05 89
14:35:57.502 设备接收:08 03 08 13 8C 11 90 FF D9 11 90 99 15
14:35:57.533 设备发送:08 03 04 8D 00 21 14 50
14:35:58.333 设备接收:08 03 42 08 EE 19 A6 00 00 00 00 00 00 00 00 00 00 00 00 00 00 00 00 00 00 08 E7 19 A5 00 00 00 00 00 00 00 00 00 00 00 00 00 00 00 00 00 00 08 F6 19 B9 00 00 00 00 00 00 00 00 00 00 00 00 00 00 00 00 00 00 2F 7C
14:35:58.348 设备发送:08 03 06 84 00 04 04 31
14:35:59.164 设备接收:08 03 08 00 00 79 CE 00 0F 1A A7 A3 EB
14:35:59.179 设备发送:08 03 04 04 00 01 C4 62
14:35:59.980 设备接收:08 03 02 00 02 E5 84
14:35:59.996 设备发送:09 03 04 84 00 04 04 58
14:36:00.800 设备接收:09 03 08 13 8C 10 36 FF DC 10 36 05 CA
14:36:00.816 设备发送:09 03 04 8D 00 21 15 81
14:36:01.601 设备接收:09 03 42 08 F5 17 8D 00 00 00 00 00 00 00 00 00 00 00 00 00 00 00 00 00 00 08 ED 17 9D 00 00 00 00 00 00 00 00 00 00 00 00 00 00 00 00 00 00 09 00 17 A0 00 00 00 00 00 00 00 00 00 00 00 00 00 00 00 00 00 00 4D 19
14:36:01.631 设备发送:09 03 06 84 00 04 05 E0
14:36:02.448 设备接收:09 03 08 00 00 6D E6 00 0D BE A9 9E C1
14:36:02.464 设备发送:09 03 04 04 00 01 C5 B3
14:36:03.236 设备接收:09 03 02 00 02 D8 44
14:36:03.268 设备发送:0A 03 04 84 00 04 04 6B
14:36:04.082 设备发送:0A 03 04 84 00 04 04 6B
14:36:04.898 设备发送:0A 03 04 84 00 04 04 6B
14:36:05.713 设备发送:0A 03 04 8D 00 21 15 B2
14:36:06.560 设备发送:0A 03 04 8D 00 21 15 B2
14:36:07.375 设备发送:0A 03 04 8D 00 21 15 B2
14:36:08.185 设备发送:0A 03 06 84 00 04 05 D3
14:36:09.029 设备发送:0A 03 06 84 00 04 05 D3
14:36:09.842 设备发送:0A 03 06 84 00 04 05 D3
14:36:10.656 设备发送:0A 03 04 04 00 01 C5 80
14:36:11.483 设备发送:0A 03 04 04 00 01 C5 80
14:36:12.299 设备发送:0A 03 04 04 00 01 C5 80
14:36:13.128 设备发送:01 03 04 84 00 04 05 10
14:36:13.893 设备接收:01 03 08 13 8B 15 1A 00 24 15 1A 7B 91
14:36:13.940 设备发送:01 03 04 8D 00 21 14 C9
14:36:14.738 设备接收:01 03 42 08 FE 1E 6A 00 00 00 00 00 00 00 00 00 00 00 00 00 00 00 00 00 00 09 14 1E 65 00 00 00 00 00 00 00 00 00 00 00 00 00 00 00 00 00 00 09 0F 1E 77 00 00 00 00 00 00 00 00 00 00 00 00 00 00 00 00 00 00 AF 8A
14:36:14.754 设备发送:01 03 06 84 00 04 04 A8
14:36:15.541 设备接收:01 03 08 00 00 8A 80 00 12 7C A1 CA 1E
14:36:15.557 设备发送:01 03 04 04 00 01 C4 FB
14:36:16.387 设备接收:01 03 02 00 02 39 85
14:36:16.403 设备发送:02 03 04 84 00 04 05 23
14:36:17.203 设备接收:02 03 08 13 8B 15 B0 FF D2 15 B0 3C 94
14:36:17.219 设备发送:02 03 04 8D 00 21 14 FA
14:36:18.022 设备接收:02 03 42 08 FB 1F 36 00 00 00 00 00 00 00 00 00 00 00 00 00 00 00 00 00 00 09 18 1F 4D 00 00 00 00 00 00 00 00 00 00 00 00 00 00 00 00 00 00 09 0D 1F 54 00 00 00 00 00 00 00 00 00 00 00 00 00 00 00 00 00 00 01 3D
14:36:18.038 设备发送:02 03 06 84 00 04 04 9B
14:36:18.820 设备接收:02 03 08 00 00 8E 19 00 12 CA D7 2F 44
14:36:18.836 设备发送:02 03 04 04 00 01 C4 C8
14:36:19.666 设备接收:02 03 02 00 02 7D 85
14:36:19.682 设备发送:03 03 04 84 00 04 04 F2
14:36:20.468 设备接收:03 03 08 13 8B 17 71 00 24 17 72 54 8C
14:36:20.484 设备发送:03 03 04 8D 00 21 15 2B
14:36:21.299 设备接收:03 03 42 08 FE 21 C5 00 00 00 00 00 00 00 00 00 00 00 00 00 00 00 00 00 00 09 1B 21 AA 00 00 00 00 00 00 00 00 00 00 00 00 00 00 00 00 00 00 09 12 21 BC 00 00 00 00 00 00 00 00 00 00 00 00 00 00 00 00 00 00 3C C8
14:36:21.330 设备发送:03 03 06 84 00 04 05 4A
14:36:22.114 设备接收:03 03 08 00 00 9B 17 00 13 41 B4 37 A5
14:36:22.130 设备发送:03 03 04 04 00 01 C5 19
14:36:22.932 设备接收:03 03 02 00 02 40 45
14:36:22.948 设备发送:04 03 04 84 00 04 05 45
14:36:23.746 设备接收:04 03 08 13 8B 13 A8 FF 89 13 A9 B1 C1
14:36:23.761 设备发送:04 03 04 8D 00 21 14 9C
14:36:24.579 设备接收:04 03 42 09 05 1C 6F 00 00 00 00 00 00 00 00 00 00 00 00 00 00 00 00 00 00 08 F6 1C 6B 00 00 00 00 00 00 00 00 00 00 00 00 00 00 00 00 00 00 09 15 1C 6C 00 00 00 00 00 00 00 00 00 00 00 00 00 00 00 00 00 00 3A 2C
14:36:24.594 设备发送:04 03 06 84 00 04 04 FD
14:36:25.379 设备接收:04 03 08 00 00 80 E0 00 10 9E F4 72 2F
14:36:25.395 设备发送:04 03 04 04 00 01 C4 AE
14:36:26.224 设备接收:04 03 02 00 02 F5 85
14:36:26.240 设备发送:05 03 04 84 00 04 04 94
14:36:27.022 设备接收:05 03 08 13 8B 10 65 FF DC 10 66 C8 6A
14:36:27.038 设备发送:05 03 04 8D 00 21 15 4D
14:36:27.871 设备接收:05 03 42 08 FC 17 B2 00 00 00 00 00 00 00 00 00 00 00 00 00 00 00 00 00 00 09 0B 17 A2 00 00 00 00 00 00 00 00 00 00 00 00 00 00 00 00 00 00 09 0D 17 AF 00 00 00 00 00 00 00 00 00 00 00 00 00 00 00 00 00 00 81 D4
14:36:27.887 设备发送:05 03 06 84 00 04 05 2C
14:36:28.688 设备接收:05 03 08 00 00 6C 21 00 0E 08 85 92 2C
14:36:28.704 设备发送:05 03 04 04 00 01 C5 7F
14:36:29.521 设备接收:05 03 02 00 02 C8 45
14:36:29.536 设备发送:06 03 04 84 00 04 04 A7
14:36:30.321 设备接收:06 03 08 13 8B 10 06 00 1B 10 06 82 E7
14:36:30.337 设备发送:06 03 04 8D 00 21 15 7E
14:36:31.152 设备接收:06 03 42 08 FE 17 2B 00 00 00 00 00 00 00 00 00 00 00 00 00 00 00 00 00 00 09 08 17 24 00 00 00 00 00 00 00 00 00 00 00 00 00 00 00 00 00 00 09 0C 17 45 00 00 00 00 00 00 00 00 00 00 00 00 00 00 00 00 00 00 12 30
14:36:31.183 设备发送:06 03 06 84 00 04 05 1F
14:36:31.987 设备接收:06 03 08 00 00 68 BB 00 0D FD 86 33 A1
14:36:32.003 设备发送:06 03 04 04 00 01 C5 4C
14:36:32.802 设备接收:06 03 02 00 02 8C 45
14:36:32.818 设备发送:07 03 04 84 00 04 05 76
14:36:33.617 设备接收:07 03 08 13 8A 08 A3 FF C2 08 A9 72 89
14:36:33.633 设备发送:07 03 04 8D 00 21 14 AF
14:36:34.420 设备接收:07 03 42 09 00 0C 85 00 00 00 00 00 00 00 00 00 00 00 00 00 00 00 00 00 00 08 FE 0C 8B 00 00 00 00 00 00 00 00 00 00 00 00 00 00 00 00 00 00 09 00 0C 8E 00 00 00 00 00 00 00 00 00 00 00 00 00 00 00 00 00 00 13 83
14:36:34.437 设备发送:07 03 06 84 00 04 04 CE
14:36:35.240 设备接收:07 03 08 00 00 39 AE 00 06 EE 16 4B 81
14:36:35.287 设备发送:07 03 04 04 00 01 C4 9D
14:36:36.070 设备接收:07 03 02 00 02 B1 85
14:36:36.086 设备发送:08 03 04 84 00 04 05 89
14:36:36.899 设备接收:08 03 08 13 8B 11 90 FF 94 11 91 BE 02
14:36:36.915 设备发送:08 03 04 8D 00 21 14 50
14:36:37.695 设备接收:08 03 42 08 F2 19 9C 00 00 00 00 00 00 00 00 00 00 00 00 00 00 00 00 00 00 08 E9 19 96 00 00 00 00 00 00 00 00 00 00 00 00 00 00 00 00 00 00 08 F9 19 AD 00 00 00 00 00 00 00 00 00 00 00 00 00 00 00 00 00 00 3A 81
14:36:37.760 设备发送:08 03 06 84 00 04 04 31
14:36:38.544 设备接收:08 03 08 00 00 7A 00 00 0F 1A AC 8B CF
14:36:38.575 设备发送:08 03 04 04 00 01 C4 62
14:36:39.345 设备接收:08 03 02 00 02 E5 84
14:36:39.377 设备发送:09 03 04 84 00 04 04 58
14:36:40.181 设备接收:09 03 08 13 8A 10 4C 00 1A 10 4C EB CA
14:36:40.197 设备发送:09 03 04 8D 00 21 15 81
14:36:40.999 设备接收:09 03 42 08 F9 17 AD 00 00 00 00 00 00 00 00 00 00 00 00 00 00 00 00 00 00 08 EF 17 BE 00 00 00 00 00 00 00 00 00 00 00 00 00 00 00 00 00 00 09 02 17 BA 00 00 00 00 00 00 00 00 00 00 00 00 00 00 00 00 00 00 0E 4C
14:36:41.015 设备发送:09 03 06 84 00 04 05 E0
14:36:41.834 设备接收:09 03 08 00 00 6E 12 00 0D BE AD 2E E4
14:36:41.850 设备发送:09 03 04 04 00 01 C5 B3
14:36:42.636 设备接收:09 03 02 00 02 D8 44
14:36:42.652 设备发送:0A 03 04 84 00 04 04 6B
14:36:43.469 设备发送:0A 03 04 84 00 04 04 6B
14:36:44.307 设备发送:0A 03 04 84 00 04 04 6B
14:36:45.123 设备发送:0A 03 04 8D 00 21 15 B2
14:36:45.942 设备发送:0A 03 04 8D 00 21 15 B2
14:36:46.778 设备发送:0A 03 04 8D 00 21 15 B2
14:36:47.567 设备发送:0A 03 06 84 00 04 05 D3
14:36:48.387 设备发送:0A 03 06 84 00 04 05 D3
14:36:49.233 设备发送:0A 03 06 84 00 04 05 D3
14:36:50.049 设备发送:0A 03 04 04 00 01 C5 80
14:36:50.862 设备发送:0A 03 04 04 00 01 C5 80
14:36:51.678 设备发送:0A 03 04 04 00 01 C5 80
14:36:52.513 设备发送:01 03 04 84 00 04 05 10
14:36:53.297 设备接收:01 03 08 13 89 15 34 FF 81 15 35 D1 BC
14:36:53.312 设备发送:01 03 04 8D 00 21 14 C9
14:36:54.128 设备接收:01 03 42 08 FB 1E 90 00 00 00 00 00 00 00 00 00 00 00 00 00 00 00 00 00 00 09 15 1E 9A 00 00 00 00 00 00 00 00 00 00 00 00 00 00 00 00 00 00 09 10 1E A7 00 00 00 00 00 00 00 00 00 00 00 00 00 00 00 00 00 00 96 F0
14:36:54.144 设备发送:01 03 06 84 00 04 04 A8
14:36:54.945 设备接收:01 03 08 00 00 8A BB 00 12 7C A7 AF D9
14:36:54.976 设备发送:01 03 04 04 00 01 C4 FB
14:36:55.773 设备接收:01 03 02 00 02 39 85
14:36:55.788 设备发送:02 03 04 84 00 04 05 23
14:36:56.574 设备接收:02 03 08 13 89 15 9F FF D1 15 9F 7B 4E
14:36:56.605 设备发送:02 03 04 8D 00 21 14 FA
14:36:57.394 设备接收:02 03 42 08 FD 1F 19 00 00 00 00 00 00 00 00 00 00 00 00 00 00 00 00 00 00 09 18 1F 2D 00 00 00 00 00 00 00 00 00 00 00 00 00 00 00 00 00 00 09 0F 1F 32 00 00 00 00 00 00 00 00 00 00 00 00 00 00 00 00 00 00 06 95
14:36:57.410 设备发送:02 03 06 84 00 04 04 9B
14:36:58.225 设备接收:02 03 08 00 00 8E 56 00 12 CA DD FA 8D
14:36:58.240 设备发送:02 03 04 04 00 01 C4 C8
14:36:59.041 设备接收:02 03 02 00 02 7D 85
14:36:59.057 设备发送:03 03 04 84 00 04 04 F2
14:36:59.870 设备接收:03 03 08 13 88 17 61 00 27 17 61 17 82
14:36:59.886 设备发送:03 03 04 8D 00 21 15 2B
14:37:00.686 设备接收:03 03 42 08 F9 21 AC 00 00 00 00 00 00 00 00 00 00 00 00 00 00 00 00 00 00 09 1B 21 9E 00 00 00 00 00 00 00 00 00 00 00 00 00 00 00 00 00 00 09 11 21 B3 00 00 00 00 00 00 00 00 00 00 00 00 00 00 00 00 00 00 47 40
14:37:00.703 设备发送:03 03 06 84 00 04 05 4A
14:37:01.504 设备接收:03 03 08 00 00 9B 57 00 13 41 BA B7 AE
14:37:01.520 设备发送:03 03 04 04 00 01 C5 19
14:37:02.321 设备接收:03 03 02 00 02 40 45
14:37:02.337 设备发送:04 03 04 84 00 04 05 45
14:37:03.120 设备接收:04 03 08 13 87 13 93 FF D3 13 93 38 04
14:37:03.151 设备发送:04 03 04 8D 00 21 14 9C
14:37:03.968 设备接收:04 03 42 09 03 1C 55 00 00 00 00 00 00 00 00 00 00 00 00 00 00 00 00 00 00 08 F5 1C 48 00 00 00 00 00 00 00 00 00 00 00 00 00 00 00 00 00 00 09 13 1C 51 00 00 00 00 00 00 00 00 00 00 00 00 00 00 00 00 00 00 BD 68
14:37:03.984 设备发送:04 03 06 84 00 04 04 FD
14:37:04.785 设备接收:04 03 08 00 00 81 18 00 10 9E F9 13 EF
14:37:04.816 设备发送:04 03 04 04 00 01 C4 AE
14:37:05.614 设备接收:04 03 02 00 02 F5 85
14:37:05.630 设备发送:05 03 04 84 00 04 04 94
14:37:06.433 设备接收:05 03 08 13 87 10 54 00 1A 10 54 28 52
14:37:06.449 设备发送:05 03 04 8D 00 21 15 4D
14:37:07.252 设备接收:05 03 42 08 FC 17 A2 00 00 00 00 00 00 00 00 00 00 00 00 00 00 00 00 00 00 09 0B 17 8F 00 00 00 00 00 00 00 00 00 00 00 00 00 00 00 00 00 00 09 0B 17 9E 00 00 00 00 00 00 00 00 00 00 00 00 00 00 00 00 00 00 78 CF
14:37:07.267 设备发送:05 03 06 84 00 04 05 2C
14:37:08.068 设备接收:05 03 08 00 00 6C 4D 00 0E 08 89 02 20
14:37:08.083 设备发送:05 03 04 04 00 01 C5 7F
14:37:08.867 设备接收:05 03 02 00 02 C8 45
14:37:08.886 设备发送:06 03 04 84 00 04 04 A7
14:37:09.686 设备接收:06 03 08 13 87 0F FD 00 1A 0F FD B1 2F
14:37:09.733 设备发送:06 03 04 8D 00 21 15 7E
14:37:10.520 设备接收:06 03 42 08 FF 17 24 00 00 00 00 00 00 00 00 00 00 00 00 00 00 00 00 00 00 09 08 17 1A 00 00 00 00 00 00 00 00 00 00 00 00 00 00 00 00 00 00 09 0C 17 32 00 00 00 00 00 00 00 00 00 00 00 00 00 00 00 00 00 00 9E 4A
14:37:10.536 设备发送:06 03 06 84 00 04 05 1F
14:37:11.367 设备接收:06 03 08 00 00 68 E8 00 0D FD 8A B7 A8
14:37:11.383 设备发送:06 03 04 04 00 01 C5 4C
14:37:12.140 设备接收:06 03 02 00 02 8C 45
14:37:12.187 设备发送:07 03 04 84 00 04 05 76
14:37:12.990 设备接收:07 03 08 13 86 08 9E FF D5 08 A5 63 4D
14:37:13.006 设备发送:07 03 04 8D 00 21 14 AF
14:37:13.792 设备接收:07 03 42 08 FF 0C 7A 00 00 00 00 00 00 00 00 00 00 00 00 00 00 00 00 00 00 09 00 0C 82 00 00 00 00 00 00 00 00 00 00 00 00 00 00 00 00 00 00 09 00 0C 85 00 00 00 00 00 00 00 00 00 00 00 00 00 00 00 00 00 00 50 96
14:37:13.808 设备发送:07 03 06 84 00 04 04 CE
14:37:14.628 设备接收:07 03 08 00 00 39 C6 00 06 EE 18 AB 8C
14:37:14.647 设备发送:07 03 04 04 00 01 C4 9D
14:37:15.430 设备接收:07 03 02 00 02 B1 85
14:37:15.478 设备发送:08 03 04 84 00 04 05 89
14:37:16.265 设备接收:08 03 08 13 85 11 73 FF 94 11 74 55 9F
14:37:16.280 设备发送:08 03 04 8D 00 21 14 50
14:37:17.067 设备接收:08 03 42 08 F0 19 78 00 00 00 00 00 00 00 00 00 00 00 00 00 00 00 00 00 00 08 E5 19 6E 00 00 00 00 00 00 00 00 00 00 00 00 00 00 00 00 00 00 08 F5 19 89 00 00 00 00 00 00 00 00 00 00 00 00 00 00 00 00 00 00 63 30
14:37:17.083 设备发送:08 03 06 84 00 04 04 31
14:37:17.900 设备接收:08 03 08 00 00 7A 31 00 0F 1A B1 36 02
14:37:17.916 设备发送:08 03 04 04 00 01 C4 62
14:37:18.717 设备接收:08 03 02 00 02 E5 84
14:37:18.733 设备发送:09 03 04 84 00 04 04 58
14:37:19.548 设备接收:09 03 08 13 85 10 43 00 19 10 43 F0 CF
14:37:19.564 设备发送:09 03 04 8D 00 21 15 81
14:37:20.349 设备接收:09 03 42 08 FA 17 A8 00 00 00 00 00 00 00 00 00 00 00 00 00 00 00 00 00 00 08 EE 17 AE 00 00 00 00 00 00 00 00 00 00 00 00 00 00 00 00 00 00 09 01 17 B3 00 00 00 00 00 00 00 00 00 00 00 00 00 00 00 00 00 00 5E C2
14:37:20.397 设备发送:09 03 06 84 00 04 05 E0
14:37:21.166 设备接收:09 03 08 00 00 6E 3F 00 0D BE B2 C3 2A
14:37:21.197 设备发送:09 03 04 04 00 01 C5 B3
14:37:22.017 设备接收:09 03 02 00 02 D8 44
14:37:22.032 设备发送:0A 03 04 84 00 04 04 6B
14:37:22.850 设备发送:0A 03 04 84 00 04 04 6B
14:37:23.667 设备发送:0A 03 04 84 00 04 04 6B
14:37:24.482 设备发送:0A 03 04 8D 00 21 15 B2
14:37:25.304 设备发送:0A 03 04 8D 00 21 15 B2
14:37:26.119 设备发送:0A 03 04 8D 00 21 15 B2
14:37:26.932 设备发送:0A 03 06 84 00 04 05 D3
14:37:27.749 设备发送:0A 03 06 84 00 04 05 D3
14:37:28.582 设备发送:0A 03 06 84 00 04 05 D3
14:37:29.413 设备发送:0A 03 04 04 00 01 C5 80
14:37:30.200 设备发送:0A 03 04 04 00 01 C5 80
14:37:31.030 设备发送:0A 03 04 04 00 01 C5 80
14:37:31.862 设备发送:01 03 04 84 00 04 05 10
14:37:32.681 设备接收:01 03 08 13 87 15 08 FF D3 15 08 0E 79
14:37:32.698 设备发送:01 03 04 8D 00 21 14 C9
14:37:33.483 设备接收:01 03 42 08 FD 1E 4D 00 00 00 00 00 00 00 00 00 00 00 00 00 00 00 00 00 00 09 13 1E 55 00 00 00 00 00 00 00 00 00 00 00 00 00 00 00 00 00 00 09 11 1E 62 00 00 00 00 00 00 00 00 00 00 00 00 00 00 00 00 00 00 1E B6
14:37:33.498 设备发送:01 03 06 84 00 04 04 A8
14:37:34.317 设备接收:01 03 08 00 00 8A F6 00 12 7C AD 03 D0
14:37:34.332 设备发送:01 03 04 04 00 01 C4 FB
14:37:35.116 设备接收:01 03 02 00 02 39 85
14:37:35.132 设备发送:02 03 04 84 00 04 05 23
14:37:35.946 设备接收:02 03 08 13 88 15 5F FF 83 15 60 8A 0E
14:37:35.961 设备发送:02 03 04 8D 00 21 14 FA
14:37:36.749 设备接收:02 03 42 08 FF 1E C3 00 00 00 00 00 00 00 00 00 00 00 00 00 00 00 00 00 00 09 17 1E CA 00 00 00 00 00 00 00 00 00 00 00 00 00 00 00 00 00 00 09 0E 1E D3 00 00 00 00 00 00 00 00 00 00 00 00 00 00 00 00 00 00 C5 81
14:37:36.780 设备发送:02 03 06 84 00 04 04 9B
14:37:37.595 设备接收:02 03 08 00 00 8E 90 00 12 CA E3 F3 4C
14:37:37.611 设备发送:02 03 04 04 00 01 C4 C8
14:37:38.384 设备接收:02 03 02 00 02 7D 85
14:37:38.400 设备发送:03 03 04 84 00 04 04 F2
14:37:39.221 设备接收:03 03 08 13 87 17 32 FF CC 17 32 6C 93
14:37:39.237 设备发送:03 03 04 8D 00 21 15 2B
14:37:40.025 设备接收:03 03 42 08 FB 21 5F 00 00 00 00 00 00 00 00 00 00 00 00 00 00 00 00 00 00 09 1B 21 50 00 00 00 00 00 00 00 00 00 00 00 00 00 00 00 00 00 00 09 11 21 66 00 00 00 00 00 00 00 00 00 00 00 00 00 00 00 00 00 00 FF A6
14:37:40.041 设备发送:03 03 06 84 00 04 05 4A
14:37:40.854 设备接收:03 03 08 00 00 9B 98 00 13 41 C1 A3 9D
14:37:40.886 设备发送:03 03 04 04 00 01 C5 19
14:37:41.699 设备接收:03 03 02 00 02 40 45
14:37:41.714 设备发送:04 03 04 84 00 04 05 45
14:37:42.499 设备接收:04 03 08 13 88 13 78 FF D5 13 78 43 5D
14:37:42.515 设备发送:04 03 04 8D 00 21 14 9C
14:37:43.333 设备接收:04 03 42 09 05 1C 31 00 00 00 00 00 00 00 00 00 00 00 00 00 00 00 00 00 00 08 F4 1C 28 00 00 00 00 00 00 00 00 00 00 00 00 00 00 00 00 00 00 09 12 1C 2C 00 00 00 00 00 00 00 00 00 00 00 00 00 00 00 00 00 00 A2 46
14:37:43.349 设备发送:04 03 06 84 00 04 04 FD
14:37:44.133 设备接收:04 03 08 00 00 81 4F 00 10 9E FF E6 21
14:37:44.164 设备发送:04 03 04 04 00 01 C4 AE
14:37:44.951 设备接收:04 03 02 00 02 F5 85
14:37:44.967 设备发送:05 03 04 84 00 04 04 94
14:37:45.780 设备接收:05 03 08 13 89 10 3B 00 1B 10 3B 02 77
14:37:45.795 设备发送:05 03 04 8D 00 21 15 4D
14:37:46.591 设备接收:05 03 42 08 FF 17 83 00 00 00 00 00 00 00 00 00 00 00 00 00 00 00 00 00 00 09 07 17 6C 00 00 00 00 00 00 00 00 00 00 00 00 00 00 00 00 00 00 09 09 17 78 00 00 00 00 00 00 00 00 00 00 00 00 00 00 00 00 00 00 6A A7
14:37:46.638 设备发送:05 03 06 84 00 04 05 2C
14:37:47.422 设备接收:05 03 08 00 00 6C 7B 00 0E 08 8E 8B E6
14:37:47.454 设备发送:05 03 04 04 00 01 C5 7F
14:37:48.255 设备接收:05 03 02 00 02 C8 45
14:37:48.271 设备发送:06 03 04 84 00 04 04 A7
14:37:49.070 设备接收:06 03 08 13 8A 0F DA FF E0 0F DA 09 D7
14:37:49.091 设备发送:06 03 04 8D 00 21 15 7E
14:37:49.887 设备接收:06 03 42 08 FF 16 E9 00 00 00 00 00 00 00 00 00 00 00 00 00 00 00 00 00 00 09 06 16 E6 00 00 00 00 00 00 00 00 00 00 00 00 00 00 00 00 00 00 09 0B 17 04 00 00 00 00 00 00 00 00 00 00 00 00 00 00 00 00 00 00 6A 94
14:37:49.902 设备发送:06 03 06 84 00 04 05 1F
14:37:50.687 设备接收:06 03 08 00 00 69 15 00 0D FD 8F 1B AE
14:37:50.734 设备发送:06 03 04 04 00 01 C5 4C
14:37:51.519 设备接收:06 03 02 00 02 8C 45
14:37:51.535 设备发送:07 03 04 84 00 04 05 76
14:37:52.352 设备接收:07 03 08 13 8A 08 95 FF C3 08 9C 2B 5A
14:37:52.382 设备发送:07 03 04 8D 00 21 14 AF
14:37:53.180 设备接收:07 03 42 08 FD 0C 73 00 00 00 00 00 00 00 00 00 00 00 00 00 00 00 00 00 00 08 FA 0C 7B 00 00 00 00 00 00 00 00 00 00 00 00 00 00 00 00 00 00 08 FD 0C 7A 00 00 00 00 00 00 00 00 00 00 00 00 00 00 00 00 00 00 26 54
14:37:53.196 设备发送:07 03 06 84 00 04 04 CE
14:37:53.979 设备接收:07 03 08 00 00 39 DE 00 06 EE 1A 0A 4F
14:37:54.027 设备发送:07 03 04 04 00 01 C4 9D
14:37:54.826 设备接收:07 03 02 00 02 B1 85
14:37:54.842 设备发送:08 03 04 84 00 04 05 89
14:37:55.659 设备接收:08 03 08 13 8B 11 44 FF D7 11 44 BE 5B
14:37:55.674 设备发送:08 03 04 8D 00 21 14 50
14:37:56.462 设备接收:08 03 42 08 EE 19 3D 00 00 00 00 00 00 00 00 00 00 00 00 00 00 00 00 00 00 08 E4 19 3C 00 00 00 00 00 00 00 00 00 00 00 00 00 00 00 00 00 00 08 F5 19 4F 00 00 00 00 00 00 00 00 00 00 00 00 00 00 00 00 00 00 F4 F0
14:37:56.476 设备发送:08 03 06 84 00 04 04 31
14:37:57.276 设备接收:08 03 08 00 00 7A 62 00 0F 1A B6 F3 CC
14:37:57.292 设备发送:08 03 04 04 00 01 C4 62
14:37:58.108 设备接收:08 03 02 00 02 E5 84
14:37:58.123 设备发送:09 03 04 84 00 04 04 58
14:37:58.923 设备接收:09 03 08 13 8B 10 11 FF DB 10 11 B6 D6
14:37:58.938 设备发送:09 03 04 8D 00 21 15 81
14:37:59.755 设备接收:09 03 42 08 F9 17 5F 00 00 00 00 00 00 00 00 00 00 00 00 00 00 00 00 00 00 08 EB 17 66 00 00 00 00 00 00 00 00 00 00 00 00 00 00 00 00 00 00 08 FE 17 64 00 00 00 00 00 00 00 00 00 00 00 00 00 00 00 00 00 00 BE 49
14:37:59.771 设备发送:09 03 06 84 00 04 05 E0
14:38:00.574 设备接收:09 03 08 00 00 6E 6D 00 0D BE B6 7B 25
14:38:00.590 设备发送:09 03 04 04 00 01 C5 B3
14:38:01.375 设备接收:09 03 02 00 02 D8 44
14:38:01.422 设备发送:0A 03 04 84 00 04 04 6B
14:38:02.218 设备发送:0A 03 04 84 00 04 04 6B
14:38:03.068 设备发送:0A 03 04 84 00 04 04 6B
14:38:03.886 设备发送:0A 03 04 8D 00 21 15 B2
14:38:04.700 设备发送:0A 03 04 8D 00 21 15 B2
14:38:05.518 设备发送:0A 03 04 8D 00 21 15 B2
14:38:06.336 设备发送:0A 03 06 84 00 04 05 D3
14:38:07.149 设备发送:0A 03 06 84 00 04 05 D3
14:38:07.979 设备发送:0A 03 06 84 00 04 05 D3
14:38:08.796 设备发送:0A 03 04 04 00 01 C5 80
14:38:09.614 设备发送:0A 03 04 04 00 01 C5 80
14:38:10.429 设备发送:0A 03 04 04 00 01 C5 80
14:38:11.246 设备发送:01 03 04 84 00 04 05 10
14:38:12.061 设备接收:01 03 08 13 8B 14 A0 FF D4 14 A0 13 9F
14:38:12.076 设备发送:01 03 04 8D 00 21 14 C9
14:38:12.864 设备接收:01 03 42 08 FD 1D C6 00 00 00 00 00 00 00 00 00 00 00 00 00 00 00 00 00 00 09 11 1D C3 00 00 00 00 00 00 00 00 00 00 00 00 00 00 00 00 00 00 09 0D 1D D1 00 00 00 00 00 00 00 00 00 00 00 00 00 00 00 00 00 00 05 AC
14:38:12.896 设备发送:01 03 06 84 00 04 04 A8
14:38:13.699 设备接收:01 03 08 00 00 8B 30 00 12 7C B3 0A 18
14:38:13.714 设备发送:01 03 04 04 00 01 C4 FB
14:38:14.499 设备接收:01 03 02 00 02 39 85
14:38:14.514 设备发送:02 03 04 84 00 04 05 23
14:38:15.346 设备接收:02 03 08 13 8B 15 27 FF 80 15 28 E9 32
14:38:15.362 设备发送:02 03 04 8D 00 21 14 FA
14:38:16.148 设备接收:02 03 42 08 FE 1E 5F 00 00 00 00 00 00 00 00 00 00 00 00 00 00 00 00 00 00 09 19 1E 7A 00 00 00 00 00 00 00 00 00 00 00 00 00 00 00 00 00 00 09 0D 1E 80 00 00 00 00 00 00 00 00 00 00 00 00 00 00 00 00 00 00 BE 34
14:38:16.163 设备发送:02 03 06 84 00 04 04 9B
14:38:16.980 设备接收:02 03 08 00 00 8E CC 00 12 CA E9 A3 46
14:38:16.995 设备发送:02 03 04 04 00 01 C4 C8
14:38:17.783 设备接收:02 03 02 00 02 7D 85
14:38:17.815 设备发送:03 03 04 84 00 04 04 F2
14:38:18.604 设备接收:03 03 08 13 8A 16 E5 FF CE 16 E6 65 9F
14:38:18.625 设备发送:03 03 04 8D 00 21 15 2B
14:38:19.435 设备接收:03 03 42 08 FA 21 10 00 00 00 00 00 00 00 00 00 00 00 00 00 00 00 00 00 00 09 19 21 08 00 00 00 00 00 00 00 00 00 00 00 00 00 00 00 00 00 00 09 0E 21 1D 00 00 00 00 00 00 00 00 00 00 00 00 00 00 00 00 00 00 20 5F
14:38:19.450 设备发送:03 03 06 84 00 04 05 4A
14:38:20.232 设备接收:03 03 08 00 00 9B D9 00 13 41 C7 1F 90
14:38:20.280 设备发送:03 03 04 04 00 01 C5 19
14:38:21.082 设备接收:03 03 02 00 02 40 45
14:38:21.099 设备发送:04 03 04 84 00 04 05 45
14:38:21.884 设备接收:04 03 08 13 8A 13 57 FF D6 13 57 04 87
14:38:21.900 设备发送:04 03 04 8D 00 21 14 9C
14:38:22.716 设备接收:04 03 42 09 04 1B FB 00 00 00 00 00 00 00 00 00 00 00 00 00 00 00 00 00 00 08 F4 1B F5 00 00 00 00 00 00 00 00 00 00 00 00 00 00 00 00 00 00 09 11 1B F9 00 00 00 00 00 00 00 00 00 00 00 00 00 00 00 00 00 00 67 53
14:38:22.732 设备发送:04 03 06 84 00 04 04 FD
14:38:23.517 设备接收:04 03 08 00 00 81 86 00 10 9F 04 7A 22
14:38:23.548 设备发送:04 03 04 04 00 01 C4 AE
14:38:24.332 设备接收:04 03 02 00 02 F5 85
14:38:24.363 设备发送:05 03 04 84 00 04 04 94
14:38:25.178 设备接收:05 03 08 13 89 10 19 FF DF 10 1A 4B 81
14:38:25.195 设备发送:05 03 04 8D 00 21 15 4D
14:38:25.981 设备接收:05 03 42 08 FD 17 49 00 00 00 00 00 00 00 00 00 00 00 00 00 00 00 00 00 00 09 08 17 39 00 00 00 00 00 00 00 00 00 00 00 00 00 00 00 00 00 00 09 08 17 46 00 00 00 00 00 00 00 00 00 00 00 00 00 00 00 00 00 00 F3 5A
14:38:25.996 设备发送:05 03 06 84 00 04 05 2C
14:38:26.814 设备接收:05 03 08 00 00 6C A8 00 0E 08 92 0F FD
14:38:26.833 设备发送:05 03 04 04 00 01 C5 7F
14:38:27.627 设备接收:05 03 02 00 02 C8 45
14:38:27.642 设备发送:06 03 04 84 00 04 04 A7
14:38:28.460 设备接收:06 03 08 13 88 0F B5 FF DE 0F B6 9F FF
14:38:28.476 设备发送:06 03 04 8D 00 21 15 7E
14:38:29.276 设备接收:06 03 42 09 00 16 B5 00 00 00 00 00 00 00 00 00 00 00 00 00 00 00 00 00 00 09 08 16 B2 00 00 00 00 00 00 00 00 00 00 00 00 00 00 00 00 00 00 09 0C 16 CA 00 00 00 00 00 00 00 00 00 00 00 00 00 00 00 00 00 00 69 46
14:38:29.291 设备发送:06 03 06 84 00 04 05 1F
14:38:30.073 设备接收:06 03 08 00 00 69 42 00 0D FD 93 6F AB
14:38:30.104 设备发送:06 03 04 04 00 01 C5 4C
14:38:30.903 设备接收:06 03 02 00 02 8C 45
14:38:30.936 设备发送:07 03 04 84 00 04 05 76
14:38:31.719 设备接收:07 03 08 13 87 08 89 FF D6 08 8F 76 51
14:38:31.735 设备发送:07 03 04 8D 00 21 14 AF
14:38:32.547 设备接收:07 03 42 08 FE 0C 63 00 00 00 00 00 00 00 00 00 00 00 00 00 00 00 00 00 00 08 FB 0C 67 00 00 00 00 00 00 00 00 00 00 00 00 00 00 00 00 00 00 08 FF 0C 67 00 00 00 00 00 00 00 00 00 00 00 00 00 00 00 00 00 00 29 A1
14:38:32.566 设备发送:07 03 06 84 00 04 04 CE
14:38:33.363 设备接收:07 03 08 00 00 39 F6 00 06 EE 1D 2B 8B
14:38:33.394 设备发送:07 03 04 04 00 01 C4 9D
14:38:34.196 设备接收:07 03 02 00 02 B1 85
14:38:34.211 设备发送:08 03 04 84 00 04 05 89
14:38:34.999 设备接收:08 03 08 13 87 11 44 FF D8 11 44 42 58
14:38:35.045 设备发送:08 03 04 8D 00 21 14 50
14:38:35.841 设备接收:08 03 42 08 F1 19 3A 00 00 00 00 00 00 00 00 00 00 00 00 00 00 00 00 00 00 08 E5 19 34 00 00 00 00 00 00 00 00 00 00 00 00 00 00 00 00 00 00 08 F6 19 4D 00 00 00 00 00 00 00 00 00 00 00 00 00 00 00 00 00 00 96 21
14:38:35.857 设备发送:08 03 06 84 00 04 04 31
14:38:36.641 设备接收:08 03 08 00 00 7A 93 00 0F 1A BA 8E 1C
14:38:36.657 设备发送:08 03 04 04 00 01 C4 62
14:38:37.475 设备接收:08 03 02 00 02 E5 84
14:38:37.491 设备发送:09 03 04 84 00 04 04 58
14:38:38.294 设备接收:09 03 08 13 85 0F ED FF DC 0F ED B2 DD
14:38:38.309 设备发送:09 03 04 8D 00 21 15 81
14:38:39.095 设备接收:09 03 42 08 F6 17 2B 00 00 00 00 00 00 00 00 00 00 00 00 00 00 00 00 00 00 08 EA 17 39 00 00 00 00 00 00 00 00 00 00 00 00 00 00 00 00 00 00 08 FC 17 3C 00 00 00 00 00 00 00 00 00 00 00 00 00 00 00 00 00 00 E8 21
14:38:39.111 设备发送:09 03 06 84 00 04 05 E0
14:38:39.928 设备接收:09 03 08 00 00 6E 9A 00 0D BE BB 4F 35
14:38:39.943 设备发送:09 03 04 04 00 01 C5 B3
14:38:40.763 设备接收:09 03 02 00 02 D8 44
14:38:40.778 设备发送:0A 03 04 84 00 04 04 6B
14:38:41.580 设备发送:0A 03 04 84 00 04 04 6B
14:38:42.410 设备发送:0A 03 04 84 00 04 04 6B
14:38:43.224 设备发送:0A 03 04 8D 00 21 15 B2
14:38:44.060 设备发送:0A 03 04 8D 00 21 15 B2
14:38:44.877 设备发送:0A 03 04 8D 00 21 15 B2
14:38:45.695 设备发送:0A 03 06 84 00 04 05 D3
14:38:46.513 设备发送:0A 03 06 84 00 04 05 D3
14:38:47.330 设备发送:0A 03 06 84 00 04 05 D3
14:38:48.167 设备发送:0A 03 04 04 00 01 C5 80
14:38:48.979 设备发送:0A 03 04 04 00 01 C5 80
14:38:49.796 设备发送:0A 03 04 04 00 01 C5 80
14:38:50.611 设备发送:01 03 04 84 00 04 05 10
14:38:51.427 设备接收:01 03 08 13 86 14 9F FF D3 14 9F 2A 8B
14:38:51.442 设备发送:01 03 04 8D 00 21 14 C9
14:38:52.229 设备接收:01 03 42 08 FC 1D 5C 00 00 00 00 00 00 00 00 00 00 00 00 00 00 00 00 00 00 09 15 1D 71 00 00 00 00 00 00 00 00 00 00 00 00 00 00 00 00 00 00 09 11 1D 7D 00 00 00 00 00 00 00 00 00 00 00 00 00 00 00 00 00 00 AE 41
14:38:52.244 设备发送:01 03 06 84 00 04 04 A8
14:38:53.058 设备接收:01 03 08 00 00 8B 6A 00 12 7C B9 D2 12
14:38:53.073 设备发送:01 03 04 04 00 01 C4 FB
14:38:53.859 设备接收:01 03 02 00 02 39 85
14:38:53.874 设备发送:02 03 04 84 00 04 05 23
14:38:54.702 设备接收:02 03 08 13 87 15 12 FF D1 15 12 78 F4
14:38:54.718 设备发送:02 03 04 8D 00 21 14 FA
14:38:55.504 设备接收:02 03 42 09 00 1E 57 00 00 00 00 00 00 00 00 00 00 00 00 00 00 00 00 00 00 09 17 1E 60 00 00 00 00 00 00 00 00 00 00 00 00 00 00 00 00 00 00 09 0C 1E 65 00 00 00 00 00 00 00 00 00 00 00 00 00 00 00 00 00 00 26 91
14:38:55.519 设备发送:02 03 06 84 00 04 04 9B
14:38:56.320 设备接收:02 03 08 00 00 8F 07 00 12 CA EF 87 45
14:38:56.336 设备发送:02 03 04 04 00 01 C4 C8
14:38:57.152 设备接收:02 03 02 00 02 7D 85
14:38:57.183 设备发送:03 03 04 84 00 04 04 F2
14:38:57.952 设备接收:03 03 08 13 87 16 C5 00 22 16 C5 88 A0
14:38:57.968 设备发送:03 03 04 8D 00 21 15 2B
14:38:58.787 设备接收:03 03 42 08 FC 20 CE 00 00 00 00 00 00 00 00 00 00 00 00 00 00 00 00 00 00 09 19 20 BF 00 00 00 00 00 00 00 00 00 00 00 00 00 00 00 00 00 00 09 0F 20 D2 00 00 00 00 00 00 00 00 00 00 00 00 00 00 00 00 00 00 5F 3E
14:38:58.802 设备发送:03 03 06 84 00 04 05 4A
14:38:59.617 设备接收:03 03 08 00 00 9C 1A 00 13 41 CE 9A 30
14:38:59.633 设备发送:03 03 04 04 00 01 C5 19
14:39:00.432 设备接收:03 03 02 00 02 40 45
14:39:00.448 设备发送:04 03 04 84 00 04 05 45
14:39:01.247 设备接收:04 03 08 13 88 13 26 00 1F 13 27 BA 82
14:39:01.263 设备发送:04 03 04 8D 00 21 14 9C
14:39:02.078 设备接收:04 03 42 09 06 1B B3 00 00 00 00 00 00 00 00 00 00 00 00 00 00 00 00 00 00 08 F3 1B AA 00 00 00 00 00 00 00 00 00 00 00 00 00 00 00 00 00 00 09 11 1B AE 00 00 00 00 00 00 00 00 00 00 00 00 00 00 00 00 00 00 82 96
14:39:02.093 设备发送:04 03 06 84 00 04 04 FD
14:39:02.879 设备接收:04 03 08 00 00 81 BC 00 10 9F 0A 23 E3
14:39:02.910 设备发送:04 03 04 04 00 01 C4 AE
14:39:03.710 设备接收:04 03 02 00 02 F5 85
14:39:03.742 设备发送:05 03 04 84 00 04 04 94
14:39:04.538 设备接收:05 03 08 13 89 0F F4 FF DE 0F F4 3C 45
14:39:04.554 设备发送:05 03 04 8D 00 21 15 4D
14:39:05.337 设备接收:05 03 42 08 FE 17 11 00 00 00 00 00 00 00 00 00 00 00 00 00 00 00 00 00 00 09 08 16 FF 00 00 00 00 00 00 00 00 00 00 00 00 00 00 00 00 00 00 09 0A 17 15 00 00 00 00 00 00 00 00 00 00 00 00 00 00 00 00 00 00 5A 58
14:39:05.353 设备发送:05 03 06 84 00 04 05 2C
14:39:06.153 设备接收:05 03 08 00 00 6C D5 00 0E 08 97 A3 F4
14:39:06.201 设备发送:05 03 04 04 00 01 C5 7F
14:39:07.003 设备接收:05 03 02 00 02 C8 45
14:39:07.019 设备发送:06 03 04 84 00 04 04 A7
14:39:07.804 设备接收:06 03 08 13 89 0F 92 FF DE 0F 92 BB 23
14:39:07.820 设备发送:06 03 04 8D 00 21 15 7E
14:39:08.636 设备接收:06 03 42 08 FF 16 87 00 00 00 00 00 00 00 00 00 00 00 00 00 00 00 00 00 00 09 06 16 84 00 00 00 00 00 00 00 00 00 00 00 00 00 00 00 00 00 00 09 09 16 9D 00 00 00 00 00 00 00 00 00 00 00 00 00 00 00 00 00 00 DB 67
14:39:08.652 设备发送:06 03 06 84 00 04 05 1F
14:39:09.454 设备接收:06 03 08 00 00 69 6C 00 0D FD 97 86 6E
14:39:09.469 设备发送:06 03 04 04 00 01 C5 4C
14:39:10.287 设备接收:06 03 02 00 02 8C 45
14:39:10.303 设备发送:07 03 04 84 00 04 05 76
14:39:11.101 设备接收:07 03 08 13 89 08 73 FF D6 08 79 C1 C3
14:39:11.116 设备发送:07 03 04 8D 00 21 14 AF
14:39:11.888 设备接收:07 03 42 08 FE 0C 3C 00 00 00 00 00 00 00 00 00 00 00 00 00 00 00 00 00 00 08 FC 0C 41 00 00 00 00 00 00 00 00 00 00 00 00 00 00 00 00 00 00 09 00 0C 42 00 00 00 00 00 00 00 00 00 00 00 00 00 00 00 00 00 00 B5 DA
14:39:11.936 设备发送:07 03 06 84 00 04 04 CE
14:39:12.739 设备接收:07 03 08 00 00 3A 0E 00 06 EE 1F 0B AD
14:39:12.754 设备发送:07 03 04 04 00 01 C4 9D
14:39:13.542 设备接收:07 03 02 00 02 B1 85
14:39:13.558 设备发送:08 03 04 84 00 04 05 89
14:39:14.360 设备接收:08 03 08 13 89 11 07 00 17 11 07 A9 8D
14:39:14.392 设备发送:08 03 04 8D 00 21 14 50
14:39:15.194 设备接收:08 03 42 08 F3 18 D9 00 00 00 00 00 00 00 00 00 00 00 00 00 00 00 00 00 00 08 E8 18 D6 00 00 00 00 00 00 00 00 00 00 00 00 00 00 00 00 00 00 08 F7 18 EB 00 00 00 00 00 00 00 00 00 00 00 00 00 00 00 00 00 00 15 CA
14:39:15.209 设备发送:08 03 06 84 00 04 04 31
14:39:16.023 设备接收:08 03 08 00 00 7A C1 00 0F 1A BF F7 D3
14:39:16.039 设备发送:08 03 04 04 00 01 C4 62
14:39:16.838 设备接收:08 03 02 00 02 E5 84
14:39:16.854 设备发送:09 03 04 84 00 04 04 58
14:39:17.672 设备接收:09 03 08 13 8A 0F CE FF A1 0F CF 98 1B
14:39:17.688 设备发送:09 03 04 8D 00 21 15 81
14:39:18.471 设备接收:09 03 42 08 F9 16 F6 00 00 00 00 00 00 00 00 00 00 00 00 00 00 00 00 00 00 08 EE 17 06 00 00 00 00 00 00 00 00 00 00 00 00 00 00 00 00 00 00 09 00 17 0E 00 00 00 00 00 00 00 00 00 00 00 00 00 00 00 00 00 00 FE F8
14:39:18.518 设备发送:09 03 06 84 00 04 05 E0
14:39:19.304 设备接收:09 03 08 00 00 6E C7 00 0D BE BF A3 3B
14:39:19.335 设备发送:09 03 04 04 00 01 C5 B3
14:39:20.135 设备接收:09 03 02 00 02 D8 44
14:39:20.150 设备发送:0A 03 04 84 00 04 04 6B
14:39:20.952 设备发送:0A 03 04 84 00 04 04 6B
14:39:21.782 设备发送:0A 03 04 84 00 04 04 6B
14:39:22.616 设备发送:0A 03 04 8D 00 21 15 B2
14:39:23.450 设备发送:0A 03 04 8D 00 21 15 B2
14:39:24.232 设备发送:0A 03 04 8D 00 21 15 B2
14:39:25.063 设备发送:0A 03 06 84 00 04 05 D3
14:39:25.898 设备发送:0A 03 06 84 00 04 05 D3
14:39:26.710 设备发送:0A 03 06 84 00 04 05 D3
14:39:27.523 设备发送:0A 03 04 04 00 01 C5 80
14:39:28.341 设备发送:0A 03 04 04 00 01 C5 80
14:39:29.157 设备发送:0A 03 04 04 00 01 C5 80
14:39:29.974 设备发送:01 03 04 84 00 04 05 10
14:39:30.803 设备接收:01 03 08 13 89 14 83 00 23 14 83 35 A7
14:39:30.819 设备发送:01 03 04 8D 00 21 14 C9
14:39:31.603 设备接收:01 03 42 08 FE 1D AF 00 00 00 00 00 00 00 00 00 00 00 00 00 00 00 00 00 00 09 13 1D BD 00 00 00 00 00 00 00 00 00 00 00 00 00 00 00 00 00 00 09 0E 1D C8 00 00 00 00 00 00 00 00 00 00 00 00 00 00 00 00 00 00 E7 3F
14:39:31.619 设备发送:01 03 06 84 00 04 04 A8
14:39:32.447 设备接收:01 03 08 00 00 8B A3 00 12 7C BE 4F C0
14:39:32.479 设备发送:01 03 04 04 00 01 C4 FB
14:39:33.244 设备接收:01 03 02 00 02 39 85
14:39:33.260 设备发送:02 03 04 84 00 04 05 23
14:39:34.072 设备接收:02 03 08 13 89 15 12 FF D2 15 12 67 34
14:39:34.091 设备发送:02 03 04 8D 00 21 14 FA
14:39:34.899 设备接收:02 03 42 09 01 1E 57 00 00 00 00 00 00 00 00 00 00 00 00 00 00 00 00 00 00 09 16 1E 61 00 00 00 00 00 00 00 00 00 00 00 00 00 00 00 00 00 00 09 0C 1E 6D 00 00 00 00 00 00 00 00 00 00 00 00 00 00 00 00 00 00 30 9C
14:39:34.914 设备发送:02 03 06 84 00 04 04 9B
14:39:35.713 设备接收:02 03 08 00 00 8F 43 00 12 CA F5 F6 81
14:39:35.729 设备发送:02 03 04 04 00 01 C4 C8
14:39:36.526 设备接收:02 03 02 00 02 7D 85
14:39:36.558 设备发送:03 03 04 84 00 04 04 F2
14:39:37.342 设备接收:03 03 08 13 89 16 D5 00 25 16 D5 16 AE
14:39:37.374 设备发送:03 03 04 8D 00 21 15 2B
14:39:38.193 设备接收:03 03 42 08 FD 20 E2 00 00 00 00 00 00 00 00 00 00 00 00 00 00 00 00 00 00 09 19 20 D6 00 00 00 00 00 00 00 00 00 00 00 00 00 00 00 00 00 00 09 11 20 EA 00 00 00 00 00 00 00 00 00 00 00 00 00 00 00 00 00 00 5F 4B
14:39:38.209 设备发送:03 03 06 84 00 04 05 4A
14:39:39.011 设备接收:03 03 08 00 00 9C 5A 00 13 41 D4 1A 34
14:39:39.027 设备发送:03 03 04 04 00 01 C5 19
14:39:39.824 设备接收:03 03 02 00 02 40 45
14:39:39.840 设备发送:04 03 04 84 00 04 05 45
14:39:40.637 设备接收:04 03 08 13 89 13 1C FF D5 13 1C 23 BE
14:39:40.684 设备发送:04 03 04 8D 00 21 14 9C
14:39:41.488 设备接收:04 03 42 09 07 1B 9D 00 00 00 00 00 00 00 00 00 00 00 00 00 00 00 00 00 00 08 F3 1B 99 00 00 00 00 00 00 00 00 00 00 00 00 00 00 00 00 00 00 09 12 1B 9C 00 00 00 00 00 00 00 00 00 00 00 00 00 00 00 00 00 00 AC F5
14:39:41.503 设备发送:04 03 06 84 00 04 04 FD
14:39:42.288 设备接收:04 03 08 00 00 81 F0 00 10 9F 0F F2 2E
14:39:42.319 设备发送:04 03 04 04 00 01 C4 AE
14:39:43.104 设备接收:04 03 02 00 02 F5 85
14:39:43.135 设备发送:05 03 04 84 00 04 04 94
14:39:43.950 设备接收:05 03 08 13 88 0F FE FF DC 0F FE 95 43
14:39:43.965 设备发送:05 03 04 8D 00 21 15 4D
14:39:44.765 设备接收:05 03 42 08 FD 17 22 00 00 00 00 00 00 00 00 00 00 00 00 00 00 00 00 00 00 09 08 17 16 00 00 00 00 00 00 00 00 00 00 00 00 00 00 00 00 00 00 09 07 17 20 00 00 00 00 00 00 00 00 00 00 00 00 00 00 00 00 00 00 41 84
14:39:44.781 设备发送:05 03 06 84 00 04 05 2C
14:39:45.569 设备接收:05 03 08 00 00 6D 03 00 0E 08 9B EB F2
14:39:45.632 设备发送:05 03 04 04 00 01 C5 7F
14:39:46.401 设备接收:05 03 02 00 02 C8 45
14:39:46.432 设备发送:06 03 04 84 00 04 04 A7
14:39:47.232 设备接收:06 03 08 13 88 0F 9E 00 18 0F 9E 6B CE
14:39:47.248 设备发送:06 03 04 8D 00 21 15 7E
14:39:48.049 设备接收:06 03 42 08 FF 16 A5 00 00 00 00 00 00 00 00 00 00 00 00 00 00 00 00 00 00 09 06 16 9F 00 00 00 00 00 00 00 00 00 00 00 00 00 00 00 00 00 00 09 09 16 B5 00 00 00 00 00 00 00 00 00 00 00 00 00 00 00 00 00 00 45 36
14:39:48.065 设备发送:06 03 06 84 00 04 05 1F
14:39:48.879 设备接收:06 03 08 00 00 69 98 00 0D FD 9C 76 7C
14:39:48.895 设备发送:06 03 04 04 00 01 C5 4C
14:39:49.695 设备接收:06 03 02 00 02 8C 45
14:39:49.711 设备发送:07 03 04 84 00 04 05 76
14:39:50.511 设备接收:07 03 08 13 86 08 6E FF E8 08 74 72 C8
14:39:50.527 设备发送:07 03 04 8D 00 21 14 AF
14:39:51.325 设备接收:07 03 42 08 FF 0C 37 00 00 00 00 00 00 00 00 00 00 00 00 00 00 00 00 00 00 08 FD 0C 3C 00 00 00 00 00 00 00 00 00 00 00 00 00 00 00 00 00 00 09 01 0C 3D 00 00 00 00 00 00 00 00 00 00 00 00 00 00 00 00 00 00 AC D6
14:39:51.357 设备发送:07 03 06 84 00 04 04 CE
14:39:52.143 设备接收:07 03 08 00 00 3A 25 00 06 EE 21 AE 7B
14:39:52.189 设备发送:07 03 04 04 00 01 C4 9D
14:39:52.987 设备接收:07 03 02 00 02 B1 85
14:39:53.003 设备发送:08 03 04 84 00 04 05 89
14:39:53.786 设备接收:08 03 08 13 87 10 F8 FF 96 10 F9 B3 A4
14:39:53.801 设备发送:08 03 04 8D 00 21 14 50
14:39:54.631 设备接收:08 03 42 08 EF 18 D6 00 00 00 00 00 00 00 00 00 00 00 00 00 00 00 00 00 00 08 E2 18 D1 00 00 00 00 00 00 00 00 00 00 00 00 00 00 00 00 00 00 08 F1 18 E9 00 00 00 00 00 00 00 00 00 00 00 00 00 00 00 00 00 00 0F 2B
14:39:54.647 设备发送:08 03 06 84 00 04 04 31
14:39:55.428 设备接收:08 03 08 00 00 7A F1 00 0F 1A C4 F7 F4
14:39:55.444 设备发送:08 03 04 04 00 01 C4 62
14:39:56.260 设备接收:08 03 02 00 02 E5 84
14:39:56.292 设备发送:09 03 04 84 00 04 04 58
14:39:57.077 设备接收:09 03 08 13 87 0F E6 00 18 0F E6 04 F2
14:39:57.093 设备发送:09 03 04 8D 00 21 15 81
14:39:57.906 设备接收:09 03 42 08 FA 17 2D 00 00 00 00 00 00 00 00 00 00 00 00 00 00 00 00 00 00 08 EC 17 34 00 00 00 00 00 00 00 00 00 00 00 00 00 00 00 00 00 00 08 FE 17 35 00 00 00 00 00 00 00 00 00 00 00 00 00 00 00 00 00 00 71 BB
14:39:57.922 设备发送:09 03 06 84 00 04 05 E0
14:39:58.706 设备接收:09 03 08 00 00 6E F2 00 0D BE C4 6F 1C
14:39:58.738 设备发送:09 03 04 04 00 01 C5 B3
14:39:59.538 设备接收:09 03 02 00 02 D8 44
14:39:59.553 设备发送:0A 03 04 84 00 04 04 6B
14:40:00.367 设备发送:0A 03 04 84 00 04 04 6B
14:40:01.193 设备发送:0A 03 04 84 00 04 04 6B
14:40:02.002 设备发送:0A 03 04 8D 00 21 15 B2
14:40:02.843 设备发送:0A 03 04 8D 00 21 15 B2
14:40:03.656 设备发送:0A 03 04 8D 00 21 15 B2
14:40:04.466 设备发送:0A 03 06 84 00 04 05 D3
14:40:05.291 设备发送:0A 03 06 84 00 04 05 D3
14:40:06.119 设备发送:0A 03 06 84 00 04 05 D3
14:40:06.935 设备发送:0A 03 04 04 00 01 C5 80
14:40:07.751 设备发送:0A 03 04 04 00 01 C5 80
14:40:08.568 设备发送:0A 03 04 04 00 01 C5 80
14:40:09.384 设备发送:01 03 04 84 00 04 05 10
14:40:10.217 设备接收:01 03 08 13 85 14 EF FF D2 14 EF 08 64
14:40:10.233 设备发送:01 03 04 8D 00 21 14 C9
14:40:11.003 设备接收:01 03 42 08 FC 1E 22 00 00 00 00 00 00 00 00 00 00 00 00 00 00 00 00 00 00 09 13 1E 37 00 00 00 00 00 00 00 00 00 00 00 00 00 00 00 00 00 00 09 0F 1E 46 00 00 00 00 00 00 00 00 00 00 00 00 00 00 00 00 00 00 75 EE
14:40:11.065 设备发送:01 03 06 84 00 04 04 A8
14:40:11.836 设备接收:01 03 08 00 00 8B DC 00 12 7C C4 DB E9
14:40:11.866 设备发送:01 03 04 04 00 01 C4 FB
14:40:12.682 设备接收:01 03 02 00 02 39 85
14:40:12.698 设备发送:02 03 04 84 00 04 05 23
14:40:13.488 设备接收:02 03 08 13 85 15 6A FF D0 15 6A AA DC
14:40:13.503 设备发送:02 03 04 8D 00 21 14 FA
14:40:14.304 设备接收:02 03 42 09 01 1E CB 00 00 00 00 00 00 00 00 00 00 00 00 00 00 00 00 00 00 09 19 1E DC 00 00 00 00 00 00 00 00 00 00 00 00 00 00 00 00 00 00 09 0E 1E E7 00 00 00 00 00 00 00 00 00 00 00 00 00 00 00 00 00 00 A6 47
14:40:14.320 设备发送:02 03 06 84 00 04 04 9B
14:40:15.138 设备接收:02 03 08 00 00 8F 7F 00 12 CA FB 27 40
14:40:15.154 设备发送:02 03 04 04 00 01 C4 C8
14:40:15.937 设备接收:02 03 02 00 02 7D 85
14:40:15.953 设备发送:03 03 04 84 00 04 04 F2
14:40:16.771 设备接收:03 03 08 13 87 17 29 00 27 17 29 08 BA
14:40:16.787 设备发送:03 03 04 8D 00 21 15 2B
14:40:17.588 设备接收:03 03 42 08 FF 21 50 00 00 00 00 00 00 00 00 00 00 00 00 00 00 00 00 00 00 09 1E 21 40 00 00 00 00 00 00 00 00 00 00 00 00 00 00 00 00 00 00 09 14 21 57 00 00 00 00 00 00 00 00 00 00 00 00 00 00 00 00 00 00 77 5E
14:40:17.607 设备发送:03 03 06 84 00 04 05 4A
14:40:18.418 设备接收:03 03 08 00 00 9C 9B 00 13 41 DB 67 E1
14:40:18.433 设备发送:03 03 04 04 00 01 C5 19
14:40:19.222 设备接收:03 03 02 00 02 40 45
14:40:19.238 设备发送:04 03 04 84 00 04 05 45
14:40:20.067 设备发送:04 03 04 84 00 04 05 45
14:40:20.884 设备接收:04 03 08 13 88 13 3C FF D7 13 3D D3 61
14:40:20.899 设备发送:04 03 04 8D 00 21 14 9C
14:40:21.702 设备接收:04 03 42 09 05 1B D6 00 00 00 00 00 00 00 00 00 00 00 00 00 00 00 00 00 00 08 F4 1B CB 00 00 00 00 00 00 00 00 00 00 00 00 00 00 00 00 00 00 09 11 1B D6 00 00 00 00 00 00 00 00 00 00 00 00 00 00 00 00 00 00 7A 4C
14:40:21.718 设备发送:04 03 06 84 00 04 04 FD
14:40:22.504 设备接收:04 03 08 00 00 82 28 00 10 9F 15 53 C5
14:40:22.519 设备发送:04 03 04 04 00 01 C4 AE
14:40:23.333 设备接收:04 03 02 00 02 F5 85
14:40:23.348 设备发送:05 03 04 84 00 04 04 94
14:40:24.148 设备接收:05 03 08 13 88 10 17 FF DD 10 18 12 81
14:40:24.163 设备发送:05 03 04 8D 00 21 15 4D
14:40:24.963 设备接收:05 03 42 08 FC 17 48 00 00 00 00 00 00 00 00 00 00 00 00 00 00 00 00 00 00 09 09 17 38 00 00 00 00 00 00 00 00 00 00 00 00 00 00 00 00 00 00 09 09 17 43 00 00 00 00 00 00 00 00 00 00 00 00 00 00 00 00 00 00 9B EB
14:40:24.979 设备发送:05 03 06 84 00 04 05 2C
14:40:25.794 设备接收:05 03 08 00 00 6D 30 00 0E 08 A0 AE 25
14:40:25.809 设备发送:05 03 04 04 00 01 C5 7F
14:40:26.595 设备接收:05 03 02 00 02 C8 45
14:40:26.611 设备发送:06 03 04 84 00 04 04 A7
14:40:27.425 设备接收:06 03 08 13 8A 0F BA FF A2 0F BB E8 23
14:40:27.440 设备发送:06 03 04 8D 00 21 15 7E
14:40:28.257 设备接收:06 03 42 09 05 16 C0 00 00 00 00 00 00 00 00 00 00 00 00 00 00 00 00 00 00 09 09 16 B6 00 00 00 00 00 00 00 00 00 00 00 00 00 00 00 00 00 00 09 0B 16 CC 00 00 00 00 00 00 00 00 00 00 00 00 00 00 00 00 00 00 88 C1
14:40:28.273 设备发送:06 03 06 84 00 04 05 1F
14:40:29.073 设备接收:06 03 08 00 00 69 C6 00 0D FD A0 DF A0
14:40:29.088 设备发送:06 03 04 04 00 01 C5 4C
14:40:29.889 设备接收:06 03 02 00 02 8C 45
14:40:29.904 设备发送:07 03 04 84 00 04 05 76
14:40:30.701 设备接收:07 03 08 13 8B 08 88 FF D6 08 8E 46 51
14:40:30.716 设备发送:07 03 04 8D 00 21 14 AF
14:40:31.531 设备接收:07 03 42 08 FE 0C 62 00 00 00 00 00 00 00 00 00 00 00 00 00 00 00 00 00 00 08 FD 0C 68 00 00 00 00 00 00 00 00 00 00 00 00 00 00 00 00 00 00 09 01 0C 6A 00 00 00 00 00 00 00 00 00 00 00 00 00 00 00 00 00 00 37 0E
14:40:31.546 设备发送:07 03 06 84 00 04 04 CE
14:40:32.359 设备接收:07 03 08 00 00 3A 3E 00 06 EE 24 0A 7A
14:40:32.375 设备发送:07 03 04 04 00 01 C4 9D
14:40:33.157 设备接收:07 03 02 00 02 B1 85
14:40:33.172 设备发送:08 03 04 84 00 04 05 89
14:40:33.993 设备接收:08 03 08 13 8B 11 08 00 18 11 08 AE 4B
14:40:34.009 设备发送:08 03 04 8D 00 21 14 50
14:40:34.813 设备接收:08 03 42 08 F1 18 DE 00 00 00 00 00 00 00 00 00 00 00 00 00 00 00 00 00 00 08 E7 18 D8 00 00 00 00 00 00 00 00 00 00 00 00 00 00 00 00 00 00 08 F6 18 F2 00 00 00 00 00 00 00 00 00 00 00 00 00 00 00 00 00 00 C1 49
14:40:34.829 设备发送:08 03 06 84 00 04 04 31
14:40:35.647 设备接收:08 03 08 00 00 7B 23 00 0F 1A C9 8F F2
14:40:35.663 设备发送:08 03 04 04 00 01 C4 62
14:40:36.462 设备接收:08 03 02 00 02 E5 84
14:40:36.479 设备发送:09 03 04 84 00 04 04 58
14:40:37.295 设备接收:09 03 08 13 8B 0F F4 FF 9F 0F F5 B1 01
14:40:37.310 设备发送:09 03 04 8D 00 21 15 81
14:40:38.112 设备接收:09 03 42 08 F8 17 35 00 00 00 00 00 00 00 00 00 00 00 00 00 00 00 00 00 00 08 ED 17 40 00 00 00 00 00 00 00 00 00 00 00 00 00 00 00 00 00 00 09 00 17 43 00 00 00 00 00 00 00 00 00 00 00 00 00 00 00 00 00 00 CD 87
14:40:38.128 设备发送:09 03 06 84 00 04 05 E0
14:40:38.931 设备接收:09 03 08 00 00 6F 21 00 0D BE C8 EB 1A
14:40:38.962 设备发送:09 03 04 04 00 01 C5 B3
14:40:39.745 设备接收:09 03 02 00 02 D8 44
14:40:39.762 设备发送:0A 03 04 84 00 04 04 6B
14:40:40.563 设备发送:0A 03 04 84 00 04 04 6B
14:40:41.394 设备发送:0A 03 04 84 00 04 04 6B
14:40:42.212 设备发送:0A 03 04 8D 00 21 15 B2
14:40:43.044 设备发送:0A 03 04 8D 00 21 15 B2
14:40:43.859 设备发送:0A 03 04 8D 00 21 15 B2
14:40:44.676 设备发送:0A 03 06 84 00 04 05 D3
14:40:45.496 设备发送:0A 03 06 84 00 04 05 D3
14:40:46.327 设备发送:0A 03 06 84 00 04 05 D3
14:40:47.146 设备发送:0A 03 04 04 00 01 C5 80
14:40:47.964 设备发送:0A 03 04 04 00 01 C5 80
14:40:48.778 设备发送:0A 03 04 04 00 01 C5 80
14:40:49.592 设备发送:01 03 04 84 00 04 05 10
14:40:50.404 设备接收:01 03 08 13 8B 14 C1 00 22 14 C1 BF 99
14:40:50.420 设备发送:01 03 04 8D 00 21 14 C9
14:40:51.206 设备接收:01 03 42 08 FD 1D E1 00 00 00 00 00 00 00 00 00 00 00 00 00 00 00 00 00 00 09 14 1D EF 00 00 00 00 00 00 00 00 00 00 00 00 00 00 00 00 00 00 09 11 1D F9 00 00 00 00 00 00 00 00 00 00 00 00 00 00 00 00 00 00 67 A4
14:40:51.222 设备发送:01 03 06 84 00 04 04 A8
14:40:52.037 设备接收:01 03 08 00 00 8C 19 00 12 7C CA 97 8B
14:40:52.052 设备发送:01 03 04 04 00 01 C4 FB
14:40:52.865 设备接收:01 03 02 00 02 39 85
14:40:52.895 设备发送:02 03 04 84 00 04 05 23
14:40:53.680 设备接收:02 03 08 13 8A 15 4F 00 23 15 4F 19 E7
14:40:53.696 设备发送:02 03 04 8D 00 21 14 FA
14:40:54.495 设备接收:02 03 42 08 FF 1E B1 00 00 00 00 00 00 00 00 00 00 00 00 00 00 00 00 00 00 09 17 1E B4 00 00 00 00 00 00 00 00 00 00 00 00 00 00 00 00 00 00 09 0D 1E C6 00 00 00 00 00 00 00 00 00 00 00 00 00 00 00 00 00 00 3B 36
14:40:54.511 设备发送:02 03 06 84 00 04 04 9B
14:40:55.311 设备接收:02 03 08 00 00 8F BB 00 12 CB 01 57 42
14:40:55.327 设备发送:02 03 04 04 00 01 C4 C8
14:40:56.143 设备接收:02 03 02 00 02 7D 85
14:40:56.158 设备发送:03 03 04 84 00 04 04 F2
14:40:56.973 设备接收:03 03 08 13 8A 17 07 FF CE 17 07 5D 80
14:40:56.988 设备发送:03 03 04 8D 00 21 15 2B
14:40:57.788 设备接收:03 03 42 08 FC 21 26 00 00 00 00 00 00 00 00 00 00 00 00 00 00 00 00 00 00 09 1B 21 20 00 00 00 00 00 00 00 00 00 00 00 00 00 00 00 00 00 00 09 11 21 32 00 00 00 00 00 00 00 00 00 00 00 00 00 00 00 00 00 00 61 45
14:40:57.804 设备发送:03 03 06 84 00 04 05 4A
14:40:58.607 设备接收:03 03 08 00 00 9C DC 00 13 41 E1 53 FD
14:40:58.639 设备发送:03 03 04 04 00 01 C5 19
14:40:59.438 设备接收:03 03 02 00 02 40 45
14:40:59.454 设备发送:04 03 04 84 00 04 05 45
14:41:00.257 设备接收:04 03 08 13 89 13 56 FF D3 13 56 DB 86
14:41:00.273 设备发送:04 03 04 8D 00 21 14 9C
14:41:01.058 设备接收:04 03 42 09 05 1B FC 00 00 00 00 00 00 00 00 00 00 00 00 00 00 00 00 00 00 08 F3 1B F4 00 00 00 00 00 00 00 00 00 00 00 00 00 00 00 00 00 00 09 11 1B F3 00 00 00 00 00 00 00 00 00 00 00 00 00 00 00 00 00 00 41 E3
14:41:01.074 设备发送:04 03 06 84 00 04 04 FD
14:41:01.905 设备接收:04 03 08 00 00 82 5F 00 10 9F 1A E7 CA
14:41:01.921 设备发送:04 03 04 04 00 01 C4 AE
14:41:02.705 设备接收:04 03 02 00 02 F5 85
14:41:02.720 设备发送:05 03 04 84 00 04 04 94
14:41:03.540 设备接收:05 03 08 13 88 10 2E FF 9F 10 2F 6F 46
14:41:03.556 设备发送:05 03 04 8D 00 21 15 4D
14:41:04.357 设备接收:05 03 42 08 FC 17 73 00 00 00 00 00 00 00 00 00 00 00 00 00 00 00 00 00 00 09 06 17 62 00 00 00 00 00 00 00 00 00 00 00 00 00 00 00 00 00 00 09 07 17 6A 00 00 00 00 00 00 00 00 00 00 00 00 00 00 00 00 00 00 79 D9
14:41:04.373 设备发送:05 03 06 84 00 04 05 2C
14:41:05.184 设备接收:05 03 08 00 00 6D 5D 00 0E 08 A4 02 2F
14:41:05.199 设备发送:05 03 04 04 00 01 C5 7F
14:41:06.001 设备接收:05 03 02 00 02 C8 45
14:41:06.017 设备发送:06 03 04 84 00 04 04 A7
14:41:06.816 设备接收:06 03 08 13 87 0F DF FF DD 0F DF 48 D8
14:41:06.832 设备发送:06 03 04 8D 00 21 15 7E
14:41:07.651 设备接收:06 03 42 08 FF 16 F8 00 00 00 00 00 00 00 00 00 00 00 00 00 00 00 00 00 00 09 04 16 F2 00 00 00 00 00 00 00 00 00 00 00 00 00 00 00 00 00 00 09 09 17 08 00 00 00 00 00 00 00 00 00 00 00 00 00 00 00 00 00 00 FE 44
14:41:07.667 设备发送:06 03 06 84 00 04 05 1F
14:41:08.454 设备接收:06 03 08 00 00 69 F1 00 0D FD A5 EA 67
14:41:08.486 设备发送:06 03 04 04 00 01 C5 4C
14:41:09.307 设备接收:06 03 02 00 02 8C 45
14:41:09.323 设备发送:07 03 04 84 00 04 05 76
14:41:10.109 设备接收:07 03 08 13 86 08 77 FF C4 08 7E 2E C4
14:41:10.125 设备发送:07 03 04 8D 00 21 14 AF
14:41:10.926 设备接收:07 03 42 08 FC 0C 53 00 00 00 00 00 00 00 00 00 00 00 00 00 00 00 00 00 00 08 F5 0C 5A 00 00 00 00 00 00 00 00 00 00 00 00 00 00 00 00 00 00 08 FB 0C 58 00 00 00 00 00 00 00 00 00 00 00 00 00 00 00 00 00 00 2B C3
14:41:10.942 设备发送:07 03 06 84 00 04 04 CE
14:41:11.743 设备接收:07 03 08 00 00 3A 56 00 06 EE 26 EA 72
14:41:11.777 设备发送:07 03 04 04 00 01 C4 9D
14:41:12.562 设备接收:07 03 02 00 02 B1 85
14:41:12.578 设备发送:08 03 04 84 00 04 05 89
14:41:13.396 设备接收:08 03 08 13 84 10 FD FF D8 10 FD 2D 70
14:41:13.412 设备发送:08 03 04 8D 00 21 14 50
14:41:14.200 设备接收:08 03 42 08 F4 18 CD 00 00 00 00 00 00 00 00 00 00 00 00 00 00 00 00 00 00 08 E6 18 C2 00 00 00 00 00 00 00 00 00 00 00 00 00 00 00 00 00 00 08 F8 18 E0 00 00 00 00 00 00 00 00 00 00 00 00 00 00 00 00 00 00 22 8B
14:41:14.216 设备发送:08 03 06 84 00 04 04 31
14:41:15.035 设备接收:08 03 08 00 00 7B 51 00 0F 1A CD B6 3A
14:41:15.050 设备发送:08 03 04 04 00 01 C4 62
14:41:15.837 设备接收:08 03 02 00 02 E5 84
14:41:15.852 设备发送:09 03 04 84 00 04 04 58
14:41:16.672 设备接收:09 03 08 13 85 10 04 FF DA 10 04 C4 DA
14:41:16.687 设备发送:09 03 04 8D 00 21 15 81
14:41:17.489 设备接收:09 03 42 08 FD 17 41 00 00 00 00 00 00 00 00 00 00 00 00 00 00 00 00 00 00 08 EE 17 4A 00 00 00 00 00 00 00 00 00 00 00 00 00 00 00 00 00 00 09 03 17 4A 00 00 00 00 00 00 00 00 00 00 00 00 00 00 00 00 00 00 D9 74
14:41:17.505 设备发送:09 03 06 84 00 04 05 E0
14:41:18.291 设备接收:09 03 08 00 00 6F 4E 00 0D BE CD FF 10
14:41:18.307 设备发送:09 03 04 04 00 01 C5 B3
14:41:19.121 设备接收:09 03 02 00 02 D8 44
14:41:19.152 设备发送:0A 03 04 84 00 04 04 6B
14:41:19.983 设备发送:0A 03 04 84 00 04 04 6B
14:41:20.800 设备发送:0A 03 04 84 00 04 04 6B
14:41:21.619 设备发送:0A 03 04 8D 00 21 15 B2
14:41:22.431 设备发送:0A 03 04 8D 00 21 15 B2
14:41:23.259 设备发送:0A 03 04 8D 00 21 15 B2
14:41:24.072 设备发送:0A 03 06 84 00 04 05 D3
14:41:24.889 设备发送:0A 03 06 84 00 04 05 D3
14:41:25.722 设备发送:0A 03 06 84 00 04 05 D3
14:41:26.539 设备发送:0A 03 04 04 00 01 C5 80
14:41:27.356 设备发送:0A 03 04 04 00 01 C5 80
14:41:28.172 设备发送:0A 03 04 04 00 01 C5 80
14:41:28.984 设备发送:01 03 04 84 00 04 05 10
14:41:29.798 设备接收:01 03 08 13 85 15 10 FF D2 15 11 9D B1
14:41:29.814 设备发送:01 03 04 8D 00 21 14 C9
14:41:30.613 设备接收:01 03 42 09 00 1E 24 00 00 00 00 00 00 00 00 00 00 00 00 00 00 00 00 00 00 09 13 1E 2B 00 00 00 00 00 00 00 00 00 00 00 00 00 00 00 00 00 00 09 11 1E 31 00 00 00 00 00 00 00 00 00 00 00 00 00 00 00 00 00 00 F4 27
14:41:30.629 设备发送:01 03 06 84 00 04 04 A8
14:41:31.418 设备接收:01 03 08 00 00 8C 53 00 12 7C D0 8F 8E
14:41:31.434 设备发送:01 03 04 04 00 01 C4 FB
14:41:32.246 设备接收:01 03 02 00 02 39 85
14:41:32.262 设备发送:02 03 04 84 00 04 05 23
14:41:33.076 设备接收:02 03 08 13 85 15 66 00 25 15 66 9A FE
14:41:33.092 设备发送:02 03 04 8D 00 21 14 FA
14:41:33.878 设备接收:02 03 42 08 FE 1E CB 00 00 00 00 00 00 00 00 00 00 00 00 00 00 00 00 00 00 09 15 1E DA 00 00 00 00 00 00 00 00 00 00 00 00 00 00 00 00 00 00 09 0D 1E D5 00 00 00 00 00 00 00 00 00 00 00 00 00 00 00 00 00 00 A9 7B
14:41:33.909 设备发送:02 03 06 84 00 04 04 9B
14:41:34.708 设备接收:02 03 08 00 00 8F F8 00 12 CB 07 92 8F
14:41:34.724 设备发送:02 03 04 04 00 01 C4 C8
14:41:35.525 设备接收:02 03 02 00 02 7D 85
14:41:35.556 设备发送:03 03 04 84 00 04 04 F2
14:41:36.343 设备接收:03 03 08 13 86 17 25 FF CF 17 25 B8 5E
14:41:36.390 设备发送:03 03 04 8D 00 21 15 2B
14:41:37.173 设备接收:03 03 42 08 FA 21 66 00 00 00 00 00 00 00 00 00 00 00 00 00 00 00 00 00 00 09 16 21 52 00 00 00 00 00 00 00 00 00 00 00 00 00 00 00 00 00 00 09 0E 21 65 00 00 00 00 00 00 00 00 00 00 00 00 00 00 00 00 00 00 CC A0
14:41:37.189 设备发送:03 03 06 84 00 04 05 4A
14:41:38.007 设备接收:03 03 08 00 00 9D 1E 00 13 41 E8 EB FB
14:41:38.023 设备发送:03 03 04 04 00 01 C5 19
14:41:38.806 设备接收:03 03 02 00 02 40 45
14:41:38.853 设备发送:04 03 04 84 00 04 05 45
14:41:39.635 设备接收:04 03 08 13 86 13 69 FF D5 13 69 90 92
14:41:39.656 设备发送:04 03 04 8D 00 21 14 9C
14:41:40.465 设备接收:04 03 42 09 00 1C 19 00 00 00 00 00 00 00 00 00 00 00 00 00 00 00 00 00 00 08 F1 1C 1B 00 00 00 00 00 00 00 00 00 00 00 00 00 00 00 00 00 00 09 11 1C 20 00 00 00 00 00 00 00 00 00 00 00 00 00 00 00 00 00 00 24 0F
14:41:40.485 设备发送:04 03 06 84 00 04 04 FD
14:41:41.264 设备接收:04 03 08 00 00 82 93 00 10 9F 1F 37 D9
14:41:41.283 设备发送:04 03 04 04 00 01 C4 AE
14:41:42.098 设备接收:04 03 02 00 02 F5 85
14:41:42.114 设备发送:05 03 04 84 00 04 04 94
14:41:42.899 设备接收:05 03 08 13 87 10 28 FF 9E 10 29 C9 84
14:41:42.923 设备发送:05 03 04 8D 00 21 15 4D
14:41:43.749 设备接收:05 03 42 08 FB 17 6D 00 00 00 00 00 00 00 00 00 00 00 00 00 00 00 00 00 00 09 05 17 57 00 00 00 00 00 00 00 00 00 00 00 00 00 00 00 00 00 00 09 08 17 5F 00 00 00 00 00 00 00 00 00 00 00 00 00 00 00 00 00 00 EC 22
14:41:43.767 设备发送:05 03 06 84 00 04 05 2C
14:41:44.567 设备接收:05 03 08 00 00 6D 8B 00 0E 08 A9 8A 38
14:41:44.583 设备发送:05 03 04 04 00 01 C5 7F
14:41:45.384 设备接收:05 03 02 00 02 C8 45
14:41:45.402 设备发送:06 03 04 84 00 04 04 A7
14:41:46.184 设备接收:06 03 08 13 87 0F D5 FF DD 0F D5 50 DE
14:41:46.199 设备发送:06 03 04 8D 00 21 15 7E
14:41:47.013 设备接收:06 03 42 09 01 16 E4 00 00 00 00 00 00 00 00 00 00 00 00 00 00 00 00 00 00 09 07 16 D9 00 00 00 00 00 00 00 00 00 00 00 00 00 00 00 00 00 00 09 0D 16 F4 00 00 00 00 00 00 00 00 00 00 00 00 00 00 00 00 00 00 67 FB
14:41:47.045 设备发送:06 03 06 84 00 04 05 1F
14:41:47.860 设备接收:06 03 08 00 00 6A 1E 00 0D FD A9 3F 86
14:41:47.876 设备发送:06 03 04 04 00 01 C5 4C
14:41:48.642 设备接收:06 03 02 00 02 8C 45
14:41:48.689 设备发送:07 03 04 84 00 04 05 76
14:41:49.473 设备接收:07 03 08 13 88 08 92 FF D5 08 98 5D 5D
14:41:49.505 设备发送:07 03 04 8D 00 21 14 AF
14:41:50.305 设备接收:07 03 42 09 01 0C 68 00 00 00 00 00 00 00 00 00 00 00 00 00 00 00 00 00 00 08 FA 0C 6E 00 00 00 00 00 00 00 00 00 00 00 00 00 00 00 00 00 00 09 00 0C 70 00 00 00 00 00 00 00 00 00 00 00 00 00 00 00 00 00 00 A8 38
14:41:50.321 设备发送:07 03 06 84 00 04 04 CE
14:41:51.124 设备接收:07 03 08 00 00 3A 6D 00 06 EE 29 4F B3
14:41:51.140 设备发送:07 03 04 04 00 01 C4 9D
14:41:51.954 设备接收:07 03 02 00 02 B1 85
14:41:51.970 设备发送:08 03 04 84 00 04 05 89
14:41:52.756 设备接收:08 03 08 13 88 11 18 FF DA 11 19 0D 6C
14:41:52.772 设备发送:08 03 04 8D 00 21 14 50
14:41:53.593 设备接收:08 03 42 08 F2 18 F0 00 00 00 00 00 00 00 00 00 00 00 00 00 00 00 00 00 00 08 E7 18 E5 00 00 00 00 00 00 00 00 00 00 00 00 00 00 00 00 00 00 08 F8 19 04 00 00 00 00 00 00 00 00 00 00 00 00 00 00 00 00 00 00 81 01
14:41:53.608 设备发送:08 03 06 84 00 04 04 31
14:41:54.392 设备接收:08 03 08 00 00 7B 82 00 0F 1A D2 72 20
14:41:54.424 设备发送:08 03 04 04 00 01 C4 62
14:41:55.221 设备接收:08 03 02 00 02 E5 84
14:41:55.253 设备发送:09 03 04 84 00 04 04 58
14:41:56.053 设备接收:09 03 08 13 88 10 06 FF DB 10 06 B1 DB
14:41:56.069 设备发送:09 03 04 8D 00 21 15 81
14:41:56.854 设备接收:09 03 42 08 F7 17 4A 00 00 00 00 00 00 00 00 00 00 00 00 00 00 00 00 00 00 08 EA 17 52 00 00 00 00 00 00 00 00 00 00 00 00 00 00 00 00 00 00 08 FF 17 58 00 00 00 00 00 00 00 00 00 00 00 00 00 00 00 00 00 00 E4 AC
14:41:56.900 设备发送:09 03 06 84 00 04 05 E0
14:41:57.686 设备接收:09 03 08 00 00 6F 79 00 0D BE D1 0B 1D
14:41:57.702 设备发送:09 03 04 04 00 01 C5 B3
14:41:58.500 设备接收:09 03 02 00 02 D8 44
14:41:58.516 设备发送:0A 03 04 84 00 04 04 6B
14:41:59.343 设备发送:0A 03 04 84 00 04 04 6B
14:42:00.157 设备发送:0A 03 04 84 00 04 04 6B
14:42:00.968 设备发送:0A 03 04 8D 00 21 15 B2
14:42:01.797 设备发送:0A 03 04 8D 00 21 15 B2
14:42:02.612 设备发送:0A 03 04 8D 00 21 15 B2
14:42:03.441 设备发送:0A 03 06 84 00 04 05 D3
14:42:04.271 设备发送:0A 03 06 84 00 04 05 D3
14:42:05.087 设备发送:0A 03 06 84 00 04 05 D3
14:42:05.916 设备发送:0A 03 04 04 00 01 C5 80
14:42:06.731 设备发送:0A 03 04 04 00 01 C5 80
14:42:07.545 设备发送:0A 03 04 04 00 01 C5 80
14:42:08.359 设备发送:01 03 04 84 00 04 05 10
14:42:09.177 设备接收:01 03 08 13 89 14 BD FF D3 14 BD AD 95
14:42:09.193 设备发送:01 03 04 8D 00 21 14 C9
14:42:09.991 设备接收:01 03 42 08 FE 1E 3A 00 00 00 00 00 00 00 00 00 00 00 00 00 00 00 00 00 00 09 13 1E 44 00 00 00 00 00 00 00 00 00 00 00 00 00 00 00 00 00 00 09 11 1E 51 00 00 00 00 00 00 00 00 00 00 00 00 00 00 00 00 00 00 9E 36
14:42:10.007 设备发送:01 03 06 84 00 04 04 A8
14:42:10.809 设备接收:01 03 08 00 00 8C 8D 00 12 7C D6 A7 9F
14:42:10.825 设备发送:01 03 04 04 00 01 C4 FB
14:42:11.625 设备接收:01 03 02 00 02 39 85
14:42:11.641 设备发送:02 03 04 84 00 04 05 23
14:42:12.439 设备接收:02 03 08 13 89 15 5E 00 23 15 5E 16 E8
14:42:12.455 设备发送:02 03 04 8D 00 21 14 FA
14:42:13.266 设备接收:02 03 42 09 02 1E BE 00 00 00 00 00 00 00 00 00 00 00 00 00 00 00 00 00 00 09 18 1E BD 00 00 00 00 00 00 00 00 00 00 00 00 00 00 00 00 00 00 09 10 1E CA 00 00 00 00 00 00 00 00 00 00 00 00 00 00 00 00 00 00 20 E2
14:42:13.282 设备发送:02 03 06 84 00 04 04 9B
14:42:14.067 设备接收:02 03 08 00 00 90 31 00 12 CB 0D CC F7
14:42:14.114 设备发送:02 03 04 04 00 01 C4 C8
14:42:14.911 设备接收:02 03 02 00 02 7D 85
14:42:14.927 设备发送:03 03 04 84 00 04 04 F2
14:42:15.709 设备接收:03 03 08 13 88 17 2D FF CF 17 2D B7 99
14:42:15.757 设备发送:03 03 04 8D 00 21 15 2B
14:42:16.540 设备接收:03 03 42 08 FD 21 5B 00 00 00 00 00 00 00 00 00 00 00 00 00 00 00 00 00 00 09 1B 21 51 00 00 00 00 00 00 00 00 00 00 00 00 00 00 00 00 00 00 09 13 21 64 00 00 00 00 00 00 00 00 00 00 00 00 00 00 00 00 00 00 04 20
14:42:16.556 设备发送:03 03 06 84 00 04 05 4A
14:42:17.385 设备接收:03 03 08 00 00 9D 5C 00 13 41 EE 13 F6
14:42:17.401 设备发送:03 03 04 04 00 01 C5 19
14:42:18.183 设备接收:03 03 02 00 02 40 45
14:42:18.198 设备发送:04 03 04 84 00 04 05 45
14:42:19.016 设备接收:04 03 08 13 88 13 77 00 1F 13 78 07 76
14:42:19.032 设备发送:04 03 04 8D 00 21 14 9C
14:42:19.819 设备接收:04 03 42 09 08 1C 1C 00 00 00 00 00 00 00 00 00 00 00 00 00 00 00 00 00 00 08 F6 1C 18 00 00 00 00 00 00 00 00 00 00 00 00 00 00 00 00 00 00 09 16 1C 1B 00 00 00 00 00 00 00 00 00 00 00 00 00 00 00 00 00 00 3E 5B
14:42:19.834 设备发送:04 03 06 84 00 04 04 FD
14:42:20.646 设备接收:04 03 08 00 00 82 CA 00 10 9F 25 AB C7
14:42:20.678 设备发送:04 03 04 04 00 01 C4 AE
14:42:21.459 设备接收:04 03 02 00 02 F5 85
14:42:21.475 设备发送:05 03 04 84 00 04 04 94
14:42:22.290 设备接收:05 03 08 13 89 10 34 FF DC 10 35 56 5B
14:42:22.322 设备发送:05 03 04 8D 00 21 15 4D
14:42:23.108 设备接收:05 03 42 08 FE 17 65 00 00 00 00 00 00 00 00 00 00 00 00 00 00 00 00 00 00 09 09 17 5E 00 00 00 00 00 00 00 00 00 00 00 00 00 00 00 00 00 00 09 0D 17 5E 00 00 00 00 00 00 00 00 00 00 00 00 00 00 00 00 00 00 50 85
14:42:23.139 设备发送:05 03 06 84 00 04 05 2C
14:42:23.923 设备接收:05 03 08 00 00 6D B7 00 0E 08 AD DB FE
14:42:23.954 设备发送:05 03 04 04 00 01 C5 7F
14:42:24.737 设备接收:05 03 02 00 02 C8 45
14:42:24.752 设备发送:06 03 04 84 00 04 04 A7
14:42:25.551 设备接收:06 03 08 13 8A 0F D7 FF DD 0F D7 74 1F
14:42:25.583 设备发送:06 03 04 8D 00 21 15 7E
14:42:26.383 设备接收:06 03 42 09 00 16 E3 00 00 00 00 00 00 00 00 00 00 00 00 00 00 00 00 00 00 09 08 16 DB 00 00 00 00 00 00 00 00 00 00 00 00 00 00 00 00 00 00 09 0E 16 F7 00 00 00 00 00 00 00 00 00 00 00 00 00 00 00 00 00 00 B1 EC
14:42:26.399 设备发送:06 03 06 84 00 04 05 1F
14:42:27.198 设备接收:06 03 08 00 00 6A 4B 00 0D FD AE 72 48
14:42:27.213 设备发送:06 03 04 04 00 01 C5 4C
14:42:28.039 设备接收:06 03 02 00 02 8C 45
14:42:28.058 设备发送:07 03 04 84 00 04 05 76
14:42:28.868 设备接收:07 03 08 13 8B 08 90 FF C4 08 97 07 9C
14:42:28.883 设备发送:07 03 04 8D 00 21 14 AF
14:42:29.666 设备接收:07 03 42 09 03 0C 67 00 00 00 00 00 00 00 00 00 00 00 00 00 00 00 00 00 00 08 FE 0C 6E 00 00 00 00 00 00 00 00 00 00 00 00 00 00 00 00 00 00 09 02 0C 70 00 00 00 00 00 00 00 00 00 00 00 00 00 00 00 00 00 00 2E FE
14:42:29.697 设备发送:07 03 06 84 00 04 04 CE
14:42:30.510 设备接收:07 03 08 00 00 3A 85 00 06 EE 2B AE 65
14:42:30.525 设备发送:07 03 04 04 00 01 C4 9D
14:42:31.324 设备接收:07 03 02 00 02 B1 85
14:42:31.340 设备发送:08 03 04 84 00 04 05 89
14:42:32.141 设备接收:08 03 08 13 8C 11 18 00 17 11 18 28 87
14:42:32.156 设备发送:08 03 04 8D 00 21 14 50
14:42:32.970 设备接收:08 03 42 08 ED 19 00 00 00 00 00 00 00 00 00 00 00 00 00 00 00 00 00 00 00 08 E4 18 FB 00 00 00 00 00 00 00 00 00 00 00 00 00 00 00 00 00 00 08 F5 19 16 00 00 00 00 00 00 00 00 00 00 00 00 00 00 00 00 00 00 C7 6D
14:42:32.985 设备发送:08 03 06 84 00 04 04 31
14:42:33.798 设备接收:08 03 08 00 00 7B B2 00 0F 1A D7 F2 27
14:42:33.814 设备发送:08 03 04 04 00 01 C4 62
14:42:34.596 设备接收:08 03 02 00 02 E5 84
14:42:34.644 设备发送:09 03 04 84 00 04 04 58
14:42:35.446 设备接收:09 03 08 13 8B 10 00 FF 9E 10 01 5A CC
14:42:35.462 设备发送:09 03 04 8D 00 21 15 81
14:42:36.244 设备接收:09 03 42 08 F4 17 41 00 00 00 00 00 00 00 00 00 00 00 00 00 00 00 00 00 00 08 EA 17 4E 00 00 00 00 00 00 00 00 00 00 00 00 00 00 00 00 00 00 08 FF 17 53 00 00 00 00 00 00 00 00 00 00 00 00 00 00 00 00 00 00 9D B7
14:42:36.280 设备发送:09 03 06 84 00 04 05 E0
14:42:37.075 设备接收:09 03 08 00 00 6F A7 00 0D BE D6 E2 CC
14:42:37.090 设备发送:09 03 04 04 00 01 C5 B3
14:42:37.893 设备接收:09 03 02 00 02 D8 44
14:42:37.909 设备发送:0A 03 04 84 00 04 04 6B
14:42:38.744 设备发送:0A 03 04 84 00 04 04 6B
14:42:39.562 设备发送:0A 03 04 84 00 04 04 6B
14:42:40.380 设备发送:0A 03 04 8D 00 21 15 B2
14:42:41.193 设备发送:0A 03 04 8D 00 21 15 B2
14:42:42.010 设备发送:0A 03 04 8D 00 21 15 B2
14:42:42.856 设备发送:0A 03 06 84 00 04 05 D3
14:42:43.675 设备发送:0A 03 06 84 00 04 05 D3
14:42:44.460 设备发送:0A 03 06 84 00 04 05 D3
14:42:45.291 设备发送:0A 03 04 04 00 01 C5 80
14:42:46.105 设备发送:0A 03 04 04 00 01 C5 80
14:42:46.925 设备发送:0A 03 04 04 00 01 C5 80
14:42:47.751 设备发送:01 03 04 84 00 04 05 10
14:42:48.567 设备接收:01 03 08 13 8B 14 C3 00 22 14 C3 47 98
14:42:48.582 设备发送:01 03 04 8D 00 21 14 C9
14:42:49.370 设备接收:01 03 42 08 FC 1D DE 00 00 00 00 00 00 00 00 00 00 00 00 00 00 00 00 00 00 09 12 1D E8 00 00 00 00 00 00 00 00 00 00 00 00 00 00 00 00 00 00 09 0F 1D F9 00 00 00 00 00 00 00 00 00 00 00 00 00 00 00 00 00 00 CB B3
14:42:49.386 设备发送:01 03 06 84 00 04 04 A8
14:42:50.182 设备接收:01 03 08 00 00 8C C8 00 12 7C DC EA 57
14:42:50.198 设备发送:01 03 04 04 00 01 C4 FB
14:42:51.013 设备接收:01 03 02 00 02 39 85
14:42:51.029 设备发送:02 03 04 84 00 04 05 23
14:42:51.814 设备接收:02 03 08 13 8B 15 0F 00 20 15 0F F9 18
14:42:51.845 设备发送:02 03 04 8D 00 21 14 FA
14:42:52.642 设备接收:02 03 42 09 02 1E 53 00 00 00 00 00 00 00 00 00 00 00 00 00 00 00 00 00 00 09 17 1E 5A 00 00 00 00 00 00 00 00 00 00 00 00 00 00 00 00 00 00 09 0E 1E 62 00 00 00 00 00 00 00 00 00 00 00 00 00 00 00 00 00 00 53 84
14:42:52.673 设备发送:02 03 06 84 00 04 04 9B
14:42:53.492 设备接收:02 03 08 00 00 90 6D 00 12 CB 13 9C F2
14:42:53.507 设备发送:02 03 04 04 00 01 C4 C8
14:42:54.290 设备接收:02 03 02 00 02 7D 85
14:42:54.306 设备发送:03 03 04 84 00 04 04 F2
14:42:55.091 设备接收:03 03 08 13 8B 16 E2 00 26 16 E2 71 7C
14:42:55.138 设备发送:03 03 04 8D 00 21 15 2B
14:42:55.925 设备接收:03 03 42 08 FF 21 01 00 00 00 00 00 00 00 00 00 00 00 00 00 00 00 00 00 00 09 1B 20 E5 00 00 00 00 00 00 00 00 00 00 00 00 00 00 00 00 00 00 09 11 21 02 00 00 00 00 00 00 00 00 00 00 00 00 00 00 00 00 00 00 85 B1
14:42:55.956 设备发送:03 03 06 84 00 04 05 4A
14:42:56.739 设备接收:03 03 08 00 00 9D 9D 00 13 41 F4 AF EC
14:42:56.787 设备发送:03 03 04 04 00 01 C5 19
14:42:57.570 设备接收:03 03 02 00 02 40 45
14:42:57.585 设备发送:04 03 04 84 00 04 05 45
14:42:58.370 设备接收:04 03 08 13 8B 13 4B 00 1D 13 4B 85 A6
14:42:58.432 设备发送:04 03 04 8D 00 21 14 9C
14:42:59.227 设备接收:04 03 42 09 0A 1B E2 00 00 00 00 00 00 00 00 00 00 00 00 00 00 00 00 00 00 08 F7 1B D0 00 00 00 00 00 00 00 00 00 00 00 00 00 00 00 00 00 00 09 15 1B D6 00 00 00 00 00 00 00 00 00 00 00 00 00 00 00 00 00 00 0C C9
14:42:59.243 设备发送:04 03 06 84 00 04 04 FD
14:43:00.044 设备接收:04 03 08 00 00 83 01 00 10 9F 2A 4F C2
14:43:00.070 设备发送:04 03 04 04 00 01 C4 AE
14:43:00.855 设备接收:04 03 02 00 02 F5 85
14:43:00.870 设备发送:05 03 04 84 00 04 04 94
14:43:01.683 设备接收:05 03 08 13 8C 0F FF FF 9F 10 00 95 27
14:43:01.698 设备发送:05 03 04 8D 00 21 15 4D
14:43:02.482 设备接收:05 03 42 08 FE 17 12 00 00 00 00 00 00 00 00 00 00 00 00 00 00 00 00 00 00 09 0C 17 04 00 00 00 00 00 00 00 00 00 00 00 00 00 00 00 00 00 00 09 0D 17 15 00 00 00 00 00 00 00 00 00 00 00 00 00 00 00 00 00 00 65 F7
14:43:02.497 设备发送:05 03 06 84 00 04 05 2C
14:43:03.309 设备接收:05 03 08 00 00 6D E4 00 0E 08 B2 1E 3A
14:43:03.326 设备发送:05 03 04 04 00 01 C5 7F
14:43:04.121 设备接收:05 03 02 00 02 C8 45
14:43:04.136 设备发送:06 03 04 84 00 04 04 A7
14:43:04.950 设备接收:06 03 08 13 8B 0F 9E FF A0 0F 9F 29 3F
14:43:04.981 设备发送:06 03 04 8D 00 21 15 7E
14:43:05.776 设备接收:06 03 42 09 05 16 96 00 00 00 00 00 00 00 00 00 00 00 00 00 00 00 00 00 00 09 0B 16 88 00 00 00 00 00 00 00 00 00 00 00 00 00 00 00 00 00 00 09 0E 16 A4 00 00 00 00 00 00 00 00 00 00 00 00 00 00 00 00 00 00 6E 3D
14:43:05.792 设备发送:06 03 06 84 00 04 05 1F
14:43:06.586 设备接收:06 03 08 00 00 6A 77 00 0D FD B2 23 84
14:43:06.601 设备发送:06 03 04 04 00 01 C5 4C
14:43:07.400 设备接收:06 03 02 00 02 8C 45
