14:35:20.487 设备发送:02 03 05 84 00 0F 45 18
14:35:25.519 设备发送:02 03 05 84 00 0F 45 18
14:35:30.522 设备发送:02 03 05 93 00 0F F5 1C
14:35:35.565 设备发送:02 03 05 93 00 0F F5 1C
14:35:40.553 设备发送:02 03 05 93 00 0F F5 1C
14:35:45.603 设备发送:02 03 05 A2 00 0F A4 D3
14:35:50.594 设备接收:02 03 1E 00 00 00 04 00 00 00 00 00 00 00 00 00 00 00 00 00 00 00 00 00 00 00 00 00 00 00 00 00 00 92 31
14:35:50.606 设备发送:02 03 05 B1 00 03 55 13
14:35:55.620 设备接收:02 03 06 00 00 00 00 00 00 35 85
14:35:55.641 设备发送:02 03 04 2B 00 01 F5 01
14:36:00.629 设备接收:02 03 02 02 C9 3D 72
14:36:00.650 设备发送:02 03 04 20 00 01 84 C3
14:36:05.627 设备接收:02 03 02 00 46 7D B6
14:36:05.689 设备发送:02 03 04 05 00 01 95 08
14:36:10.673 设备接收:02 03 02 00 00 FC 44
14:36:10.694 设备发送:03 03 04 84 00 04 04 F2
14:36:15.680 设备接收:03 03 08 13 87 18 F6 00 28 18 F6 E9 FD
14:36:15.704 设备发送:03 03 04 8D 00 05 15 30
14:36:20.710 设备接收:03 03 0A 09 00 23 F4 00 00 00 00 00 00 04 19
14:36:20.721 设备发送:03 03 04 98 00 05 04 F4
14:36:25.739 设备接收:03 03 0A 09 24 23 F4 00 00 00 00 00 00 AF 18
14:36:25.752 设备发送:03 03 04 A3 00 05 75 39
14:36:30.745 设备接收:03 03 0A 09 16 24 28 00 00 00 00 00 00 BE 52
14:36:30.764 设备发送:03 03 06 84 00 04 05 4A
14:36:35.767 设备接收:03 03 08 00 00 A4 9F 00 14 0D D9 96 59
14:36:35.777 设备发送:03 03 04 04 00 01 C5 19
14:36:40.805 设备接收:03 03 02 00 02 40 45
14:36:40.817 设备发送:03 03 05 84 00 0F 44 C9
14:36:45.817 设备接收:03 03 1E 1F 15 05 69 04 4E 1F 20 05 68 04 4F 1F 3B 05 4D 04 3D 1E C9 05 5C 04 39 16 D6 05 6C 03 2B B4 2F
14:36:45.825 设备发送:03 03 05 93 00 0F F4 CD
14:36:50.834 设备接收:03 03 1E 05 21 00 00 00 00 13 D9 03 6B 01 BC 1B C7 02 B7 01 EE 1B B1 02 BD 01 F1 05 25 00 00 00 00 61 49
14:36:50.846 设备发送:03 03 05 A2 00 0F A5 02
14:36:55.860 设备接收:03 03 1E 00 0F 00 00 00 00 00 00 00 00 00 00 00 00 00 00 00 00 00 00 00 00 00 00 00 00 00 00 00 00 41 71
14:36:55.880 设备发送:03 03 05 B1 00 03 54 C2
14:37:00.884 设备接收:03 03 06 00 00 00 00 00 00 38 15
14:37:00.907 设备发送:03 03 04 2B 00 01 F4 D0
14:37:05.898 设备接收:03 03 02 02 D1 00 B8
14:37:05.909 设备发送:03 03 04 20 00 01 85 12
14:37:10.903 设备接收:03 03 02 00 30 C1 90
14:37:10.953 设备发送:03 03 04 05 00 01 94 D9
14:37:15.938 设备接收:03 03 02 00 00 C1 84
14:37:15.948 设备发送:04 03 04 84 00 04 05 45
14:37:20.973 设备接收:04 03 08 13 89 14 FA FF D1 14 FA E9 A4
14:37:20.995 设备发送:04 03 04 8D 00 05 14 87
14:37:25.968 设备接收:04 03 0A 09 08 1E 50 00 00 00 00 00 00 4F D9
14:37:25.981 设备发送:04 03 04 98 00 05 05 43
14:37:30.990 设备接收:04 03 0A 08 F7 1E 3D 00 00 00 00 00 00 E7 2E
14:37:31.010 设备发送:04 03 04 A3 00 05 74 8E
14:37:36.015 设备接收:04 03 0A 09 16 1E 27 00 00 00 00 00 00 C9 7E
14:37:36.036 设备发送:04 03 06 84 00 04 04 FD
14:37:41.029 设备接收:04 03 08 00 00 8B 90 00 11 4C 0F 7E 7C
14:37:41.071 设备发送:04 03 04 04 00 01 C4 AE
14:37:46.064 设备接收:04 03 02 00 02 F5 85
14:37:46.076 设备发送:04 03 05 84 00 0F 45 7E
14:37:51.095 设备接收:04 03 1E 1A 88 02 7F 01 B2 1B ED 04 F5 03 8B 1A 2A 02 91 01 B8 1B 9C 05 37 03 B0 1C 1B 05 12 03 A6 18 BB
14:37:51.111 设备发送:04 03 05 93 00 0F F5 7A
14:37:56.098 设备接收:04 03 1E 1B E7 05 3B 03 BC 1B 78 04 E0 03 6D 04 8A 00 00 00 00 04 AA 00 02 00 00 04 9E 00 00 00 00 EF A1
14:37:56.119 设备发送:04 03 05 A2 00 0F A4 B5
14:38:01.145 设备接收:04 03 1E 00 00 00 00 00 00 00 01 00 04 00 00 00 00 00 00 00 00 00 00 00 00 00 00 00 00 00 00 00 00 8C A3
14:38:01.156 设备发送:04 03 05 B1 00 03 55 75
14:38:06.160 设备接收:04 03 06 00 00 00 00 00 00 1E 25
14:38:06.185 设备发送:04 03 04 2B 00 01 F5 67
14:38:11.194 设备接收:04 03 02 02 CB 34 B3
14:38:11.215 设备发送:04 03 04 20 00 01 84 A5
14:38:16.207 设备接收:04 03 02 00 34 75 93
14:38:16.216 设备发送:04 03 04 05 00 01 95 6E
14:38:21.220 设备接收:04 03 02 00 00 74 44
14:38:21.242 设备发送:05 03 04 84 00 04 04 94
14:38:26.236 设备接收:05 03 08 13 86 11 22 FF 98 11 23 21 02
14:38:26.249 设备发送:05 03 04 8D 00 05 15 56
14:38:31.273 设备接收:05 03 0A 09 04 18 C8 00 00 00 00 00 00 81 BB
14:38:31.285 设备发送:05 03 04 98 00 05 04 92
14:38:36.285 设备接收:05 03 0A 09 0F 18 B7 00 00 00 00 00 00 7C 4C
14:38:36.305 设备发送:05 03 04 A3 00 05 75 5F
14:38:41.316 设备接收:05 03 0A 09 0B 18 D7 00 00 00 00 00 00 2E 8A
14:38:41.325 设备发送:05 03 06 84 00 04 05 2C
14:38:46.315 设备接收:05 03 08 00 00 74 B6 00 0E 98 7D 89 AB
14:38:46.325 设备发送:05 03 04 04 00 01 C5 7F
14:38:51.343 设备接收:05 03 02 00 02 C8 45
14:38:51.363 设备发送:05 03 05 84 00 0F 44 AF
14:38:56.360 设备接收:05 03 1E 04 9A 00 00 00 00 16 FD 05 19 03 00 16 92 04 D5 02 CA 17 41 04 D0 02 DD 1D D0 02 56 01 C9 D2 85
14:38:56.378 设备发送:05 03 05 93 00 0F F4 AB
14:39:01.372 设备接收:05 03 1E 1D A9 02 60 01 CE 04 83 00 01 00 00 18 AE 04 EE 03 1D 04 92 00 00 00 00 15 71 04 C5 02 9E 82 CF
14:39:01.382 设备发送:05 03 05 A2 00 0F A5 64
14:39:06.385 设备接收:05 03 1E 00 06 00 00 00 00 00 00 00 03 00 00 00 00 00 00 00 00 00 00 00 00 00 00 00 00 00 00 00 00 DA 4C
14:39:06.396 设备发送:05 03 05 B1 00 03 54 A4
14:39:11.398 设备接收:05 03 06 00 00 00 00 00 00 13 B5
14:39:11.416 设备发送:05 03 04 2B 00 01 F4 B6
14:39:16.441 设备接收:05 03 02 02 CB 09 73
14:39:16.451 设备发送:05 03 04 20 00 01 85 74
14:39:21.455 设备接收:05 03 02 00 34 48 53
14:39:21.476 设备发送:05 03 04 05 00 01 94 BF
14:39:26.487 设备接收:05 03 02 00 00 49 84
14:39:26.499 设备发送:06 03 04 84 00 04 04 A7
14:39:31.510 设备接收:06 03 08 13 84 10 99 00 1B 10 99 A9 93
14:39:31.532 设备发送:06 03 04 8D 00 05 15 65
14:39:36.535 设备接收:06 03 0A 09 06 17 E2 00 00 00 00 00 00 56 9A
14:39:36.555 设备发送:06 03 04 98 00 05 04 A1
14:39:41.531 设备接收:06 03 0A 09 0D 17 D1 00 00 00 00 00 00 26 A9
14:39:41.552 设备发送:06 03 04 A3 00 05 75 6C
14:39:46.564 设备接收:06 03 0A 09 0D 17 D9 00 00 00 00 00 00 AF 69
14:39:46.586 设备发送:06 03 06 84 00 04 05 1F
14:39:51.586 设备接收:06 03 08 00 00 71 E9 00 0E 87 24 DA BD
14:39:51.608 设备发送:06 03 04 04 00 01 C5 4C
14:39:56.612 设备接收:06 03 02 00 02 8C 45
14:39:56.621 设备发送:06 03 05 84 00 0F 44 9C
14:40:01.621 设备接收:06 03 1E 04 84 00 07 00 00 1C 34 04 8E 03 4A 1C 68 04 99 03 58 1A B4 02 56 01 99 1D CA 04 C0 03 9F F6 E4
14:40:01.633 设备发送:06 03 05 93 00 0F F4 98
14:40:06.636 设备接收:06 03 1E 04 83 00 00 00 00 04 72 00 00 00 00 17 2B 04 C8 02 D6 04 76 00 05 00 00 15 5F 04 C9 02 9E 8B 83
14:40:06.657 设备发送:06 03 05 A2 00 0F A5 57
14:40:11.672 设备接收:06 03 1E 00 08 00 00 00 00 00 00 00 00 00 00 00 00 00 00 00 00 00 00 00 00 00 00 00 00 00 00 00 00 DD 75
14:40:11.681 设备发送:06 03 05 B1 00 03 54 97
14:40:16.685 设备接收:06 03 06 00 00 00 00 00 00 07 45
14:40:16.705 设备发送:06 03 04 2B 00 01 F4 85
14:40:21.708 设备接收:06 03 02 02 C7 4D 76
14:40:21.719 设备发送:06 03 04 20 00 01 85 47
14:40:26.726 设备接收:06 03 02 00 2A 8C 5B
14:40:26.746 设备发送:06 03 04 05 00 01 94 8C
14:40:31.743 设备接收:06 03 02 00 00 0D 84
14:40:31.763 设备发送:07 03 04 84 00 04 05 76
14:40:36.789 设备接收:07 03 08 13 8A 08 FB FF E8 09 00 B3 62
14:40:36.796 设备发送:07 03 04 8D 00 05 14 B4
14:40:41.795 设备发送:07 03 04 98 00 05 05 70
14:40:41.815 设备接收:07 03 0A 09 02 0C FB 00 00 00 00 00 00 AE A5
14:40:46.802 设备接收:07 03 0A 08 FF 0C FC 00 00 00 00 00 00 D5 34
14:40:46.822 设备发送:07 03 04 A3 00 05 74 BD
14:40:51.821 设备接收:07 03 0A 09 08 0C F1 00 00 00 00 00 00 7A 05
14:40:51.845 设备发送:07 03 06 84 00 04 04 CE
14:40:56.846 设备接收:07 03 08 00 00 3D 70 00 07 38 B2 EC 0D
14:40:56.867 设备发送:07 03 04 04 00 01 C4 9D
14:41:01.863 设备接收:07 03 02 00 02 B1 85
14:41:01.882 设备发送:07 03 05 84 00 0F 45 4D
14:41:06.888 设备接收:07 03 1E 18 B2 04 BD 02 FF 1A 17 02 6E 01 9F 1A 1F 02 58 01 91 18 D4 04 AF 02 FA 00 00 00 00 00 00 FE F5
14:41:06.930 设备发送:07 03 05 93 00 0F F5 49
14:41:11.914 设备接收:07 03 1E 00 00 00 00 00 00 00 00 00 00 00 00 00 00 00 00 00 00 00 00 00 00 00 00 00 00 00 00 00 00 B0 BB
14:41:11.923 设备发送:07 03 05 A2 00 0F A4 86
14:41:16.959 设备接收:07 03 1E 00 00 00 00 00 00 00 00 00 00 00 00 00 00 00 00 00 00 00 00 00 00 00 00 00 00 00 00 00 00 B0 BB
14:41:16.980 设备发送:07 03 05 B1 00 03 55 46
14:41:21.970 设备接收:07 03 06 00 00 00 00 00 00 0A D5
14:41:21.983 设备发送:07 03 04 2B 00 01 F5 54
14:41:27.007 设备接收:07 03 02 01 D1 F1 88
14:41:27.016 设备发送:07 03 04 20 00 01 84 96
14:41:32.020 设备接收:07 03 02 00 23 71 9D
14:41:32.042 设备发送:07 03 04 05 00 01 95 5D
14:41:37.028 设备接收:07 03 02 00 00 30 44
14:41:37.035 设备发送:08 03 04 84 00 04 05 89
14:41:42.050 设备接收:08 03 08 13 89 12 2B 00 1C 12 2B 48 97
14:41:42.072 设备发送:08 03 04 8D 00 05 14 4B
14:41:47.078 设备接收:08 03 0A 08 F8 1A 5C 00 00 00 00 00 00 C6 27
14:41:47.090 设备发送:08 03 04 98 00 05 05 8F
14:41:52.092 设备接收:08 03 0A 08 EA 1A 38 00 00 00 00 00 00 37 41
14:41:52.104 设备发送:08 03 04 A3 00 05 74 42
14:41:57.093 设备接收:08 03 0A 08 FB 1A 46 00 00 00 00 00 00 69 16
14:41:57.114 设备发送:08 03 06 84 00 04 04 31
14:42:02.135 设备接收:08 03 08 00 00 82 99 00 0F B8 C4 FA E5
14:42:02.156 设备发送:08 03 04 04 00 01 C4 62
14:42:07.138 设备接收:08 03 02 00 02 E5 84
14:42:07.156 设备发送:08 03 05 84 00 0F 45 B2
14:42:12.177 设备接收:08 03 1E 14 C6 02 41 01 32 1A EF 01 A4 01 22 1A CB 01 BC 01 31 17 99 03 63 02 0C 18 D4 03 F7 02 85 CA B6
14:42:12.198 设备发送:08 03 05 93 00 0F F5 B6
14:42:17.206 设备接收:08 03 1E 1D BF 04 5B 03 51 1D DD 02 34 01 AF 1A 50 02 09 01 5F 18 EF 02 25 01 5E 1A 34 04 4B 02 E1 84 21
14:42:17.227 设备发送:08 03 05 A2 00 0F A4 79
14:42:22.234 设备接收:08 03 1E 00 00 00 08 00 00 00 00 00 05 00 00 00 00 00 00 00 00 00 00 00 00 00 00 00 00 00 00 00 00 7E BB
14:42:22.256 设备发送:08 03 05 B1 00 03 55 B9
14:42:27.232 设备接收:08 03 06 00 00 00 00 00 00 4B 25
14:42:27.242 设备发送:08 03 04 2B 00 01 F5 AB
14:42:32.261 设备接收:08 03 02 02 85 A4 86
14:42:32.281 设备发送:08 03 04 20 00 01 84 69
14:42:37.266 设备接收:08 03 02 00 35 A4 52
14:42:37.288 设备发送:08 03 04 05 00 01 95 A2
14:42:42.306 设备接收:08 03 02 00 00 64 45
14:42:42.318 设备发送:09 03 04 84 00 04 04 58
14:42:47.334 设备接收:09 03 08 13 8B 10 6A FF DA 10 6B 82 FF
14:42:47.343 设备发送:09 03 04 8D 00 05 15 9A
14:42:52.337 设备接收:09 03 0A 08 FE 17 AD 00 00 00 00 00 00 CE 50
14:42:52.354 设备发送:09 03 04 98 00 05 04 5E
14:42:57.368 设备接收:09 03 0A 08 F3 17 B5 00 00 00 00 00 00 0E C1
14:42:57.388 设备发送:09 03 04 A3 00 05 75 93
14:43:02.371 设备接收:09 03 0A 09 01 17 B2 00 00 00 00 00 00 34 A0
14:43:02.392 设备发送:09 03 06 84 00 04 05 E0
14:43:07.398 设备接收:09 03 08 00 00 74 E8 00 0E 4D 5C 81 BE
14:43:07.417 设备发送:09 03 04 04 00 01 C5 B3
14:43:12.429 设备接收:09 03 02 00 02 D8 44
14:43:12.450 设备发送:09 03 05 84 00 0F 44 63
14:43:17.435 设备接收:09 03 1E 1D DC 01 83 01 28 1D D4 01 8D 01 2F 1E 3E 01 AC 01 4B 1E 8C 01 D5 01 6F 1D B1 01 A5 01 40 9C E9
14:43:17.455 设备发送:09 03 05 93 00 0F F4 67
14:43:22.475 设备接收:09 03 1E 1D 87 03 F6 02 FF 1E 01 01 DA 01 6C 1D EC 04 34 03 38 1D 75 01 ED 01 74 1D 74 01 F6 01 7A 38 F6
14:43:22.485 设备发送:09 03 05 A2 00 0F A5 A8
14:43:27.513 设备接收:09 03 1E 00 07 00 00 00 00 00 04 00 03 00 00 00 00 00 00 00 00 00 00 00 00 00 00 00 00 00 00 00 00 F8 BC
14:43:27.523 设备发送:09 03 05 B1 00 03 54 68
14:43:32.516 设备接收:09 03 06 00 00 00 00 00 00 46 B5
14:43:32.527 设备发送:09 03 04 2B 00 01 F4 7A
14:43:37.540 设备接收:09 03 02 02 76 D9 03
14:43:37.561 设备发送:09 03 04 20 00 01 85 B8
14:43:42.561 设备接收:09 03 02 00 23 18 5C
14:43:42.584 设备发送:09 03 04 05 00 01 94 73
14:43:47.574 设备接收:09 03 02 00 00 59 85
14:43:47.593 设备发送:0A 03 04 84 00 04 04 6B
14:43:52.619 设备接收:0A 03 08 13 8A 03 8B FF D7 03 91 3F 7E FF
14:43:52.625 设备发送:0A 03 04 8D 00 05 15 A9
14:43:57.645 设备发送:0A 03 04 8D 00 05 15 A9
14:44:02.658 设备发送:0A 03 04 8D 00 05 15 A9
14:44:07.669 设备发送:0A 03 04 98 00 05 04 6D
14:44:12.701 设备发送:0A 03 04 98 00 05 04 6D
14:44:17.721 设备发送:0A 03 04 98 00 05 04 6D
14:44:22.746 设备发送:0A 03 04 A3 00 05 75 A0
14:44:27.742 设备发送:0A 03 04 A3 00 05 75 A0
14:44:32.785 设备发送:0A 03 04 A3 00 05 75 A0
14:44:37.784 设备发送:0A 03 06 84 00 04 05 D3
14:44:42.807 设备发送:0A 03 06 84 00 04 05 D3
14:44:47.822 设备发送:0A 03 06 84 00 04 05 D3
14:44:52.861 设备发送:0A 03 04 04 00 01 C5 80
14:44:57.898 设备发送:0A 03 04 04 00 01 C5 80
14:45:02.897 设备发送:0A 03 04 04 00 01 C5 80
14:45:07.906 设备发送:0A 03 05 84 00 0F 44 50
14:45:12.938 设备发送:0A 03 05 84 00 0F 44 50
14:45:17.971 设备发送:0A 03 05 84 00 0F 44 50
14:45:22.984 设备发送:0A 03 05 93 00 0F F4 54
14:45:27.996 设备发送:0A 03 05 93 00 0F F4 54
14:45:33.005 设备发送:0A 03 05 93 00 0F F4 54
14:45:38.046 设备发送:0A 03 05 A2 00 0F A5 9B
14:45:43.054 设备发送:0A 03 05 A2 00 0F A5 9B
14:45:48.068 设备发送:0A 03 05 A2 00 0F A5 9B
14:45:53.109 设备发送:0A 03 05 B1 00 03 54 5B
14:45:58.118 设备发送:0A 03 05 B1 00 03 54 5B
14:46:03.145 设备发送:0A 03 05 B1 00 03 54 5B
14:46:08.154 设备发送:0A 03 04 2B 00 01 F4 49
14:46:13.188 设备发送:0A 03 04 2B 00 01 F4 49
14:46:18.193 设备发送:0A 03 04 2B 00 01 F4 49
14:46:23.229 设备发送:0A 03 04 20 00 01 85 8B
14:46:28.230 设备发送:0A 03 04 20 00 01 85 8B
14:46:33.257 设备发送:0A 03 04 20 00 01 85 8B
14:46:38.289 设备发送:0A 03 04 05 00 01 94 40
14:46:43.313 设备发送:0A 03 04 05 00 01 94 40
14:46:48.323 设备发送:0A 03 04 05 00 01 94 40
14:46:53.316 设备发送:01 03 04 84 00 04 05 10
14:46:58.353 设备发送:01 03 04 84 00 04 05 10
14:47:03.382 设备发送:01 03 04 84 00 04 05 10
14:47:08.407 设备发送:01 03 04 8D 00 05 14 D2
14:47:13.415 设备发送:01 03 04 8D 00 05 14 D2
14:47:18.436 设备发送:01 03 04 8D 00 05 14 D2
14:47:23.437 设备发送:01 03 04 98 00 05 05 16
14:47:28.476 设备发送:01 03 04 98 00 05 05 16
14:47:33.479 设备发送:01 03 04 98 00 05 05 16
14:47:38.521 设备发送:01 03 04 A3 00 05 74 DB
14:47:43.533 设备发送:01 03 04 A3 00 05 74 DB
14:47:48.570 设备发送:01 03 04 A3 00 05 74 DB
14:47:53.568 设备发送:01 03 06 84 00 04 04 A8
14:47:58.614 设备发送:01 03 06 84 00 04 04 A8
14:48:03.618 设备发送:01 03 06 84 00 04 04 A8
14:48:08.636 设备发送:01 03 04 04 00 01 C4 FB
14:48:13.645 设备发送:01 03 04 04 00 01 C4 FB
14:48:18.661 设备发送:01 03 04 04 00 01 C4 FB
14:48:23.694 设备发送:01 03 05 84 00 0F 45 2B
14:48:28.712 设备发送:01 03 05 84 00 0F 45 2B
14:48:33.718 设备发送:01 03 05 84 00 0F 45 2B
14:48:38.765 设备发送:01 03 05 93 00 0F F5 2F
14:48:43.770 设备发送:01 03 05 93 00 0F F5 2F
14:48:48.773 设备接收:01 03 1E 00 00 00 00 00 00 1A 24 04 CE 03 37 1C 42 02 4F 01 AC 1C 10 02 5A 01 B0 00 00 00 03 00 00 48 4D
14:48:48.783 设备发送:01 03 05 A2 00 0F A4 E0
14:48:53.777 设备接收:01 03 1E 00 00 00 00 00 00 00 00 00 00 00 00 00 00 00 00 00 00 00 00 00 00 00 00 00 00 00 00 00 00 D8 BA
14:48:53.798 设备发送:01 03 05 B1 00 03 55 20
14:48:58.815 设备接收:01 03 06 00 00 00 00 00 00 21 75
14:48:58.824 设备发送:01 03 04 2B 00 01 F5 32
14:49:03.853 设备接收:01 03 02 02 CE 38 B0
14:49:03.861 设备发送:01 03 04 20 00 01 84 F0
14:49:08.842 设备接收:01 03 02 00 37 F9 92
14:49:08.852 设备发送:01 03 04 05 00 01 95 3B
14:49:13.885 设备接收:01 03 02 00 00 B8 44
14:49:13.906 设备发送:02 03 04 84 00 04 05 23
14:49:18.898 设备接收:02 03 08 13 86 14 5D FF D5 14 5D 3D 8E
14:49:18.918 设备发送:02 03 04 8D 00 05 14 E1
14:49:23.899 设备接收:02 03 0A 08 FC 1D 5E 00 00 00 00 00 00 8E CB
14:49:23.918 设备发送:02 03 04 98 00 05 05 25
14:49:28.935 设备接收:02 03 0A 09 12 1D 73 00 00 00 00 00 00 A7 A8
14:49:28.954 设备发送:02 03 04 A3 00 05 74 E8
14:49:33.939 设备接收:02 03 0A 09 0D 1D 7A 00 00 00 00 00 00 B2 98
14:49:33.979 设备发送:02 03 06 84 00 04 04 9B
14:49:38.969 设备接收:02 03 08 00 00 9A B3 00 13 83 27 52 5C
14:49:38.979 设备发送:02 03 04 04 00 01 C4 C8
14:49:44.007 设备接收:02 03 02 00 02 7D 85
14:49:44.016 设备发送:02 03 05 84 00 0F 45 18
14:49:49.015 设备接收:02 03 1E 1F BB 02 24 01 BD 1F 65 02 26 01 BA 1F 4F 02 2E 01 C0 1F D8 04 4B 03 80 1F 87 02 24 01 BA 0D 2F
14:49:49.027 设备发送:02 03 05 93 00 0F F5 1C
14:49:54.028 设备接收:02 03 1E 1F 5E 02 22 01 B6 1F 62 02 35 01 C6 1F 60 04 76 03 95 1F A4 02 38 01 CC 1F 16 02 60 01 E4 9B C7
14:49:54.051 设备发送:02 03 05 A2 00 0F A4 D3
14:49:59.041 设备接收:02 03 1E 00 00 00 04 00 00 00 00 00 00 00 00 00 00 00 00 00 00 00 00 00 00 00 00 00 00 00 00 00 00 92 31
14:49:59.064 设备发送:02 03 05 B1 00 03 55 13
14:50:04.080 设备接收:02 03 06 00 00 00 00 00 00 35 85
14:50:04.103 设备发送:02 03 04 2B 00 01 F5 01
14:50:09.088 设备接收:02 03 02 02 C9 3D 72
14:50:09.110 设备发送:02 03 04 20 00 01 84 C3
14:50:14.103 设备接收:02 03 02 00 46 7D B6
14:50:14.144 设备发送:02 03 04 05 00 01 95 08
14:50:19.128 设备接收:02 03 02 00 00 FC 44
14:50:19.146 设备发送:03 03 04 84 00 04 04 F2
14:50:24.168 设备接收:03 03 08 13 85 16 9E FF CD 16 9E 8E B7
14:50:24.178 设备发送:03 03 04 8D 00 05 15 30
14:50:29.180 设备接收:03 03 0A 08 FE 20 9B 00 00 00 00 00 00 C2 AB
14:50:29.190 设备发送:03 03 04 98 00 05 04 F4
14:50:34.194 设备接收:03 03 0A 09 1B 20 86 00 00 00 00 00 00 A8 FB
14:50:34.217 设备发送:03 03 04 A3 00 05 75 39
14:50:39.212 设备接收:03 03 0A 09 12 20 A7 00 00 00 00 00 00 F3 A9
14:50:39.235 设备发送:03 03 06 84 00 04 05 4A
14:50:44.212 设备接收:03 03 08 00 00 AA 30 00 14 0E 67 C3 EF
14:50:44.262 设备发送:03 03 04 04 00 01 C5 19
14:50:49.266 设备接收:03 03 02 00 02 40 45
14:50:49.286 设备发送:03 03 05 84 00 0F 44 C9
14:50:54.259 设备接收:03 03 1E 1F 64 04 CE 03 DC 1F 48 04 D8 03 E1 1F 62 04 B9 03 CB 1E F0 04 CA 03 CB 17 4C 04 C6 02 D8 C7 2E
14:50:54.301 设备发送:03 03 05 93 00 0F F4 CD
14:50:59.274 设备接收:03 03 1E 05 27 00 00 00 00 13 79 03 AB 01 D4 1C 19 02 69 01 BC 1B DB 02 71 01 BD 05 2A 00 00 00 00 AC EB
14:50:59.295 设备发送:03 03 05 A2 00 0F A5 02
14:51:04.331 设备接收:03 03 1E 00 10 00 00 00 00 00 00 00 00 00 00 00 00 00 00 00 00 00 00 00 00 00 00 00 00 00 00 00 00 01 66
14:51:04.340 设备发送:03 03 05 B1 00 03 54 C2
14:51:09.334 设备接收:03 03 06 00 00 00 00 00 00 38 15
14:51:09.356 设备发送:03 03 04 2B 00 01 F4 D0
14:51:14.358 设备接收:03 03 02 02 D1 00 B8
14:51:14.380 设备发送:03 03 04 20 00 01 85 12
14:51:19.375 设备接收:03 03 02 00 2B 81 9B
14:51:19.383 设备发送:03 03 04 05 00 01 94 D9
14:51:24.384 设备接收:03 03 02 00 00 C1 84
14:51:24.405 设备发送:04 03 04 84 00 04 05 45
14:51:29.405 设备接收:04 03 08 13 8B 12 85 00 1D 12 85 6D A3
14:51:29.426 设备发送:04 03 04 8D 00 05 14 87
14:51:34.452 设备接收:04 03 0A 09 05 1A CA 00 00 00 00 00 00 2C B3
14:51:34.460 设备发送:04 03 04 98 00 05 05 43
14:51:39.471 设备接收:04 03 0A 08 F6 1A C0 00 00 00 00 00 00 C7 82
14:51:39.492 设备发送:04 03 04 A3 00 05 74 8E
14:51:44.475 设备接收:04 03 0A 09 12 1A C6 00 00 00 00 00 00 0B 43
14:51:44.495 设备发送:04 03 06 84 00 04 04 FD
14:51:49.495 设备接收:04 03 08 00 00 90 26 00 11 4C 85 35 EA
14:51:49.514 设备发送:04 03 04 04 00 01 C4 AE
14:51:54.527 设备接收:04 03 02 00 02 F5 85
14:51:54.539 设备发送:04 03 05 84 00 0F 45 7E
14:51:59.535 设备接收:04 03 1E 1A 88 02 3C 01 84 1C 16 04 5D 03 23 1A 53 02 46 01 88 1B EA 04 9A 03 4A 1B C9 04 9A 03 46 3A 50
14:51:59.556 设备发送:04 03 05 93 00 0F F5 7A
14:52:04.560 设备接收:04 03 1E 1B E4 04 B3 03 5B 1B 4E 04 69 03 15 04 8C 00 02 00 00 04 AB 00 06 00 00 04 A2 00 00 00 00 12 CD
14:52:04.578 设备发送:04 03 05 A2 00 0F A4 B5
14:52:09.599 设备接收:04 03 1E 00 00 00 00 00 00 00 00 00 04 00 00 00 00 00 00 00 00 00 00 00 00 00 00 00 00 00 00 00 00 41 3F
14:52:09.608 设备发送:04 03 05 B1 00 03 55 75
14:52:14.602 设备接收:04 03 06 00 00 00 00 00 00 1E 25
14:52:14.614 设备发送:04 03 04 2B 00 01 F5 67
14:52:19.622 设备接收:04 03 02 02 CB 34 B3
14:52:19.632 设备发送:04 03 04 20 00 01 84 A5
14:52:24.629 设备接收:04 03 02 00 2C 75 99
14:52:24.681 设备发送:04 03 04 05 00 01 95 6E
14:52:29.667 设备接收:04 03 02 00 00 74 44
14:52:29.687 设备发送:05 03 04 84 00 04 04 94
14:52:34.676 设备接收:05 03 08 13 85 0F 51 FF A6 0F 52 BC 3F
14:52:34.697 设备发送:05 03 04 8D 00 05 15 56
14:52:39.692 设备接收:05 03 0A 08 F4 16 2F 00 00 00 00 00 00 C2 F8
14:52:39.713 设备发送:05 03 04 98 00 05 04 92
14:52:44.716 设备接收:05 03 0A 09 0A 16 0A 00 00 00 00 00 00 AF 9B
14:52:44.736 设备发送:05 03 04 A3 00 05 75 5F
14:52:49.756 设备接收:05 03 0A 09 08 16 16 00 00 00 00 00 00 6B 3A
14:52:49.777 设备发送:05 03 06 84 00 04 05 2C
14:52:54.763 设备接收:05 03 08 00 00 78 80 00 0E 98 DE 01 1A
14:52:54.784 设备发送:05 03 04 04 00 01 C5 7F
14:52:59.793 设备接收:05 03 02 00 02 C8 45
14:52:59.815 设备发送:05 03 05 84 00 0F 44 AF
14:53:04.817 设备接收:05 03 1E 04 9B 00 00 00 00 17 25 04 7D 02 A9 15 CC 04 51 02 69 17 40 04 41 02 88 1D F7 02 0E 01 93 39 E2
14:53:04.829 设备发送:05 03 05 93 00 0F F4 AB
14:53:09.841 设备接收:05 03 1E 1D AA 02 26 01 A2 04 86 00 08 00 00 18 D6 04 60 02 C8 04 94 00 00 00 00 15 98 04 36 02 54 F5 09
14:53:09.862 设备发送:05 03 05 A2 00 0F A5 64
14:53:14.835 设备接收:05 03 1E 00 07 00 00 00 00 00 01 00 03 00 00 00 00 00 00 00 00 00 00 00 00 00 00 00 00 00 00 00 00 D7 D1
14:53:14.854 设备发送:05 03 05 B1 00 03 54 A4
14:53:19.867 设备接收:05 03 06 00 00 00 00 00 00 13 B5
14:53:19.889 设备发送:05 03 04 2B 00 01 F4 B6
14:53:24.902 设备接收:05 03 02 02 CB 09 73
14:53:24.923 设备发送:05 03 04 20 00 01 85 74
14:53:29.910 设备接收:05 03 02 00 29 88 5A
14:53:29.923 设备发送:05 03 04 05 00 01 94 BF
14:53:34.911 设备接收:05 03 02 00 00 49 84
14:53:34.932 设备发送:06 03 04 84 00 04 04 A7
14:53:39.955 设备接收:06 03 08 13 85 0E CC FF DD 0E CC AF 57
14:53:39.978 设备发送:06 03 04 8D 00 05 15 65
14:53:44.961 设备接收:06 03 0A 08 FD 15 67 00 00 00 00 00 00 25 7A
14:53:44.979 设备发送:06 03 04 98 00 05 04 A1
14:53:49.967 设备接收:06 03 0A 09 06 15 58 00 00 00 00 00 00 CC 88
14:53:50.018 设备发送:06 03 04 A3 00 05 75 6C
14:53:54.998 设备接收:06 03 0A 09 08 15 61 00 00 00 00 00 00 29 EB
14:53:55.008 设备发送:06 03 06 84 00 04 05 1F
14:54:00.040 设备接收:06 03 08 00 00 75 98 00 0E 87 82 27 48
14:54:00.060 设备发送:06 03 04 04 00 01 C5 4C
14:54:05.046 设备接收:06 03 02 00 02 8C 45
14:54:05.067 设备发送:06 03 05 84 00 0F 44 9C
14:54:10.066 设备接收:06 03 1E 04 88 00 06 00 00 1C 59 04 0C 02 F0 1C 69 04 1D 02 FE 1A DC 02 13 01 6D 1D CB 04 3F 03 3D FD 55
14:54:10.084 设备发送:06 03 05 93 00 0F F4 98
14:54:15.117 设备接收:06 03 1E 04 88 00 01 00 00 04 76 00 00 00 00 17 2C 04 47 02 8A 04 79 00 04 00 00 15 5F 04 4B 02 59 77 09
14:54:15.126 设备发送:06 03 05 A2 00 0F A5 57
14:54:20.115 设备接收:06 03 1E 00 08 00 00 00 00 00 00 00 00 00 00 00 00 00 00 00 00 00 00 00 00 00 00 00 00 00 00 00 00 DD 75
14:54:20.127 设备发送:06 03 05 B1 00 03 54 97
14:54:25.147 设备接收:06 03 06 00 00 00 00 00 00 07 45
14:54:25.169 设备发送:06 03 04 2B 00 01 F4 85
14:54:30.150 设备接收:06 03 02 02 C7 4D 76
14:54:30.171 设备发送:06 03 04 20 00 01 85 47
14:54:35.202 设备接收:06 03 02 00 2A 8C 5B
14:54:35.211 设备发送:06 03 04 05 00 01 94 8C
14:54:40.202 设备接收:06 03 02 00 00 0D 84
14:54:40.224 设备发送:07 03 04 84 00 04 05 76
14:54:45.218 设备接收:07 03 08 13 85 07 F1 FF D6 07 F7 F0 B6
14:54:45.229 设备发送:07 03 04 8D 00 05 14 B4
14:54:50.246 设备接收:07 03 0A 08 FD 0B 86 00 00 00 00 00 00 56 75
14:54:50.255 设备发送:07 03 04 98 00 05 05 70
14:54:55.263 设备接收:07 03 0A 08 FC 0B 86 00 00 00 00 00 00 5B E5
14:54:55.272 设备发送:07 03 04 A3 00 05 74 BD
14:55:00.275 设备接收:07 03 0A 09 01 0B 8C 00 00 00 00 00 00 FC B4
14:55:00.325 设备发送:07 03 06 84 00 04 04 CE
14:55:05.303 设备接收:07 03 08 00 00 3F 69 00 07 38 E4 70 13
14:55:05.324 设备发送:07 03 04 04 00 01 C4 9D
14:55:10.342 设备接收:07 03 02 00 02 B1 85
14:55:10.351 设备发送:07 03 05 84 00 0F 45 4D
14:55:15.345 设备接收:07 03 1E 18 B2 04 32 02 A7 1A 3E 02 2A 01 74 1A 46 02 12 01 64 18 85 04 3C 02 A8 00 00 00 00 00 00 22 45
14:55:15.355 设备发送:07 03 05 93 00 0F F5 49
14:55:20.355 设备接收:07 03 1E 00 00 00 00 00 00 00 00 00 00 00 00 00 00 00 00 00 00 00 00 00 00 00 00 00 00 00 00 00 00 B0 BB
14:55:20.395 设备发送:07 03 05 A2 00 0F A4 86
14:55:25.370 设备接收:07 03 1E 00 00 00 00 00 00 00 00 00 00 00 00 00 00 00 00 00 00 00 00 00 00 00 00 00 00 00 00 00 00 B0 BB
14:55:25.422 设备发送:07 03 05 B1 00 03 55 46
14:55:30.413 设备接收:07 03 06 00 00 00 00 00 00 0A D5
14:55:30.423 设备发送:07 03 04 2B 00 01 F5 54
14:55:35.428 设备接收:07 03 02 01 D1 F1 88
14:55:35.449 设备发送:07 03 04 20 00 01 84 96
14:55:40.466 设备接收:07 03 02 00 20 31 9C
14:55:40.476 设备发送:07 03 04 05 00 01 95 5D
14:55:45.488 设备接收:07 03 02 00 00 30 44
14:55:45.501 设备发送:08 03 04 84 00 04 05 89
14:55:50.514 设备接收:08 03 08 13 85 0F CB FF DD 0F CB 6F FC
14:55:50.536 设备发送:08 03 04 8D 00 05 14 4B
14:55:55.537 设备接收:08 03 0A 08 F3 17 0E 00 00 00 00 00 00 07 4B
14:55:55.545 设备发送:08 03 04 98 00 05 05 8F
14:56:00.549 设备接收:08 03 0A 08 E6 16 FF 00 00 00 00 00 00 D4 D8
14:56:00.559 设备发送:08 03 04 A3 00 05 74 42
14:56:05.555 设备接收:08 03 0A 08 F6 17 05 00 00 00 00 00 00 82 DB
14:56:05.577 设备发送:08 03 06 84 00 04 04 31
14:56:10.572 设备接收:08 03 08 00 00 86 8A 00 0F B9 29 BF 7F
14:56:10.594 设备发送:08 03 04 04 00 01 C4 62
14:56:15.612 设备接收:08 03 02 00 02 E5 84
14:56:15.632 设备发送:08 03 05 84 00 0F 45 B2
14:56:20.641 设备接收:08 03 1E 18 AE 02 04 01 46 1A 76 01 71 00 FA 1A F2 01 89 01 0F 19 EF 02 79 01 A4 19 23 03 40 02 17 0C 6C
14:56:20.661 设备发送:08 03 05 93 00 0F F5 B6
14:56:25.651 设备接收:08 03 1E 1D 6E 03 C8 02 D9 1E 55 01 EA 01 7C 1A C9 01 CA 01 3A 19 67 01 DF 01 38 1A 83 03 C9 02 92 AC BE
14:56:25.662 设备发送:08 03 05 A2 00 0F A4 79
14:56:30.676 设备接收:08 03 1E 00 00 00 09 00 00 00 00 00 05 00 00 00 00 00 00 00 00 00 00 00 00 00 00 00 00 00 00 00 00 80 39
14:56:30.697 设备发送:08 03 05 B1 00 03 55 B9
14:56:35.702 设备接收:08 03 06 00 00 00 00 00 00 4B 25
14:56:35.723 设备发送:08 03 04 2B 00 01 F5 AB
14:56:40.711 设备接收:08 03 02 02 85 A4 86
14:56:40.731 设备发送:08 03 04 20 00 01 84 69
14:56:45.745 设备接收:08 03 02 00 28 64 5B
14:56:45.765 设备发送:08 03 04 05 00 01 95 A2
14:56:50.763 设备接收:08 03 02 00 00 64 45
14:56:50.783 设备发送:09 03 04 84 00 04 04 58
14:56:55.781 设备接收:09 03 08 13 84 0E 73 FF DF 0E 74 3B EA
14:56:55.801 设备发送:09 03 04 8D 00 05 15 9A
14:57:00.803 设备接收:09 03 0A 08 F9 14 FF 00 00 00 00 00 00 DB B0
14:57:00.824 设备发送:09 03 04 98 00 05 04 5E
14:57:05.829 设备接收:09 03 0A 08 F2 15 01 00 00 00 00 00 00 76 83
14:57:05.842 设备发送:09 03 04 A3 00 05 75 93
14:57:10.837 设备接收:09 03 0A 08 FF 15 0C 00 00 00 00 00 00 F2 D3
14:57:10.858 设备发送:09 03 06 84 00 04 05 E0
14:57:15.872 设备接收:09 03 08 00 00 78 83 00 0E 4D B9 65 30
14:57:15.890 设备发送:09 03 04 04 00 01 C5 B3
14:57:20.885 设备接收:09 03 02 00 02 D8 44
14:57:20.895 设备发送:09 03 05 84 00 0F 44 63
14:57:25.892 设备接收:09 03 1E 1E 2D 01 56 01 08 1E 24 01 5F 01 0F 1D 9D 01 80 01 23 1E 8C 01 A8 01 4B 1D DA 01 79 01 20 FB 0F
14:57:25.917 设备发送:09 03 05 93 00 0F F4 67
14:57:30.926 设备接收:09 03 1E 1D D4 03 7F 02 AB 1D D5 01 AB 01 46 1D C0 03 CF 02 E6 1D 9C 01 BB 01 50 1D 98 01 C2 01 55 B9 A7
14:57:30.945 设备发送:09 03 05 A2 00 0F A5 A8
14:57:35.926 设备接收:09 03 1E 00 03 00 00 00 00 00 01 00 03 00 00 00 00 00 00 00 00 00 00 00 00 00 00 00 00 00 00 00 00 07 D4
14:57:35.978 设备发送:09 03 05 B1 00 03 54 68
14:57:40.979 设备接收:09 03 06 00 00 00 00 00 00 46 B5
14:57:41.000 设备发送:09 03 04 2B 00 01 F4 7A
14:57:45.984 设备接收:09 03 02 02 76 D9 03
14:57:46.004 设备发送:09 03 04 20 00 01 85 B8
14:57:51.022 设备接收:09 03 02 00 2E D9 99
14:57:51.049 设备发送:09 03 04 05 00 01 94 73
14:57:56.045 设备接收:09 03 02 00 00 59 85
14:57:56.070 设备发送:0A 03 04 84 00 04 04 6B
14:58:01.079 设备接收:0A 03 08 13 85 02 66 FF D7 02 6F ED A8 FF
14:58:01.089 设备发送:0A 03 04 8D 00 05 15 A9
14:58:06.110 设备发送:0A 03 04 8D 00 05 15 A9
14:58:11.123 设备发送:0A 03 04 8D 00 05 15 A9
14:58:16.131 设备发送:0A 03 04 98 00 05 04 6D
14:58:21.150 设备发送:0A 03 04 98 00 05 04 6D
14:58:26.158 设备发送:0A 03 04 98 00 05 04 6D
14:58:31.193 设备发送:0A 03 04 A3 00 05 75 A0
14:58:36.213 设备发送:0A 03 04 A3 00 05 75 A0
14:58:41.260 设备发送:0A 03 04 A3 00 05 75 A0
14:58:46.245 设备发送:0A 03 06 84 00 04 05 D3
14:58:51.270 设备发送:0A 03 06 84 00 04 05 D3
14:58:56.290 设备发送:0A 03 06 84 00 04 05 D3
14:59:01.318 设备发送:0A 03 04 04 00 01 C5 80
14:59:06.345 设备发送:0A 03 04 04 00 01 C5 80
14:59:11.368 设备发送:0A 03 04 04 00 01 C5 80
14:59:16.385 设备发送:0A 03 05 84 00 0F 44 50
14:59:21.412 设备发送:0A 03 05 84 00 0F 44 50
14:59:26.421 设备发送:0A 03 05 84 00 0F 44 50
14:59:31.424 设备发送:0A 03 05 93 00 0F F4 54
14:59:36.463 设备发送:0A 03 05 93 00 0F F4 54
14:59:41.486 设备发送:0A 03 05 93 00 0F F4 54
14:59:46.511 设备发送:0A 03 05 A2 00 0F A5 9B
14:59:51.512 设备发送:0A 03 05 A2 00 0F A5 9B
14:59:56.532 设备发送:0A 03 05 A2 00 0F A5 9B
15:00:01.548 设备发送:0A 03 05 B1 00 03 54 5B
15:00:06.580 设备发送:0A 03 05 B1 00 03 54 5B
15:00:11.587 设备发送:0A 03 05 B1 00 03 54 5B
15:00:16.628 设备发送:0A 03 04 2B 00 01 F4 49
15:00:21.647 设备发送:0A 03 04 2B 00 01 F4 49
15:00:26.646 设备发送:0A 03 04 2B 00 01 F4 49
15:00:31.677 设备发送:0A 03 04 20 00 01 85 8B
15:00:36.705 设备发送:0A 03 04 20 00 01 85 8B
15:00:41.723 设备发送:0A 03 04 20 00 01 85 8B
15:00:46.747 设备发送:0A 03 04 05 00 01 94 40
15:00:51.766 设备发送:0A 03 04 05 00 01 94 40
15:00:56.779 设备发送:0A 03 04 05 00 01 94 40
15:01:01.782 设备发送:01 03 04 84 00 04 05 10
15:01:06.822 设备发送:01 03 04 84 00 04 05 10
15:01:11.850 设备发送:01 03 04 84 00 04 05 10
15:01:16.875 设备发送:01 03 04 8D 00 05 14 D2
15:01:21.886 设备发送:01 03 04 8D 00 05 14 D2
15:01:26.893 设备发送:01 03 04 8D 00 05 14 D2
15:01:31.923 设备发送:01 03 04 98 00 05 05 16
15:01:36.927 设备发送:01 03 04 98 00 05 05 16
15:01:41.962 设备发送:01 03 04 98 00 05 05 16
15:01:46.977 设备发送:01 03 04 A3 00 05 74 DB
15:01:51.991 设备发送:01 03 04 A3 00 05 74 DB
15:01:57.015 设备发送:01 03 04 A3 00 05 74 DB
15:02:02.026 设备发送:01 03 06 84 00 04 04 A8
15:02:07.058 设备发送:01 03 06 84 00 04 04 A8
15:02:12.085 设备发送:01 03 06 84 00 04 04 A8
15:02:17.104 设备发送:01 03 04 04 00 01 C4 FB
15:02:22.124 设备发送:01 03 04 04 00 01 C4 FB
15:02:27.128 设备发送:01 03 04 04 00 01 C4 FB
15:02:32.155 设备发送:01 03 05 84 00 0F 45 2B
15:02:37.193 设备发送:01 03 05 84 00 0F 45 2B
15:02:42.182 设备发送:01 03 05 84 00 0F 45 2B
15:02:47.229 设备发送:01 03 05 93 00 0F F5 2F
15:02:52.227 设备发送:01 03 05 93 00 0F F5 2F
15:02:57.227 设备接收:01 03 1E 00 00 00 00 00 00 1A 4E 04 60 02 F2 1C 44 02 1E 01 88 1C 12 02 22 01 88 00 00 00 03 00 00 31 30
15:02:57.248 设备发送:01 03 05 A2 00 0F A4 E0
15:03:02.243 设备接收:01 03 1E 00 00 00 00 00 00 00 00 00 00 00 00 00 00 00 00 00 00 00 00 00 00 00 00 00 00 00 00 00 00 D8 BA
15:03:02.253 设备发送:01 03 05 B1 00 03 55 20
15:03:07.271 设备接收:01 03 06 00 00 00 00 00 00 21 75
15:03:07.603 设备发送:01 03 04 2B 00 01 F5 32
15:03:12.288 设备接收:01 03 02 02 CE 38 B0
15:03:12.309 设备发送:01 03 04 20 00 01 84 F0
15:03:17.313 设备接收:01 03 02 00 34 B9 93
15:03:17.323 设备发送:01 03 04 05 00 01 95 3B
15:03:22.340 设备接收:01 03 02 00 00 B8 44
15:03:22.350 设备发送:02 03 04 84 00 04 05 23
15:03:27.344 设备接收:02 03 08 13 89 12 7E FF D7 12 7E E4 96
15:03:27.365 设备发送:02 03 04 8D 00 05 14 E1
15:03:32.375 设备接收:02 03 0A 08 FD 1A B0 00 00 00 00 00 00 CC B3
15:03:32.396 设备发送:02 03 04 98 00 05 05 25
15:03:37.411 设备接收:02 03 0A 09 17 1A CB 00 00 00 00 00 00 E1 15
15:03:37.420 设备发送:02 03 04 A3 00 05 74 E8
15:03:42.398 设备接收:02 03 0A 09 0A 1A EF 00 00 00 00 00 00 10 47
15:03:42.438 设备发送:02 03 06 84 00 04 04 9B
15:03:47.437 设备接收:02 03 08 00 00 9F 48 00 13 83 9C F7 AE
15:03:47.458 设备发送:02 03 04 04 00 01 C4 C8
15:03:52.458 设备接收:02 03 02 00 02 7D 85
15:03:52.478 设备发送:02 03 05 84 00 0F 45 18
15:03:57.481 设备接收:02 03 1E 1F BC 01 F4 01 96 1F B4 01 EF 01 92 1F A3 01 FA 01 9A 20 28 03 E1 03 31 1F B1 01 F0 01 92 CE CB
15:03:57.493 设备发送:02 03 05 93 00 0F F5 1C
15:04:02.507 设备接收:02 03 1E 1F 59 01 F0 01 8E 1F DB 02 00 01 A2 1F 86 04 10 03 47 1F CC 02 04 01 A4 1F 3D 02 2B 01 BC 0C 28
15:04:02.521 设备发送:02 03 05 A2 00 0F A4 D3
15:04:07.507 设备接收:02 03 1E 00 00 00 05 00 00 00 00 00 00 00 00 00 00 00 00 00 00 00 00 00 00 00 00 00 00 00 00 00 00 6C B3
15:04:07.528 设备发送:02 03 05 B1 00 03 55 13
15:04:12.525 设备接收:02 03 06 00 00 00 00 00 00 35 85
15:04:12.577 设备发送:02 03 04 2B 00 01 F5 01
15:04:17.575 设备接收:02 03 02 02 C9 3D 72
15:04:17.600 设备发送:02 03 04 20 00 01 84 C3
15:04:22.583 设备接收:02 03 02 00 41 3C 74
15:04:22.594 设备发送:02 03 04 05 00 01 95 08
15:04:27.607 设备接收:02 03 02 00 00 FC 44
15:04:27.626 设备发送:03 03 04 84 00 04 04 F2
15:04:32.633 设备接收:03 03 08 13 85 14 8D FF D5 14 8D CA 3C
15:04:32.652 设备发送:03 03 04 8D 00 05 15 30
15:04:37.659 设备接收:03 03 0A 08 FA 1D 92 00 00 00 00 00 00 AB E6
15:04:37.681 设备发送:03 03 04 98 00 05 04 F4
15:04:42.663 设备接收:03 03 0A 09 17 1D 85 00 00 00 00 00 00 0C 76
15:04:42.685 设备发送:03 03 04 A3 00 05 75 39
15:04:47.691 设备接收:03 03 0A 09 0E 1D 8A 00 00 00 00 00 00 54 E6
15:04:47.700 设备发送:03 03 06 84 00 04 05 4A
15:04:52.727 设备接收:03 03 08 00 00 AF 32 00 14 0E E8 FB DE
15:04:52.742 设备发送:03 03 04 04 00 01 C5 19
15:04:57.723 设备接收:03 03 02 00 02 40 45
15:04:57.735 设备发送:03 03 05 84 00 0F 44 C9
15:05:02.760 设备接收:03 03 1E 1F 3D 04 64 03 83 1F 1F 04 67 03 82 1F 88 04 3F 03 6D 1F 3F 04 47 03 6C 17 4D 04 4F 02 92 45 3E
15:05:02.781 设备发送:03 03 05 93 00 0F F4 CD
15:05:07.762 设备接收:03 03 1E 05 2B 00 00 00 00 13 5F 03 76 01 B7 1B C9 02 36 01 92 1C 51 02 2B 01 92 05 2E 00 00 00 00 12 97
15:05:07.781 设备发送:03 03 05 A2 00 0F A5 02
15:05:12.787 设备接收:03 03 1E 00 0E 00 00 00 00 00 00 00 00 00 00 00 00 00 00 00 00 00 00 00 00 00 00 00 00 00 00 00 00 81 70
15:05:12.806 设备发送:03 03 05 B1 00 03 54 C2
15:05:17.822 设备接收:03 03 06 00 00 00 00 00 00 38 15
15:05:17.843 设备发送:03 03 04 2B 00 01 F4 D0
15:05:22.832 设备接收:03 03 02 02 D1 00 B8
15:05:22.841 设备发送:03 03 04 20 00 01 85 12
15:05:27.839 设备接收:03 03 02 00 2B 81 9B
15:05:27.852 设备发送:03 03 04 05 00 01 94 D9
15:05:32.873 设备接收:03 03 02 00 00 C1 84
15:05:32.895 设备发送:04 03 04 84 00 04 05 45
15:05:37.886 设备接收:04 03 08 13 84 10 B7 FF 99 10 B8 1A 09
15:05:37.895 设备发送:04 03 04 8D 00 05 14 87
15:05:42.895 设备接收:04 03 0A 09 03 18 2C 00 00 00 00 00 00 01 04
15:05:42.918 设备发送:04 03 04 98 00 05 05 43
15:05:47.927 设备接收:04 03 0A 08 F6 18 2B 00 00 00 00 00 00 1D 55
15:05:47.940 设备发送:04 03 04 A3 00 05 74 8E
15:05:52.963 设备接收:04 03 0A 09 10 18 27 00 00 00 00 00 00 62 F4
15:05:52.974 设备发送:04 03 06 84 00 04 04 FD
15:05:57.963 设备接收:04 03 08 00 00 94 48 00 11 4C EF 5D 88
15:05:57.979 设备发送:04 03 04 04 00 01 C4 AE
15:06:02.990 设备接收:04 03 02 00 02 F5 85
15:06:03.002 设备发送:04 03 05 84 00 0F 45 7E
15:06:08.001 设备接收:04 03 1E 1A D7 01 FD 01 5E 1B EC 03 EB 02 CD 1A 79 02 0B 01 62 1B EA 04 31 02 FF 1C 17 04 1E 02 F6 C6 28
15:06:08.041 设备发送:04 03 05 93 00 0F F5 7A
15:06:13.026 设备接收:04 03 1E 1C 0E 04 3C 03 0A 1C 3E 03 D1 02 C2 04 94 00 04 00 00 04 B2 00 00 00 00 04 A6 00 00 00 00 00 92
15:06:13.045 设备发送:04 03 05 A2 00 0F A4 B5
15:06:18.055 设备接收:04 03 1E 00 00 00 00 00 00 00 00 00 04 00 00 00 00 00 00 00 00 00 00 00 00 00 00 00 00 00 00 00 00 41 3F
15:06:18.065 设备发送:04 03 05 B1 00 03 55 75
15:06:23.060 设备接收:04 03 06 00 00 00 00 00 00 1E 25
15:06:23.079 设备发送:04 03 04 2B 00 01 F5 67
15:06:28.100 设备接收:04 03 02 02 CB 34 B3
15:06:28.119 设备发送:04 03 04 20 00 01 84 A5
15:06:33.100 设备接收:04 03 02 00 32 F5 91
15:06:33.113 设备发送:04 03 04 05 00 01 95 6E
15:06:38.125 设备接收:04 03 02 00 00 74 44
15:06:38.145 设备发送:05 03 04 84 00 04 04 94
15:06:43.155 设备接收:05 03 08 13 84 0D 8A FF E4 0D 8B A9 E0
15:06:43.168 设备发送:05 03 04 8D 00 05 15 56
15:06:48.164 设备接收:05 03 0A 08 FC 13 99 00 00 00 00 00 00 B2 CC
15:06:48.172 设备发送:05 03 04 98 00 05 04 92
15:06:53.199 设备接收:05 03 0A 09 06 13 92 00 00 00 00 00 00 23 6D
15:06:53.217 设备发送:05 03 04 A3 00 05 75 5F
15:06:58.197 设备接收:05 03 0A 09 07 13 A2 00 00 00 00 00 00 1E FE
15:06:58.218 设备发送:05 03 06 84 00 04 05 2C
15:07:03.239 设备接收:05 03 08 00 00 7B E0 00 0E 99 35 C0 FE
15:07:03.261 设备发送:05 03 04 04 00 01 C5 7F
15:07:08.251 设备接收:05 03 02 00 02 C8 45
15:07:08.263 设备发送:05 03 05 84 00 0F 44 AF
15:07:13.280 设备接收:05 03 1E 04 A0 00 00 00 00 17 26 04 1A 02 6E 15 2B 03 B8 02 04 17 6A 03 D2 02 4A 1E 22 01 D7 01 6B 04 29
15:07:13.298 设备发送:05 03 05 93 00 0F F4 AB
15:07:18.280 设备接收:05 03 1E 1D D4 01 EA 01 76 04 8C 00 05 00 00 18 AF 03 F8 02 82 04 9A 00 00 00 00 15 9B 03 DB 02 22 05 12
15:07:18.302 设备发送:05 03 05 A2 00 0F A5 64
15:07:23.299 设备接收:05 03 1E 00 05 00 00 00 00 00 00 00 03 00 00 00 00 00 00 00 00 00 00 00 00 00 00 00 00 00 00 00 00 9A 4E
15:07:23.319 设备发送:05 03 05 B1 00 03 54 A4
15:07:28.342 设备接收:05 03 06 00 00 00 00 00 00 13 B5
15:07:28.351 设备发送:05 03 04 2B 00 01 F4 B6
15:07:33.340 设备接收:05 03 02 02 CB 09 73
15:07:33.362 设备发送:05 03 04 20 00 01 85 74
15:07:38.379 设备接收:05 03 02 00 33 09 91
15:07:38.400 设备发送:05 03 04 05 00 01 94 BF
15:07:43.385 设备接收:05 03 02 00 00 49 84
15:07:43.405 设备发送:06 03 04 84 00 04 04 A7
15:07:48.410 设备接收:06 03 08 13 85 0C 3E FF E9 0C 3E 56 4B
15:07:48.432 设备发送:06 03 04 8D 00 05 15 65
15:07:53.431 设备发送:06 03 04 98 00 05 04 A1
15:07:53.450 设备接收:06 03 0A 08 FC 11 B4 00 00 00 00 00 00 CB D4
15:07:58.433 设备接收:06 03 0A 09 04 11 9F 00 00 00 00 00 00 62 D7
15:07:58.466 设备发送:06 03 04 A3 00 05 75 6C
15:08:03.457 设备接收:06 03 0A 09 08 11 B6 00 00 00 00 00 00 8F 15
15:08:03.467 设备发送:06 03 06 84 00 04 05 1F
15:08:08.471 设备接收:06 03 08 00 00 78 D8 00 0E 87 D5 66 64
15:08:08.493 设备发送:06 03 04 04 00 01 C5 4C
15:08:13.498 设备接收:06 03 02 00 02 8C 45
15:08:13.525 设备发送:06 03 05 84 00 0F 44 9C
15:08:18.512 设备接收:06 03 1E 04 A3 00 04 00 00 1D 72 02 8E 01 ED 1C 93 03 A7 02 AC 1B F5 01 6E 01 06 1E 93 03 80 02 BD E1 2E
15:08:18.532 设备发送:06 03 05 93 00 0F F4 98
15:08:23.555 设备接收:06 03 1E 04 A2 00 00 00 00 04 90 00 00 00 00 17 56 03 CD 02 45 04 94 00 03 00 00 15 8A 03 D9 02 1F 5C BC
15:08:23.577 设备发送:06 03 05 A2 00 0F A5 57
15:08:28.580 设备接收:06 03 1E 00 09 00 00 00 00 00 00 00 00 00 00 00 00 00 00 00 00 00 00 00 00 00 00 00 00 00 00 00 00 1D 74
15:08:28.589 设备发送:06 03 05 B1 00 03 54 97
15:08:33.593 设备接收:06 03 06 00 00 00 00 00 00 07 45
15:08:33.613 设备发送:06 03 04 2B 00 01 F4 85
15:08:38.610 设备接收:06 03 02 02 C7 4D 76
15:08:38.621 设备发送:06 03 04 20 00 01 85 47
15:08:43.639 设备接收:06 03 02 00 33 4D 91
15:08:43.660 设备发送:06 03 04 05 00 01 94 8C
15:08:48.642 设备接收:06 03 02 00 00 0D 84
15:08:48.663 设备发送:07 03 04 84 00 04 05 76
15:08:53.669 设备接收:07 03 08 13 84 06 D3 FF E7 06 D8 08 23
15:08:53.681 设备发送:07 03 04 8D 00 05 14 B4
15:08:58.686 设备接收:07 03 0A 09 02 09 E9 00 00 00 00 00 00 5C 9B
15:08:58.706 设备发送:07 03 04 98 00 05 05 70
15:09:03.727 设备接收:07 03 0A 09 01 09 F3 00 00 00 00 00 00 F3 AA
15:09:03.736 设备发送:07 03 04 A3 00 05 74 BD
15:09:08.724 设备接收:07 03 0A 08 FE 09 EE 00 00 00 00 00 00 2A 9A
15:09:08.738 设备发送:07 03 06 84 00 04 04 CE
15:09:13.755 设备接收:07 03 08 00 00 41 2C 00 07 39 11 76 15
15:09:13.778 设备发送:07 03 04 04 00 01 C4 9D
15:09:18.767 设备接收:07 03 02 00 02 B1 85
15:09:18.779 设备发送:07 03 05 84 00 0F 45 4D
15:09:23.808 设备接收:07 03 1E 19 2B 03 93 02 4D 1A 66 01 EA 01 4B 19 A6 01 97 01 0B 18 D4 03 C4 02 64 00 00 00 00 00 00 97 18
15:09:23.828 设备发送:07 03 05 93 00 0F F5 49
15:09:28.802 设备接收:07 03 1E 00 00 00 00 00 00 00 00 00 00 00 00 00 00 00 00 00 00 00 00 00 00 00 00 00 00 00 00 00 00 B0 BB
15:09:29.390 设备发送:07 03 05 A2 00 0F A4 86
15:09:33.853 设备接收:07 03 1E 00 00 00 00 00 00 00 00 00 00 00 00 00 00 00 00 00 00 00 00 00 00 00 00 00 00 00 00 00 00 B0 BB
15:09:33.874 设备发送:07 03 05 B1 00 03 55 46
15:09:38.871 设备接收:07 03 06 00 00 00 00 00 00 0A D5
15:09:38.888 设备发送:07 03 04 2B 00 01 F5 54
15:09:43.887 设备接收:07 03 02 01 D1 F1 88
15:09:43.919 设备发送:07 03 04 20 00 01 84 96
15:09:48.893 设备接收:07 03 02 00 1D F0 4D
15:09:48.909 设备发送:07 03 04 05 00 01 95 5D
15:09:53.930 设备接收:07 03 02 00 00 30 44
15:09:53.946 设备发送:08 03 04 84 00 04 05 89
15:14:35.323 设备接收:08 03 08 13 84 0D 1F 00 13 0D 1F 1E 18
15:14:35.349 设备发送:08 03 04 8D 00 05 14 4B
15:14:40.101 设备发送:0A 03 04 20 00 01 85 8B
15:14:45.155 设备发送:0A 03 04 20 00 01 85 8B
15:14:50.149 设备发送:0A 03 04 20 00 01 85 8B
15:14:55.197 设备发送:0A 03 04 05 00 01 94 40
15:15:00.212 设备发送:0A 03 04 05 00 01 94 40
15:15:05.232 设备发送:0A 03 04 05 00 01 94 40
15:15:10.244 设备发送:01 03 04 84 00 04 05 10
15:15:15.252 设备接收:01 03 08 13 87 0F 1C FF A5 0F 1D 17 35
15:15:15.262 设备发送:01 03 04 8D 00 05 14 D2
15:15:20.258 设备接收:01 03 0A 08 F9 15 DB 00 00 00 00 00 00 61 36
15:15:20.269 设备发送:01 03 04 98 00 05 05 16
15:15:25.284 设备接收:01 03 0A 09 0C 15 D8 00 00 00 00 00 00 38 A7
15:15:25.305 设备发送:01 03 04 A3 00 05 74 DB
15:15:30.283 设备接收:01 03 0A 09 08 15 F4 00 00 00 00 00 00 E7 A5
15:15:30.305 设备发送:01 03 06 84 00 04 04 A8
15:15:35.337 设备接收:01 03 08 00 00 AA 41 00 13 3C 49 90 E1
15:15:35.347 设备发送:01 03 04 04 00 01 C4 FB
15:15:40.324 设备接收:01 03 02 00 02 39 85
15:15:40.375 设备发送:01 03 05 84 00 0F 45 2B
15:15:45.363 设备接收:01 03 1E 1F DB 02 ED 02 62 20 2C 02 E9 02 65 1F B4 02 DE 02 54 20 09 02 F2 02 6A 17 71 01 D3 01 18 59 2C
15:15:45.375 设备发送:01 03 05 93 00 0F F5 2F
15:15:50.385 设备接收:01 03 1E 00 00 00 00 00 00 1A 78 03 CC 02 92 1C 6D 01 D3 01 54 1C 64 01 DA 01 58 00 00 00 01 00 00 EA C9
15:15:50.397 设备发送:01 03 05 A2 00 0F A4 E0
15:15:55.415 设备接收:01 03 1E 00 00 00 00 00 00 00 00 00 00 00 00 00 00 00 00 00 00 00 00 00 00 00 00 00 00 00 00 00 00 D8 BA
15:15:55.436 设备发送:01 03 05 B1 00 03 55 20
15:16:00.432 设备接收:01 03 06 00 00 00 00 00 00 21 75
15:16:00.454 设备发送:01 03 04 2B 00 01 F5 32
15:16:05.450 设备接收:01 03 02 02 CE 38 B0
15:16:05.469 设备发送:01 03 04 20 00 01 84 F0
15:16:10.465 设备接收:01 03 02 00 25 79 9F
15:16:10.477 设备发送:01 03 04 05 00 01 95 3B
15:16:15.460 设备接收:01 03 02 00 00 B8 44
15:16:15.513 设备发送:02 03 04 84 00 04 05 23
15:16:20.495 设备接收:02 03 08 13 87 0F A6 FF A1 0F A8 41 DC
15:16:20.507 设备发送:02 03 04 8D 00 05 14 E1
15:16:25.516 设备接收:02 03 0A 08 FD 16 83 00 00 00 00 00 00 CF E5
15:16:25.534 设备发送:02 03 04 98 00 05 05 25
15:16:30.532 设备接收:02 03 0A 09 0A 16 85 00 00 00 00 00 00 DA 14
15:16:30.554 设备发送:02 03 04 A3 00 05 74 E8
15:16:35.539 设备接收:02 03 0A 09 0A 16 8B 00 00 00 00 00 00 35 D4
15:16:35.560 设备发送:02 03 06 84 00 04 04 9B
15:16:40.587 设备接收:02 03 08 00 00 A2 F9 00 13 83 FB CE B3
15:16:40.610 设备发送:02 03 04 04 00 01 C4 C8
15:16:45.583 设备接收:02 03 02 00 02 7D 85
15:16:45.603 设备发送:02 03 05 84 00 0F 45 18
15:16:50.620 设备发送:02 03 05 93 00 0F F5 1C
15:16:50.642 设备接收:02 03 1E 20 FA 01 45 01 13 1F DB 01 86 01 3E 1F CB 01 AB 01 5B 20 28 03 4A 02 B5 20 01 01 A0 01 55 95 1C
15:16:55.632 设备接收:02 03 1E 1F AF 01 9B 01 4D 20 56 01 A9 01 60 1F B2 03 6F 02 C9 1F F6 01 B4 01 65 1F 3F 01 DD 01 7E A6 EB
15:16:55.655 设备发送:02 03 05 A2 00 0F A4 D3
15:17:00.645 设备接收:02 03 1E 00 00 00 04 00 00 00 00 00 00 00 00 00 00 00 00 00 00 00 00 00 00 00 00 00 00 00 00 00 00 92 31
15:17:00.697 设备发送:02 03 05 B1 00 03 55 13
15:17:05.687 设备接收:02 03 06 00 00 00 00 00 00 35 85
15:17:05.709 设备发送:02 03 04 2B 00 01 F5 01
15:17:10.717 设备接收:02 03 02 02 C9 3D 72
15:17:10.728 设备发送:02 03 04 20 00 01 84 C3
15:17:15.739 设备接收:02 03 02 00 3C FC 55
15:17:15.759 设备发送:02 03 04 05 00 01 95 08
15:17:20.745 设备接收:02 03 02 00 00 FC 44
15:17:20.766 设备发送:03 03 04 84 00 04 04 F2
15:17:25.779 设备接收:03 03 08 13 87 11 AE FF DA 11 AE 5E E4
15:17:25.801 设备发送:03 03 04 8D 00 05 15 30
15:17:30.792 设备接收:03 03 0A 08 F9 19 9C 00 00 00 00 00 00 51 25
15:17:30.815 设备发送:03 03 04 98 00 05 04 F4
15:17:35.794 设备接收:03 03 0A 09 10 19 8B 00 00 00 00 00 00 C4 75
15:17:35.813 设备发送:03 03 04 A3 00 05 75 39
15:17:40.834 设备接收:03 03 0A 09 0B 19 A9 00 00 00 00 00 00 78 87
15:17:40.845 设备发送:03 03 06 84 00 04 05 4A
15:17:45.854 设备接收:03 03 08 00 00 B3 49 00 14 0F 50 1C 6A
15:17:45.864 设备发送:03 03 04 04 00 01 C5 19
15:17:50.870 设备接收:03 03 02 00 02 40 45
15:17:50.892 设备发送:03 03 05 84 00 0F 44 C9
15:17:55.912 设备接收:03 03 1E 1F 64 03 D3 03 13 1F 70 03 D0 03 11 1F 8F 03 AC 02 F7 1F 89 03 AC 02 F7 17 2C 03 BD 02 38 53 ED
15:17:55.925 设备发送:03 03 05 93 00 0F F4 CD
15:18:00.924 设备接收:03 03 1E 05 2F 00 00 00 00 13 3D 03 1A 01 87 1B EF 01 EA 01 5E 1C 01 01 EA 01 5F 05 34 00 00 00 00 50 36
15:18:00.944 设备发送:03 03 05 A2 00 0F A5 02
15:18:05.933 设备接收:03 03 1E 00 0F 00 00 00 00 00 00 00 00 00 00 00 00 00 00 00 00 00 00 00 00 00 00 00 00 00 00 00 00 41 71
15:18:05.955 设备发送:03 03 05 B1 00 03 54 C2
15:18:10.967 设备接收:03 03 06 00 00 00 00 00 00 38 15
15:18:10.986 设备发送:03 03 04 2B 00 01 F4 D0
15:18:15.965 设备接收:03 03 02 02 D1 00 B8
15:18:16.016 设备发送:03 03 04 20 00 01 85 12
15:18:21.009 设备接收:03 03 02 00 34 C0 53
15:18:21.021 设备发送:03 03 04 05 00 01 94 D9
15:18:26.022 设备接收:03 03 02 00 00 C1 84
15:18:26.042 设备发送:04 03 04 84 00 04 05 45
15:18:31.039 设备接收:04 03 08 13 89 0E A2 FF DE 0E A2 F0 CA
15:18:31.051 设备发送:04 03 04 8D 00 05 14 87
15:18:36.058 设备接收:04 03 0A 08 FF 15 3C 00 00 00 00 00 00 D1 9D
15:18:36.071 设备发送:04 03 04 98 00 05 05 43
15:18:41.062 设备接收:04 03 0A 08 F3 15 2C 00 00 00 00 00 00 95 5C
15:18:41.084 设备发送:04 03 04 A3 00 05 74 8E
15:18:46.089 设备接收:04 03 0A 09 0D 15 25 00 00 00 00 00 00 15 FD
15:18:46.100 设备发送:04 03 06 84 00 04 04 FD
15:18:51.118 设备接收:04 03 08 00 00 97 9B 00 11 4D 44 98 46
15:18:51.139 设备发送:04 03 04 04 00 01 C4 AE
15:18:56.120 设备接收:04 03 02 00 02 F5 85
15:18:56.173 设备发送:04 03 05 84 00 0F 45 7E
15:19:01.160 设备接收:04 03 1E 1A D9 01 B8 01 2E 1C 65 03 4D 02 66 1A A2 01 C3 01 33 1C 3B 03 9D 02 9C 1C 1A 03 9A 02 97 44 5E
15:19:01.173 设备发送:04 03 05 93 00 0F F5 7A
15:19:06.191 设备接收:04 03 1E 1C 5E 03 9C 02 9F 1C 16 03 57 02 67 04 98 00 01 00 00 04 B7 00 02 00 00 04 AC 00 01 00 00 A6 2B
15:19:06.200 设备发送:04 03 05 A2 00 0F A4 B5
15:19:11.192 设备接收:04 03 1E 00 00 00 00 00 00 00 01 00 04 00 00 00 00 00 00 00 00 00 00 00 00 00 00 00 00 00 00 00 00 8C A3
15:19:11.243 设备发送:04 03 05 B1 00 03 55 75
15:19:16.222 设备接收:04 03 06 00 00 00 00 00 00 1E 25
15:19:16.243 设备发送:04 03 04 2B 00 01 F5 67
15:19:21.261 设备接收:04 03 02 02 CB 34 B3
15:19:21.281 设备发送:04 03 04 20 00 01 84 A5
15:19:26.248 设备接收:04 03 02 00 23 35 9D
15:19:26.271 设备发送:04 03 04 05 00 01 95 6E
15:19:31.284 设备接收:04 03 02 00 00 74 44
15:19:31.311 设备发送:05 03 04 84 00 04 04 94
15:19:36.298 设备接收:05 03 08 13 86 0B 92 00 16 0B 93 38 09
15:19:36.308 设备发送:05 03 04 8D 00 05 15 56
15:19:41.327 设备接收:05 03 0A 08 F5 10 D2 00 00 00 00 00 00 63 8D
15:19:41.341 设备发送:05 03 04 98 00 05 04 92
15:19:46.353 设备接收:05 03 0A 09 00 10 BC 00 00 00 00 00 00 86 DA
15:19:46.374 设备发送:05 03 04 A3 00 05 75 5F
15:19:51.383 设备接收:05 03 0A 09 01 10 D6 00 00 00 00 00 00 41 4C
15:19:51.393 设备发送:05 03 06 84 00 04 05 2C
15:19:56.380 设备接收:05 03 08 00 00 7E 8A 00 0E 99 79 D9 57
15:19:56.401 设备发送:05 03 04 04 00 01 C5 7F
15:20:01.400 设备接收:05 03 02 00 02 C8 45
15:20:01.410 设备发送:05 03 05 84 00 0F 44 AF
15:20:06.436 设备接收:05 03 1E 04 A5 00 00 00 00 17 23 03 9B 02 22 15 A2 02 D6 01 92 17 40 03 5D 02 00 1D F5 01 9B 01 3B 23 93
15:20:06.446 设备发送:05 03 05 93 00 0F F4 AB
15:20:11.468 设备接收:05 03 1E 1E 49 01 A8 01 48 04 92 00 04 00 00 18 FD 03 6E 02 31 04 9E 00 00 00 00 15 B9 03 5F 01 E0 61 2D
15:20:11.479 设备发送:05 03 05 A2 00 0F A5 64
15:20:16.482 设备接收:05 03 1E 00 06 00 00 00 00 00 00 00 03 00 00 00 00 00 00 00 00 00 00 00 00 00 00 00 00 00 00 00 00 DA 4C
15:20:16.501 设备发送:05 03 05 B1 00 03 54 A4
15:20:21.502 设备接收:05 03 06 00 00 00 00 00 00 13 B5
15:20:21.522 设备发送:05 03 04 2B 00 01 F4 B6
15:20:26.500 设备接收:05 03 02 02 CB 09 73
15:20:26.521 设备发送:05 03 04 20 00 01 85 74
15:20:31.556 设备接收:05 03 02 00 35 89 93
15:20:31.566 设备发送:05 03 04 05 00 01 94 BF
15:20:36.567 设备接收:05 03 02 00 00 49 84
15:20:36.578 设备发送:06 03 04 84 00 04 04 A7
15:20:41.577 设备接收:06 03 08 13 87 08 D7 FF CC 08 D8 BB 59
15:20:41.590 设备发送:06 03 04 8D 00 05 15 65
15:20:46.591 设备接收:06 03 0A 08 F8 0C E0 00 00 00 00 00 00 2C 44
15:20:46.603 设备发送:06 03 04 98 00 05 04 A1
15:20:51.624 设备接收:06 03 0A 08 FB 0C D8 00 00 00 00 00 00 81 77
15:20:51.637 设备发送:06 03 04 A3 00 05 75 6C
15:20:56.634 设备接收:06 03 0A 09 01 0C F7 00 00 00 00 00 00 74 D4
15:20:56.654 设备发送:06 03 06 84 00 04 05 1F
15:21:01.662 设备接收:06 03 08 00 00 7B 04 00 0E 88 0D B2 2E
15:21:01.674 设备发送:06 03 04 04 00 01 C5 4C
15:21:06.681 设备接收:06 03 02 00 02 8C 45
15:21:06.702 设备发送:06 03 05 84 00 0F 44 9C
15:21:11.700 设备接收:06 03 1E 04 B7 00 05 00 00 1D 73 02 1E 01 99 1C E1 03 2E 02 5A 1B A4 01 19 00 C7 1F 5A 02 31 01 C2 EA 66
15:21:11.711 设备发送:06 03 05 93 00 0F F4 98
15:21:16.728 设备接收:06 03 1E 04 B7 00 00 00 00 04 A4 00 00 00 00 18 73 02 44 01 6B 04 A6 00 05 00 00 15 A8 02 E1 01 98 C5 6B
15:21:16.749 设备发送:06 03 05 A2 00 0F A5 57
15:21:21.739 设备接收:06 03 1E 00 07 00 00 00 00 00 00 00 00 00 00 00 00 00 00 00 00 00 00 00 00 00 00 00 00 00 00 00 00 9D 7E
15:21:21.751 设备发送:06 03 05 B1 00 03 54 97
15:21:26.765 设备接收:06 03 06 00 00 00 00 00 00 07 45
15:21:26.785 设备发送:06 03 04 2B 00 01 F4 85
15:21:31.776 设备接收:06 03 02 02 C7 4D 76
15:21:31.797 设备发送:06 03 04 20 00 01 85 47
15:21:36.819 设备接收:06 03 02 00 2F 4C 58
15:21:36.839 设备发送:06 03 04 05 00 01 94 8C
15:21:41.842 设备接收:06 03 02 00 00 0D 84
15:21:41.851 设备发送:07 03 04 84 00 04 05 76
15:21:46.833 设备接收:07 03 08 13 85 05 36 FF CC 05 3E A4 74
15:21:46.843 设备发送:07 03 04 8D 00 05 14 B4
15:21:51.874 设备接收:07 03 0A 08 FC 07 8E 00 00 00 00 00 00 D2 70
15:21:51.883 设备发送:07 03 04 98 00 05 05 70
15:21:56.864 设备接收:07 03 0A 08 FA 07 92 00 00 00 00 00 00 24 11
15:21:56.915 设备发送:07 03 04 A3 00 05 74 BD
15:22:01.889 设备接收:07 03 0A 09 00 07 89 00 00 00 00 00 00 A4 71
15:22:01.911 设备发送:07 03 06 84 00 04 04 CE
15:22:06.929 设备接收:07 03 08 00 00 42 75 00 07 39 32 2B F2
15:22:06.942 设备发送:07 03 04 04 00 01 C4 9D
15:22:11.928 设备接收:07 03 02 00 02 B1 85
15:22:11.952 设备发送:07 03 05 84 00 0F 45 4D
15:22:16.960 设备接收:07 03 1E 1A 1C 02 2A 01 72 1A B6 01 AF 01 27 12 9D 01 5B 00 A5 18 FD 03 42 02 16 00 00 00 00 00 00 0E C4
15:22:17.001 设备发送:07 03 05 93 00 0F F5 49
15:22:21.981 设备接收:07 03 1E 00 00 00 00 00 00 00 00 00 00 00 00 00 00 00 00 00 00 00 00 00 00 00 00 00 00 00 00 00 00 B0 BB
15:22:22.002 设备发送:07 03 05 A2 00 0F A4 86
15:22:27.012 设备接收:07 03 1E 00 00 00 00 00 00 00 00 00 00 00 00 00 00 00 00 00 00 00 00 00 00 00 00 00 00 00 00 00 00 B0 BB
15:22:27.051 设备发送:07 03 05 B1 00 03 55 46
15:22:32.024 设备接收:07 03 06 00 00 00 00 00 00 0A D5
15:22:32.046 设备发送:07 03 04 2B 00 01 F5 54
15:22:37.054 设备接收:07 03 02 01 D1 F1 88
15:22:37.078 设备发送:07 03 04 20 00 01 84 96
15:22:42.079 设备接收:07 03 02 00 1A B1 8F
15:22:42.101 设备发送:07 03 04 05 00 01 95 5D
15:22:47.111 设备接收:07 03 02 00 00 30 44
15:22:47.133 设备发送:08 03 04 84 00 04 05 89
15:22:52.139 设备接收:08 03 08 13 8B 0A F9 FF C2 0A FA 4A EF
15:22:52.161 设备发送:08 03 04 8D 00 05 14 4B
15:22:57.154 设备接收:08 03 0A 08 EC 10 1F 00 00 00 00 00 00 CB 9C
15:22:57.178 设备发送:08 03 04 98 00 05 05 8F
15:23:02.159 设备接收:08 03 0A 08 EA 10 1A 00 00 00 00 00 00 B5 3C
15:23:02.181 设备发送:08 03 04 A3 00 05 74 42
15:23:07.204 设备接收:08 03 0A 08 F6 10 50 00 00 00 00 00 00 C6 38
15:23:07.216 设备发送:08 03 06 84 00 04 04 31
15:23:12.203 设备接收:08 03 08 00 00 8C 7E 00 0F B9 C1 0E 4E
15:23:12.216 设备发送:08 03 04 04 00 01 C4 62
15:23:17.242 设备接收:08 03 02 00 02 E5 84
15:23:17.262 设备发送:08 03 05 84 00 0F 45 B2
15:23:22.253 设备接收:08 03 1E 1A 8F 01 99 01 16 1B B7 00 BA 00 84 1A F5 01 2E 00 D0 1B 32 01 7C 01 08 1A B7 02 6F 01 AA 06 8D
15:23:22.264 设备发送:08 03 05 93 00 0F F5 B6
15:23:27.293 设备接收:08 03 1E 1E 57 02 78 01 EB 1E 98 01 02 00 CA 1A F1 01 63 00 F5 19 3A 01 75 00 F0 1A 7E 03 03 02 0B F0 E8
15:23:27.301 设备发送:08 03 05 A2 00 0F A4 79
15:23:32.329 设备接收:08 03 1E 00 00 00 08 00 00 00 00 00 04 00 00 00 00 00 00 00 00 00 00 00 00 00 00 00 00 00 00 00 00 6E 6A
15:23:32.351 设备发送:08 03 05 B1 00 03 55 B9
15:23:37.324 设备接收:08 03 06 00 00 00 00 00 00 4B 25
15:23:37.335 设备发送:08 03 04 2B 00 01 F5 AB
15:23:42.362 设备接收:08 03 02 02 85 A4 86
15:23:42.384 设备发送:08 03 04 20 00 01 84 69
15:23:47.355 设备接收:08 03 02 00 33 24 50
15:23:47.416 设备发送:08 03 04 05 00 01 95 A2
15:23:52.387 设备接收:08 03 02 00 00 64 45
15:23:52.407 设备发送:09 03 04 84 00 04 04 58
15:23:57.426 设备接收:09 03 08 13 87 0A 0A FF EE 0A 0A 47 8B
15:23:57.435 设备发送:09 03 04 8D 00 05 15 9A
15:24:02.420 设备接收:09 03 0A 08 ED 0E A1 00 00 00 00 00 00 1A 06
15:24:02.432 设备发送:09 03 04 98 00 05 04 5E
15:24:07.462 设备接收:09 03 0A 08 E8 0E A5 00 00 00 00 00 00 60 96
15:24:07.474 设备发送:09 03 04 A3 00 05 75 93
15:24:12.488 设备接收:09 03 0A 08 FB 0E B8 00 00 00 00 00 00 74 A7
15:24:12.513 设备发送:09 03 06 84 00 04 05 E0
15:24:17.485 设备接收:09 03 08 00 00 7D E6 00 0E 4E 43 A9 DE
15:24:17.495 设备发送:09 03 04 04 00 01 C5 B3
15:24:22.501 设备接收:09 03 02 00 02 D8 44
15:24:22.522 设备发送:09 03 05 84 00 0F 44 63
15:24:27.521 设备接收:09 03 1E 1E CA 00 AA 00 86 1F 13 00 B0 00 8C 1E 87 00 C1 00 97 1F 7D 00 D6 00 AC 1E 27 01 1F 00 DD EE C1
15:24:27.572 设备发送:09 03 05 93 00 0F F4 67
15:24:32.573 设备接收:09 03 1E 1E 28 02 BF 02 1E 1E 2B 01 48 00 FD 1E 15 02 EE 02 41 1E 17 01 53 01 05 1D 9C 01 60 01 0B 16 B8
15:24:32.588 设备发送:09 03 05 A2 00 0F A5 A8
15:24:37.600 设备接收:09 03 1E 00 03 00 00 00 00 00 01 00 03 00 00 00 00 00 00 00 00 00 00 00 00 00 00 00 00 00 00 00 00 07 D4
15:24:37.612 设备发送:09 03 05 B1 00 03 54 68
15:24:42.611 设备接收:09 03 06 00 00 00 00 00 00 46 B5
15:24:42.656 设备发送:09 03 04 2B 00 01 F4 7A
15:24:47.638 设备接收:09 03 02 02 76 D9 03
15:24:47.659 设备发送:09 03 04 20 00 01 85 B8
15:24:52.675 设备接收:09 03 02 00 36 D9 93
15:24:52.696 设备发送:09 03 04 05 00 01 94 73
15:24:57.697 设备接收:09 03 02 00 00 59 85
15:24:57.718 设备发送:0A 03 04 84 00 04 04 6B
15:25:02.717 设备接收:0A 03 08 13 85 01 68 FF D7 01 78 C4 A4 FE
15:25:02.737 设备发送:0A 03 04 8D 00 05 15 A9
15:25:07.755 设备发送:0A 03 04 8D 00 05 15 A9
15:25:12.768 设备发送:0A 03 04 8D 00 05 15 A9
15:25:17.805 设备发送:0A 03 04 98 00 05 04 6D
15:25:22.809 设备发送:0A 03 04 98 00 05 04 6D
15:25:27.822 设备发送:0A 03 04 98 00 05 04 6D
15:25:32.828 设备发送:0A 03 04 A3 00 05 75 A0
15:25:37.858 设备发送:0A 03 04 A3 00 05 75 A0
15:25:42.893 设备发送:0A 03 04 A3 00 05 75 A0
15:25:47.900 设备发送:0A 03 06 84 00 04 05 D3
15:25:52.947 设备发送:0A 03 06 84 00 04 05 D3
15:25:57.957 设备发送:0A 03 06 84 00 04 05 D3
15:26:02.965 设备发送:0A 03 04 04 00 01 C5 80
15:26:07.969 设备发送:0A 03 04 04 00 01 C5 80
15:26:13.007 设备发送:0A 03 04 04 00 01 C5 80
15:26:18.040 设备发送:0A 03 05 84 00 0F 44 50
15:26:23.049 设备发送:0A 03 05 84 00 0F 44 50
15:26:28.066 设备发送:0A 03 05 84 00 0F 44 50
15:26:33.102 设备发送:0A 03 05 93 00 0F F4 54
15:26:38.102 设备发送:0A 03 05 93 00 0F F4 54
15:26:43.128 设备发送:0A 03 05 93 00 0F F4 54
15:26:48.134 设备发送:0A 03 05 A2 00 0F A5 9B
15:26:53.171 设备发送:0A 03 05 A2 00 0F A5 9B
15:26:58.200 设备发送:0A 03 05 A2 00 0F A5 9B
15:27:03.215 设备发送:0A 03 05 B1 00 03 54 5B
15:27:08.240 设备发送:0A 03 05 B1 00 03 54 5B
15:27:13.241 设备发送:0A 03 05 B1 00 03 54 5B
15:27:18.281 设备发送:0A 03 04 2B 00 01 F4 49
15:27:23.283 设备发送:0A 03 04 2B 00 01 F4 49
15:27:28.312 设备发送:0A 03 04 2B 00 01 F4 49
15:27:33.321 设备发送:0A 03 04 20 00 01 85 8B
15:27:38.346 设备发送:0A 03 04 20 00 01 85 8B
15:27:43.379 设备发送:0A 03 04 20 00 01 85 8B
15:27:48.375 设备发送:0A 03 04 05 00 01 94 40
15:27:53.426 设备发送:0A 03 04 05 00 01 94 40
15:27:58.434 设备发送:0A 03 04 05 00 01 94 40
15:28:03.453 设备发送:01 03 04 84 00 04 05 10
15:28:08.430 设备接收:01 03 08 13 85 0C 83 00 17 0C 83 B1 B1
15:28:08.452 设备发送:01 03 04 8D 00 05 14 D2
15:28:13.452 设备接收:01 03 0A 08 E7 12 2B 00 00 00 00 00 00 51 7F
15:28:13.472 设备发送:01 03 04 98 00 05 05 16
15:28:18.485 设备接收:01 03 0A 08 F4 12 32 00 00 00 00 00 00 00 8E
15:28:18.495 设备发送:01 03 04 A3 00 05 74 DB
15:28:23.521 设备接收:01 03 0A 08 F7 12 3D 00 00 00 00 00 00 EB 7E
15:28:23.540 设备发送:01 03 06 84 00 04 04 A8
15:28:28.539 设备接收:01 03 08 00 00 AD 51 00 13 3C 97 D0 CD
15:28:28.560 设备发送:01 03 04 04 00 01 C4 FB
15:28:33.554 设备接收:01 03 02 00 02 39 85
15:28:33.573 设备发送:01 03 05 84 00 0F 45 2B
15:28:38.580 设备接收:01 03 1E 20 CD 02 46 01 E9 20 F7 02 35 01 DC 20 FB 02 1E 01 CA 21 74 02 37 01 E5 17 98 01 98 00 F6 16 28
15:28:38.600 设备发送:01 03 05 93 00 0F F5 2F
15:28:43.581 设备接收:01 03 1E 00 00 00 00 00 00 1A C6 03 52 02 47 1C 95 01 91 01 25 1C B5 01 9E 01 30 00 00 00 03 00 00 14 B4
15:28:43.603 设备发送:01 03 05 A2 00 0F A4 E0
15:28:48.595 设备接收:01 03 1E 00 00 00 00 00 00 00 00 00 00 00 00 00 00 00 00 00 00 00 00 00 00 00 00 00 00 00 00 00 00 D8 BA
15:28:48.616 设备发送:01 03 05 B1 00 03 55 20
15:28:53.617 设备接收:01 03 06 00 00 00 00 00 00 21 75
15:28:53.639 设备发送:01 03 04 2B 00 01 F5 32
15:28:58.663 设备接收:01 03 02 02 CE 38 B0
15:28:58.673 设备发送:01 03 04 20 00 01 84 F0
15:29:03.662 设备接收:01 03 02 00 2C B9 99
15:29:03.674 设备发送:01 03 04 05 00 01 95 3B
15:29:08.698 设备接收:01 03 02 00 00 B8 44
15:29:08.707 设备发送:02 03 04 84 00 04 05 23
15:29:13.698 设备接收:02 03 08 13 85 0B 0C FF EA 0B 0C 08 ED
15:29:13.707 设备发送:02 03 04 8D 00 05 14 E1
15:29:18.736 设备接收:02 03 0A 08 E8 10 2B 00 00 00 00 00 00 94 95
15:29:18.759 设备发送:02 03 04 98 00 05 05 25
15:29:23.739 设备接收:02 03 0A 08 F5 10 20 00 00 00 00 00 00 BB 05
15:29:23.752 设备发送:02 03 04 A3 00 05 74 E8
15:29:28.785 设备接收:02 03 0A 08 F4 10 3C 00 00 00 00 00 00 6B 54
15:29:28.796 设备发送:02 03 06 84 00 04 04 9B
15:29:33.784 设备接收:02 03 08 00 00 A5 C7 00 13 84 42 25 43
15:29:33.793 设备发送:02 03 04 04 00 01 C4 C8
15:29:38.821 设备接收:02 03 02 00 02 7D 85
15:29:38.831 设备发送:02 03 05 84 00 0F 45 18
15:29:43.821 设备接收:02 03 1E 20 AA 00 F8 00 D0 20 D3 00 F2 00 CB 20 B5 00 FC 00 D3 21 68 01 F0 01 A8 21 02 00 F7 00 D1 34 F6
15:29:43.837 设备发送:02 03 05 93 00 0F F5 1C
15:29:48.862 设备接收:02 03 1E 20 C9 00 F1 00 CA 21 3F 01 0C 00 E4 1F D9 03 0B 02 7B 20 47 01 81 01 3E 1F B8 01 A5 01 56 97 48
15:29:48.878 设备发送:02 03 05 A2 00 0F A4 D3
15:29:53.856 设备接收:02 03 1E 00 00 00 04 00 00 00 00 00 00 00 00 00 00 00 00 00 00 00 00 00 00 00 00 00 00 00 00 00 00 92 31
15:29:53.903 设备发送:02 03 05 B1 00 03 55 13
15:29:58.899 设备接收:02 03 06 00 00 00 00 00 00 35 85
15:29:58.914 设备发送:02 03 04 2B 00 01 F5 01
15:30:03.922 设备接收:02 03 02 02 C9 3D 72
15:30:03.937 设备发送:02 03 04 20 00 01 84 C3
15:30:08.937 设备接收:02 03 02 00 42 7C 75
15:30:08.953 设备发送:02 03 04 05 00 01 95 08
15:30:13.950 设备接收:02 03 02 00 00 FC 44
15:30:13.966 设备发送:03 03 04 84 00 04 04 F2
15:30:18.962 设备接收:03 03 08 13 85 0E 81 FF AA 0E 82 A2 BB
15:30:19.000 设备发送:03 03 04 8D 00 05 15 30
15:30:23.981 设备接收:03 03 0A 08 EA 15 27 00 00 00 00 00 00 83 4B
15:30:24.012 设备发送:03 03 04 98 00 05 04 F4
15:30:28.994 设备接收:03 03 0A 08 FB 15 1C 00 00 00 00 00 00 C9 D8
15:30:29.010 设备发送:03 03 04 A3 00 05 75 39
15:30:34.022 设备接收:03 03 0A 08 FA 15 34 00 00 00 00 00 00 6C 4A
15:30:34.040 设备发送:03 03 06 84 00 04 05 4A
15:30:39.054 设备接收:03 03 08 00 00 B6 D4 00 14 0F AB B0 60
15:30:39.070 设备发送:03 03 04 04 00 01 C5 19
15:30:44.073 设备接收:03 03 02 00 02 40 45
15:30:44.088 设备发送:03 03 05 84 00 0F 44 C9
15:30:49.086 设备接收:03 03 1E 1F 8D 03 63 02 BC 1F BF 03 60 02 BE 1F B1 02 E3 02 58 1F 91 02 D1 02 47 18 3E 02 35 01 5F 5C 77
15:30:49.117 设备发送:03 03 05 93 00 0F F4 CD
15:30:54.129 设备接收:03 03 1E 05 37 00 00 00 00 13 12 02 91 01 41 1C 16 01 B5 01 3A 1C 01 01 BC 01 3E 05 39 00 00 00 00 B3 C7
15:30:54.145 设备发送:03 03 05 A2 00 0F A5 02
15:30:59.136 设备接收:03 03 1E 00 0F 00 00 00 00 00 00 00 00 00 00 00 00 00 00 00 00 00 00 00 00 00 00 00 00 00 00 00 00 41 71
15:30:59.152 设备发送:03 03 05 B1 00 03 54 C2
15:31:04.149 设备接收:03 03 06 00 00 00 00 00 00 38 15
15:31:04.165 设备发送:03 03 04 2B 00 01 F4 D0
15:31:09.202 设备接收:03 03 02 02 D1 00 B8
15:31:09.217 设备发送:03 03 04 20 00 01 85 12
15:31:14.200 设备接收:03 03 02 00 25 00 5F
15:31:14.211 设备发送:03 03 04 05 00 01 94 D9
15:31:19.204 设备接收:03 03 02 00 00 C1 84
15:31:19.216 设备发送:04 03 04 84 00 04 05 45
15:31:24.223 设备接收:04 03 08 13 8B 0C 7A 00 16 0C 7A 42 2B
15:31:24.244 设备发送:04 03 04 8D 00 05 14 87
15:31:27.59600

