
10:20:34.852 设备发送:07 03 04 04 00 01 C4 9D
10:20:36.862 设备发送:07 03 04 04 00 01 C4 9D
10:20:38.885 设备发送:07 03 04 04 00 01 C4 9D
10:20:40.922 设备发送:08 03 04 84 00 04 05 89
10:20:42.934 设备发送:08 03 04 84 00 04 05 89
10:20:44.952 设备发送:08 03 04 84 00 04 05 89
10:20:46.966 设备发送:08 03 04 8D 00 21 14 50
10:20:49.000 设备发送:08 03 04 8D 00 21 14 50
10:20:51.002 设备发送:08 03 04 8D 00 21 14 50
10:20:53.025 设备发送:08 03 06 84 00 04 04 31
10:20:55.061 设备发送:08 03 06 84 00 04 04 31
10:20:57.056 设备发送:08 03 06 84 00 04 04 31
10:20:59.083 设备发送:08 03 04 04 00 01 C4 62
10:21:01.101 设备发送:08 03 04 04 00 01 C4 62
10:21:03.127 设备发送:08 03 04 04 00 01 C4 62
10:21:05.145 设备发送:09 03 04 84 00 04 04 58
10:21:07.188 设备发送:09 03 04 84 00 04 04 58
10:21:09.169 设备发送:09 03 04 84 00 04 04 58
10:21:11.201 设备发送:09 03 04 8D 00 21 15 81
10:21:13.243 设备发送:09 03 04 8D 00 21 15 81
10:21:15.264 设备发送:09 03 04 8D 00 21 15 81
10:21:17.276 设备发送:09 03 06 84 00 04 05 E0
10:21:19.305 设备发送:09 03 06 84 00 04 05 E0
10:21:21.319 设备发送:09 03 06 84 00 04 05 E0
10:21:23.346 设备发送:09 03 04 04 00 01 C5 B3
10:21:25.342 设备发送:09 03 04 04 00 01 C5 B3
10:21:27.370 设备发送:09 03 04 04 00 01 C5 B3
10:21:29.416 设备发送:0A 03 04 84 00 04 04 6B
10:21:31.410 设备发送:0A 03 04 84 00 04 04 6B
10:21:33.445 设备发送:0A 03 04 84 00 04 04 6B
10:21:35.455 设备发送:0A 03 04 8D 00 21 15 B2
10:21:37.470 设备发送:0A 03 04 8D 00 21 15 B2
10:21:39.471 设备发送:0A 03 04 8D 00 21 15 B2
10:21:41.503 设备发送:0A 03 06 84 00 04 05 D3
10:21:43.529 设备发送:0A 03 06 84 00 04 05 D3
10:21:45.563 设备发送:0A 03 06 84 00 04 05 D3
10:21:47.581 设备发送:0A 03 04 04 00 01 C5 80
10:21:49.579 设备发送:0A 03 04 04 00 01 C5 80
10:21:51.620 设备发送:0A 03 04 04 00 01 C5 80
10:21:53.628 设备发送:01 03 04 84 00 04 05 10
10:21:55.659 设备发送:01 03 04 84 00 04 05 10
10:21:57.669 设备发送:01 03 04 84 00 04 05 10
10:21:59.697 设备发送:01 03 04 8D 00 21 14 C9
10:22:01.697 设备接收:01 03 42 09 06 0F 84 00 00 00 00 00 00 00 00 00 00 00 00 00 00 00 00 00 00 09 0D 0F 93 00 00 00 00 00 00 00 00 00 00 00 00 00 00 00 00 00 00 09 10 0F A5 00 00 00 00 00 00 00 00 00 00 00 00 00 00 00 00 00 00 87 0D
10:22:01.712 设备发送:01 03 06 84 00 04 04 A8
10:22:03.738 设备发送:01 03 06 84 00 04 04 A8
10:22:05.767 设备发送:01 03 06 84 00 04 04 A8
10:22:07.779 设备发送:01 03 04 04 00 01 C4 FB
10:22:09.793 设备发送:01 03 04 04 00 01 C4 FB
10:22:11.810 设备发送:01 03 04 04 00 01 C4 FB
10:22:13.825 设备发送:02 03 04 84 00 04 05 23
10:22:15.848 设备发送:02 03 04 84 00 04 05 23
10:22:17.869 设备发送:02 03 04 84 00 04 05 23
10:22:19.900 设备发送:02 03 04 8D 00 21 14 FA
10:22:21.891 设备接收:02 03 42 09 07 10 EA 00 00 00 00 00 00 00 00 00 00 00 00 00 00 00 00 00 00 09 12 10 F7 00 00 00 00 00 00 00 00 00 00 00 00 00 00 00 00 00 00 09 10 11 0A 00 00 00 00 00 00 00 00 00 00 00 00 00 00 00 00 00 00 8A EB
10:22:21.906 设备发送:02 03 06 84 00 04 04 9B
10:22:23.936 设备发送:02 03 06 84 00 04 04 9B
10:22:25.932 设备接收:02 03 08 00 00 10 7E 00 13 66 4C 6B 99
10:22:25.948 设备发送:02 03 04 04 00 01 C4 C8
10:22:27.976 设备发送:02 03 04 04 00 01 C4 C8
10:22:29.987 设备发送:02 03 04 04 00 01 C4 C8
10:22:32.026 设备发送:03 03 04 84 00 04 04 F2
10:22:34.053 设备发送:03 03 04 84 00 04 04 F2
10:22:36.046 设备发送:03 03 04 84 00 04 04 F2
10:22:38.076 设备发送:03 03 04 8D 00 21 15 2B
10:22:40.080 设备接收:03 03 42 09 05 13 E4 00 00 00 00 00 00 00 00 00 00 00 00 00 00 00 00 00 00 09 16 13 DE 00 00 00 00 00 00 00 00 00 00 00 00 00 00 00 00 00 00 09 15 13 FB 00 00 00 00 00 00 00 00 00 00 00 00 00 00 00 00 00 00 A2 E3
10:22:40.096 设备发送:03 03 06 84 00 04 05 4A
10:22:42.119 设备发送:03 03 06 84 00 04 05 4A
10:22:44.137 设备发送:03 03 06 84 00 04 05 4A
10:22:46.150 设备发送:03 03 04 04 00 01 C5 19
10:22:48.184 设备发送:03 03 04 04 00 01 C5 19
10:22:50.200 设备发送:03 03 04 04 00 01 C5 19
10:22:52.214 设备发送:04 03 04 84 00 04 05 45
10:22:54.227 设备发送:04 03 04 84 00 04 05 45
10:22:56.263 设备发送:04 03 04 84 00 04 05 45
10:22:58.282 设备发送:04 03 04 8D 00 21 14 9C
10:23:00.287 设备发送:04 03 04 8D 00 21 14 9C
10:23:02.316 设备发送:04 03 04 8D 00 21 14 9C
10:23:04.326 设备发送:04 03 06 84 00 04 04 FD
10:23:06.337 设备发送:04 03 06 84 00 04 04 FD
10:23:08.374 设备发送:04 03 06 84 00 04 04 FD
10:23:10.400 设备发送:04 03 04 04 00 01 C4 AE
10:23:12.407 设备发送:04 03 04 04 00 01 C4 AE
10:23:14.428 设备发送:04 03 04 04 00 01 C4 AE
10:23:16.465 设备发送:05 03 04 84 00 04 04 94
10:23:18.477 设备发送:05 03 04 84 00 04 04 94
10:23:20.484 设备发送:05 03 04 84 00 04 04 94
10:23:22.515 设备发送:05 03 04 8D 00 21 15 4D
10:23:24.528 设备发送:05 03 04 8D 00 21 15 4D
10:23:26.537 设备发送:05 03 04 8D 00 21 15 4D
10:23:28.580 设备发送:05 03 06 84 00 04 05 2C
10:23:30.581 设备发送:05 03 06 84 00 04 05 2C
10:23:32.623 设备发送:05 03 06 84 00 04 05 2C
10:23:34.623 设备发送:05 03 04 04 00 01 C5 7F
10:23:36.668 设备发送:05 03 04 04 00 01 C5 7F
10:23:38.665 设备发送:05 03 04 04 00 01 C5 7F
10:23:40.693 设备发送:06 03 04 84 00 04 04 A7
10:23:42.695 设备发送:06 03 04 84 00 04 04 A7
10:23:44.733 设备发送:06 03 04 84 00 04 04 A7
10:23:46.766 设备发送:06 03 04 8D 00 21 15 7E
10:23:48.774 设备发送:06 03 04 8D 00 21 15 7E
10:23:50.785 设备发送:06 03 04 8D 00 21 15 7E
10:23:52.807 设备发送:06 03 06 84 00 04 05 1F
10:23:54.827 设备发送:06 03 06 84 00 04 05 1F
10:23:56.854 设备发送:06 03 06 84 00 04 05 1F
10:23:58.858 设备发送:06 03 04 04 00 01 C5 4C
10:24:00.876 设备发送:06 03 04 04 00 01 C5 4C
10:24:02.892 设备发送:06 03 04 04 00 01 C5 4C
10:24:04.916 设备发送:07 03 04 84 00 04 05 76
10:24:06.959 设备发送:07 03 04 84 00 04 05 76
10:24:08.957 设备发送:07 03 04 84 00 04 05 76
10:24:11.006 设备发送:07 03 04 8D 00 21 14 AF
10:24:12.999 设备发送:07 03 04 8D 00 21 14 AF
10:24:15.038 设备发送:07 03 04 8D 00 21 14 AF
10:24:17.050 设备发送:07 03 06 84 00 04 04 CE
10:24:19.069 设备发送:07 03 06 84 00 04 04 CE
10:24:21.101 设备发送:07 03 06 84 00 04 04 CE
10:24:23.098 设备发送:07 03 04 04 00 01 C4 9D
10:24:25.134 设备发送:07 03 04 04 00 01 C4 9D
10:24:27.167 设备发送:07 03 04 04 00 01 C4 9D
10:24:29.165 设备发送:08 03 04 84 00 04 05 89
10:24:31.202 设备发送:08 03 04 84 00 04 05 89
10:24:33.220 设备发送:08 03 04 84 00 04 05 89
10:24:35.244 设备发送:08 03 04 8D 00 21 14 50
10:24:37.256 设备发送:08 03 04 8D 00 21 14 50
10:24:39.256 设备发送:08 03 04 8D 00 21 14 50
10:24:41.291 设备发送:08 03 06 84 00 04 04 31
10:24:43.319 设备发送:08 03 06 84 00 04 04 31
10:24:45.318 设备发送:08 03 06 84 00 04 04 31
10:24:47.345 设备发送:08 03 04 04 00 01 C4 62
10:24:49.370 设备发送:08 03 04 04 00 01 C4 62
10:24:51.402 设备发送:08 03 04 04 00 01 C4 62
10:24:53.408 设备发送:09 03 04 84 00 04 04 58
10:24:55.438 设备发送:09 03 04 84 00 04 04 58
10:24:57.454 设备发送:09 03 04 84 00 04 04 58
10:24:59.479 设备发送:09 03 04 8D 00 21 15 81
10:25:01.490 设备发送:09 03 04 8D 00 21 15 81
10:25:03.510 设备发送:09 03 04 8D 00 21 15 81
10:25:05.517 设备发送:09 03 06 84 00 04 05 E0
10:25:07.553 设备发送:09 03 06 84 00 04 05 E0
10:25:09.562 设备发送:09 03 06 84 00 04 05 E0
10:25:11.583 设备发送:09 03 04 04 00 01 C5 B3
10:25:13.621 设备发送:09 03 04 04 00 01 C5 B3
10:25:15.631 设备发送:09 03 04 04 00 01 C5 B3
10:25:17.662 设备发送:0A 03 04 84 00 04 04 6B
10:25:19.663 设备发送:0A 03 04 84 00 04 04 6B
10:25:21.690 设备发送:0A 03 04 84 00 04 04 6B
10:25:23.715 设备发送:0A 03 04 8D 00 21 15 B2
10:25:25.713 设备发送:0A 03 04 8D 00 21 15 B2
10:25:27.737 设备发送:0A 03 04 8D 00 21 15 B2
10:25:29.776 设备发送:0A 03 06 84 00 04 05 D3
10:25:31.776 设备发送:0A 03 06 84 00 04 05 D3
10:25:33.812 设备发送:0A 03 06 84 00 04 05 D3
10:25:35.824 设备发送:0A 03 04 04 00 01 C5 80
10:25:37.848 设备发送:0A 03 04 04 00 01 C5 80
10:25:39.865 设备发送:0A 03 04 04 00 01 C5 80
10:25:41.873 设备发送:01 03 04 84 00 04 05 10
10:25:43.911 设备发送:01 03 04 84 00 04 05 10
10:25:45.930 设备发送:01 03 04 84 00 04 05 10
10:25:47.942 设备发送:01 03 04 8D 00 21 14 C9
10:25:49.938 设备接收:01 03 42 09 0A 0F 7A 00 00 00 00 00 00 00 00 00 00 00 00 00 00 00 00 00 00 09 0E 0F 85 00 00 00 00 00 00 00 00 00 00 00 00 00 00 00 00 00 00 09 11 0F 9A 00 00 00 00 00 00 00 00 00 00 00 00 00 00 00 00 00 00 8F 2F
10:25:49.960 设备发送:01 03 06 84 00 04 04 A8
10:25:51.995 设备发送:01 03 06 84 00 04 04 A8
10:25:53.996 设备发送:01 03 06 84 00 04 04 A8
10:25:56.029 设备发送:01 03 04 04 00 01 C4 FB
10:25:58.060 设备发送:01 03 04 04 00 01 C4 FB
10:26:00.071 设备发送:01 03 04 04 00 01 C4 FB
10:26:02.098 设备发送:02 03 04 84 00 04 05 23
10:26:04.108 设备发送:02 03 04 84 00 04 05 23
10:26:06.125 设备发送:02 03 04 84 00 04 05 23
10:26:08.141 设备发送:02 03 04 8D 00 21 14 FA
10:26:10.153 设备接收:02 03 42 09 07 0E 70 00 00 00 00 00 00 00 00 00 00 00 00 00 00 00 00 00 00 09 0D 0E 7B 00 00 00 00 00 00 00 00 00 00 00 00 00 00 00 00 00 00 09 0E 0E 9A 00 00 00 00 00 00 00 00 00 00 00 00 00 00 00 00 00 00 AB 94
10:26:10.173 设备发送:02 03 06 84 00 04 04 9B
10:26:12.204 设备发送:02 03 06 84 00 04 04 9B
10:26:14.203 设备发送:02 03 06 84 00 04 04 9B
10:26:16.240 设备发送:02 03 04 04 00 01 C4 C8
10:26:18.247 设备发送:02 03 04 04 00 01 C4 C8
10:26:20.284 设备发送:02 03 04 04 00 01 C4 C8
10:26:22.297 设备发送:03 03 04 84 00 04 04 F2
10:26:24.312 设备发送:03 03 04 84 00 04 04 F2
10:26:26.344 设备发送:03 03 04 84 00 04 04 F2
10:26:28.364 设备发送:03 03 04 8D 00 21 15 2B
10:26:30.362 设备接收:03 03 42 09 05 0F F4 00 00 00 00 00 00 00 00 00 00 00 00 00 00 00 00 00 00 09 0E 0F EE 00 00 00 00 00 00 00 00 00 00 00 00 00 00 00 00 00 00 09 10 10 14 00 00 00 00 00 00 00 00 00 00 00 00 00 00 00 00 00 00 0F 5A
10:26:30.371 设备发送:03 03 06 84 00 04 05 4A
10:26:32.392 设备发送:03 03 06 84 00 04 05 4A
10:26:34.407 设备发送:03 03 06 84 00 04 05 4A
10:26:36.444 设备发送:03 03 04 04 00 01 C5 19
10:26:38.471 设备发送:03 03 04 04 00 01 C5 19
10:26:40.473 设备发送:03 03 04 04 00 01 C5 19
10:26:42.501 设备发送:04 03 04 84 00 04 05 45
10:26:44.533 设备发送:04 03 04 84 00 04 05 45
10:26:46.542 设备发送:04 03 04 84 00 04 05 45
10:26:48.546 设备发送:04 03 04 8D 00 21 14 9C
10:26:50.592 设备发送:04 03 04 8D 00 21 14 9C
10:26:52.605 设备发送:04 03 04 8D 00 21 14 9C
10:26:54.620 设备发送:04 03 06 84 00 04 04 FD
10:26:56.626 设备发送:04 03 06 84 00 04 04 FD
10:26:58.646 设备发送:04 03 06 84 00 04 04 FD
10:27:00.674 设备发送:04 03 04 04 00 01 C4 AE
10:27:02.700 设备发送:04 03 04 04 00 01 C4 AE
10:27:04.722 设备发送:04 03 04 04 00 01 C4 AE
10:27:06.737 设备发送:05 03 04 84 00 04 04 94
10:27:08.752 设备发送:05 03 04 84 00 04 04 94
10:27:10.771 设备发送:05 03 04 84 00 04 04 94
10:27:12.793 设备发送:05 03 04 8D 00 21 15 4D
10:27:14.825 设备发送:05 03 04 8D 00 21 15 4D
10:27:16.843 设备发送:05 03 04 8D 00 21 15 4D
10:27:18.856 设备发送:05 03 06 84 00 04 05 2C
10:27:20.864 设备发送:05 03 06 84 00 04 05 2C
10:27:22.890 设备发送:05 03 06 84 00 04 05 2C
10:27:24.926 设备发送:05 03 04 04 00 01 C5 7F
10:27:26.935 设备发送:05 03 04 04 00 01 C5 7F
10:27:28.971 设备发送:05 03 04 04 00 01 C5 7F
10:27:30.74700

