
14:01:44.934 设备接收:08 03 08 13 87 15 9B FF D2 15 9B B5 55
14:01:44.943 设备发送:08 03 04 8D 00 21 14 50
14:01:45.772 设备接收:08 03 42 08 F5 1F 78 00 00 00 00 00 00 00 00 00 00 00 00 00 00 00 00 00 00 08 EC 1F 75 00 00 00 00 00 00 00 00 00 00 00 00 00 00 00 00 00 00 08 FA 1F 7F 00 00 00 00 00 00 00 00 00 00 00 00 00 00 00 00 00 00 13 F8
14:01:45.783 设备发送:08 03 06 84 00 04 04 31
14:01:46.600 设备接收:08 03 08 00 00 6E C2 00 0F 19 8C F0 22
14:01:46.616 设备发送:08 03 04 04 00 01 C4 62
14:01:47.400 设备接收:08 03 02 00 02 E5 84
14:01:47.416 设备发送:09 03 04 84 00 04 04 58
14:01:48.229 设备接收:09 03 08 13 88 13 BA FF D5 13 BB 41 71
14:01:48.244 设备发送:09 03 04 8D 00 21 15 81
14:01:49.054 设备接收:09 03 42 09 00 1C 91 00 00 00 00 00 00 00 00 00 00 00 00 00 00 00 00 00 00 08 F5 1C 95 00 00 00 00 00 00 00 00 00 00 00 00 00 00 00 00 00 00 09 07 1C 97 00 00 00 00 00 00 00 00 00 00 00 00 00 00 00 00 00 00 3E 4B
14:01:49.069 设备发送:09 03 06 84 00 04 05 E0
14:01:49.880 设备接收:09 03 08 00 00 63 D0 00 0D BD A7 D6 DF
14:01:49.896 设备发送:09 03 04 04 00 01 C5 B3
14:01:50.677 设备接收:09 03 02 00 02 D8 44
14:01:50.724 设备发送:0A 03 04 84 00 04 04 6B
14:01:51.536 设备发送:0A 03 04 84 00 04 04 6B
14:01:52.361 设备发送:0A 03 04 84 00 04 04 6B
14:01:53.167 设备发送:0A 03 04 8D 00 21 15 B2
14:01:53.991 设备发送:0A 03 04 8D 00 21 15 B2
14:01:54.818 设备发送:0A 03 04 8D 00 21 15 B2
14:01:55.631 设备发送:0A 03 06 84 00 04 05 D3
14:01:56.446 设备发送:0A 03 06 84 00 04 05 D3
14:01:57.273 设备发送:0A 03 06 84 00 04 05 D3
14:01:58.083 设备发送:0A 03 04 04 00 01 C5 80
14:01:58.915 设备发送:0A 03 04 04 00 01 C5 80
14:01:59.728 设备发送:0A 03 04 04 00 01 C5 80
14:02:00.546 设备发送:01 03 04 84 00 04 05 10
14:02:01.358 设备接收:01 03 08 13 89 18 97 FF CF 18 97 F1 86
14:02:01.374 设备发送:01 03 04 8D 00 21 14 C9
14:02:02.168 设备接收:01 03 42 09 02 23 4C 00 00 00 00 00 00 00 00 00 00 00 00 00 00 00 00 00 00 09 20 23 50 00 00 00 00 00 00 00 00 00 00 00 00 00 00 00 00 00 00 09 16 23 5B 00 00 00 00 00 00 00 00 00 00 00 00 00 00 00 00 00 00 A4 24
14:02:02.183 设备发送:01 03 06 84 00 04 04 A8
14:02:02.994 设备接收:01 03 08 00 00 7D A6 00 12 7B 58 14 EC
14:02:03.009 设备发送:01 03 04 04 00 01 C4 FB
14:02:03.820 设备接收:01 03 02 00 02 39 85
14:02:03.836 设备发送:02 03 04 84 00 04 05 23
14:02:04.618 设备接收:02 03 08 13 88 19 95 FF CB 19 95 57 83
14:02:04.650 设备发送:02 03 04 8D 00 21 14 FA
14:02:05.462 设备接收:02 03 42 09 04 24 AA 00 00 00 00 00 00 00 00 00 00 00 00 00 00 00 00 00 00 09 26 24 BC 00 00 00 00 00 00 00 00 00 00 00 00 00 00 00 00 00 00 09 14 24 C1 00 00 00 00 00 00 00 00 00 00 00 00 00 00 00 00 00 00 AB 7B
14:02:05.477 设备发送:02 03 06 84 00 04 04 9B
14:02:06.277 设备接收:02 03 08 00 00 80 DC 00 12 C9 84 A2 B6
14:02:06.293 设备发送:02 03 04 04 00 01 C4 C8
14:02:07.100 设备接收:02 03 02 00 02 7D 85
14:02:07.131 设备发送:03 03 04 84 00 04 04 F2
14:02:07.913 设备接收:03 03 08 13 88 1B 93 00 2F 1B 93 2B DC
14:02:07.929 设备发送:03 03 04 8D 00 21 15 2B
14:02:08.742 设备接收:03 03 42 09 03 27 80 00 00 00 00 00 00 00 00 00 00 00 00 00 00 00 00 00 00 09 2B 27 6E 00 00 00 00 00 00 00 00 00 00 00 00 00 00 00 00 00 00 09 1A 27 7A 00 00 00 00 00 00 00 00 00 00 00 00 00 00 00 00 00 00 F4 C4
14:02:08.756 设备发送:03 03 06 84 00 04 05 4A
14:02:09.563 设备接收:03 03 08 00 00 8C D7 00 13 40 47 75 46
14:02:09.579 设备发送:03 03 04 04 00 01 C5 19
14:02:10.357 设备接收:03 03 02 00 02 40 45
14:02:10.404 设备发送:04 03 04 84 00 04 05 45
14:02:11.218 设备接收:04 03 08 13 89 17 63 FF 75 17 64 35 30
14:02:11.233 设备发送:04 03 04 8D 00 21 14 9C
14:02:12.044 设备接收:04 03 42 09 0F 21 A8 00 00 00 00 00 00 00 00 00 00 00 00 00 00 00 00 00 00 08 FE 21 9B 00 00 00 00 00 00 00 00 00 00 00 00 00 00 00 00 00 00 09 1D 21 9A 00 00 00 00 00 00 00 00 00 00 00 00 00 00 00 00 00 00 CB 72
14:02:12.060 设备发送:04 03 06 84 00 04 04 FD
14:02:12.823 设备接收:04 03 08 00 00 74 DB 00 10 9D C0 83 B9
14:02:12.869 设备发送:04 03 04 04 00 01 C4 AE
14:02:13.677 设备接收:04 03 02 00 02 F5 85
14:02:13.693 设备发送:05 03 04 84 00 04 04 94
14:02:14.502 设备接收:05 03 08 13 88 13 9B FF D4 13 9B 92 3E
14:02:14.517 设备发送:05 03 04 8D 00 21 15 4D
14:02:15.284 设备接收:05 03 42 09 03 1C 41 00 00 00 00 00 00 00 00 00 00 00 00 00 00 00 00 00 00 09 14 1C 2C 00 00 00 00 00 00 00 00 00 00 00 00 00 00 00 00 00 00 09 10 1C 38 00 00 00 00 00 00 00 00 00 00 00 00 00 00 00 00 00 00 2D F6
14:02:15.300 设备发送:05 03 06 84 00 04 05 2C
14:02:16.127 设备接收:05 03 08 00 00 62 0B 00 0E 07 82 CE F6
14:02:16.143 设备发送:05 03 04 04 00 01 C5 7F
14:02:16.925 设备接收:05 03 02 00 02 C8 45
14:02:16.941 设备发送:06 03 04 84 00 04 04 A7
14:02:17.755 设备接收:06 03 08 13 88 13 30 00 1F 13 30 B8 F7
14:02:17.771 设备发送:06 03 04 8D 00 21 15 7E
14:02:18.585 设备接收:06 03 42 09 07 1B A9 00 00 00 00 00 00 00 00 00 00 00 00 00 00 00 00 00 00 09 14 1B 9D 00 00 00 00 00 00 00 00 00 00 00 00 00 00 00 00 00 00 09 13 1B B2 00 00 00 00 00 00 00 00 00 00 00 00 00 00 00 00 00 00 7F AC
14:02:18.600 设备发送:06 03 06 84 00 04 05 1F
14:02:19.416 设备接收:06 03 08 00 00 5E E5 00 0D FC 8A 9E 6F
14:02:19.432 设备发送:06 03 04 04 00 01 C5 4C
14:02:20.249 设备接收:06 03 02 00 02 8C 45
14:02:20.265 设备发送:07 03 04 84 00 04 05 76
14:02:21.045 设备接收:07 03 08 13 88 0A 4A FF D7 0A 50 DD 9A
14:02:21.061 设备发送:07 03 04 8D 00 21 14 AF
14:02:21.875 设备接收:07 03 42 09 04 0E E4 00 00 00 00 00 00 00 00 00 00 00 00 00 00 00 00 00 00 09 05 0E E9 00 00 00 00 00 00 00 00 00 00 00 00 00 00 00 00 00 00 09 05 0E E8 00 00 00 00 00 00 00 00 00 00 00 00 00 00 00 00 00 00 E3 3B
14:02:21.890 设备发送:07 03 06 84 00 04 04 CE
14:02:22.715 设备接收:07 03 08 00 00 34 62 00 06 ED 8E 5B D6
14:02:22.731 设备发送:07 03 04 04 00 01 C4 9D
14:02:23.508 设备接收:07 03 02 00 02 B1 85
14:02:23.524 设备发送:08 03 04 84 00 04 05 89
14:02:24.345 设备接收:08 03 08 13 88 15 91 FF 7E 15 92 D2 73
14:02:24.360 设备发送:08 03 04 8D 00 21 14 50
14:02:25.143 设备接收:08 03 42 08 F2 1F 78 00 00 00 00 00 00 00 00 00 00 00 00 00 00 00 00 00 00 08 E9 1F 75 00 00 00 00 00 00 00 00 00 00 00 00 00 00 00 00 00 00 08 F7 1F 7C 00 00 00 00 00 00 00 00 00 00 00 00 00 00 00 00 00 00 D0 97
14:02:25.159 设备发送:08 03 06 84 00 04 04 31
14:02:25.957 设备接收:08 03 08 00 00 6E FC 00 0F 19 92 59 EF
14:02:25.973 设备发送:08 03 04 04 00 01 C4 62
14:02:26.788 设备接收:08 03 02 00 02 E5 84
14:02:26.803 设备发送:09 03 04 84 00 04 04 58
14:02:27.614 设备接收:09 03 08 13 87 13 C2 00 20 13 C2 FF BF
14:02:27.629 设备发送:09 03 04 8D 00 21 15 81
14:02:28.422 设备接收:09 03 42 08 FF 1C A5 00 00 00 00 00 00 00 00 00 00 00 00 00 00 00 00 00 00 08 F4 1C A4 00 00 00 00 00 00 00 00 00 00 00 00 00 00 00 00 00 00 09 07 1C AC 00 00 00 00 00 00 00 00 00 00 00 00 00 00 00 00 00 00 99 9F
14:02:28.453 设备发送:09 03 06 84 00 04 05 E0
14:02:29.263 设备接收:09 03 08 00 00 64 05 00 0D BD AC 9B 7D
14:02:29.279 设备发送:09 03 04 04 00 01 C5 B3
14:02:30.071 设备接收:09 03 02 00 02 D8 44
14:02:30.087 设备发送:0A 03 04 84 00 04 04 6B
14:02:30.929 设备发送:0A 03 04 84 00 04 04 6B
14:02:31.741 设备发送:0A 03 04 84 00 04 04 6B
14:02:32.566 设备发送:0A 03 04 8D 00 21 15 B2
14:02:33.380 设备发送:0A 03 04 8D 00 21 15 B2
14:02:34.206 设备发送:0A 03 04 8D 00 21 15 B2
14:02:35.015 设备发送:0A 03 06 84 00 04 05 D3
14:02:35.826 设备发送:0A 03 06 84 00 04 05 D3
14:02:36.636 设备发送:0A 03 06 84 00 04 05 D3
14:02:37.465 设备发送:0A 03 04 04 00 01 C5 80
14:02:38.306 设备发送:0A 03 04 04 00 01 C5 80
14:02:39.115 设备发送:0A 03 04 04 00 01 C5 80
14:02:39.944 设备发送:01 03 04 84 00 04 05 10
14:02:40.724 设备接收:01 03 08 13 85 18 61 FF 6E 18 63 A5 F6
14:02:40.740 设备发送:01 03 04 8D 00 21 14 C9
14:02:41.566 设备接收:01 03 42 09 00 23 10 00 00 00 00 00 00 00 00 00 00 00 00 00 00 00 00 00 00 09 1E 23 14 00 00 00 00 00 00 00 00 00 00 00 00 00 00 00 00 00 00 09 14 23 19 00 00 00 00 00 00 00 00 00 00 00 00 00 00 00 00 00 00 8E DD
14:02:41.582 设备发送:01 03 06 84 00 04 04 A8
14:02:42.392 设备接收:01 03 08 00 00 7D EA 00 12 7B 5F 44 E0
14:02:42.408 设备发送:01 03 04 04 00 01 C4 FB
14:02:43.204 设备接收:01 03 02 00 02 39 85
14:02:43.219 设备发送:02 03 04 84 00 04 05 23
14:02:44.032 设备接收:02 03 08 13 84 19 81 FF CA 19 81 FA 4F
14:02:44.050 设备发送:02 03 04 8D 00 21 14 FA
14:02:44.844 设备接收:02 03 42 09 03 24 98 00 00 00 00 00 00 00 00 00 00 00 00 00 00 00 00 00 00 09 24 24 A2 00 00 00 00 00 00 00 00 00 00 00 00 00 00 00 00 00 00 09 11 24 A3 00 00 00 00 00 00 00 00 00 00 00 00 00 00 00 00 00 00 F4 D7
14:02:44.859 设备发送:02 03 06 84 00 04 04 9B
14:02:45.668 设备接收:02 03 08 00 00 81 24 00 12 C9 8C 03 75
14:02:45.682 设备发送:02 03 04 04 00 01 C4 C8
14:02:46.477 设备接收:02 03 02 00 02 7D 85
14:02:46.492 设备发送:03 03 04 84 00 04 04 F2
14:02:47.286 设备接收:03 03 08 13 85 1B 87 00 31 1B 87 A7 16
14:02:47.302 设备发送:03 03 04 8D 00 21 15 2B
14:02:48.128 设备接收:03 03 42 09 03 27 72 00 00 00 00 00 00 00 00 00 00 00 00 00 00 00 00 00 00 09 2C 27 58 00 00 00 00 00 00 00 00 00 00 00 00 00 00 00 00 00 00 09 1A 27 6D 00 00 00 00 00 00 00 00 00 00 00 00 00 00 00 00 00 00 12 B4
14:02:48.144 设备发送:03 03 06 84 00 04 05 4A
14:02:48.954 设备接收:03 03 08 00 00 8D 25 00 13 40 4F 4C 84
14:02:48.969 设备发送:03 03 04 04 00 01 C5 19
14:02:49.751 设备接收:03 03 02 00 02 40 45
14:02:49.766 设备发送:04 03 04 84 00 04 05 45
14:02:50.589 设备接收:04 03 08 13 85 17 62 FF CB 17 62 24 D6
14:02:50.605 设备发送:04 03 04 8D 00 21 14 9C
14:02:51.400 设备接收:04 03 42 09 0E 21 A2 00 00 00 00 00 00 00 00 00 00 00 00 00 00 00 00 00 00 08 FC 21 97 00 00 00 00 00 00 00 00 00 00 00 00 00 00 00 00 00 00 09 1B 21 95 00 00 00 00 00 00 00 00 00 00 00 00 00 00 00 00 00 00 EB 8C
14:02:51.415 设备发送:04 03 06 84 00 04 04 FD
14:02:52.244 设备接收:04 03 08 00 00 75 1D 00 10 9D C7 4B BB
14:02:52.260 设备发送:04 03 04 04 00 01 C4 AE
14:02:53.043 设备接收:04 03 02 00 02 F5 85
14:02:53.059 设备发送:05 03 04 84 00 04 04 94
14:02:53.857 设备接收:05 03 08 13 85 13 A9 00 20 13 A9 87 09
14:02:53.872 设备发送:05 03 04 8D 00 21 15 4D
14:02:54.701 设备接收:05 03 42 09 02 1C 63 00 00 00 00 00 00 00 00 00 00 00 00 00 00 00 00 00 00 09 14 1C 4A 00 00 00 00 00 00 00 00 00 00 00 00 00 00 00 00 00 00 09 10 1C 52 00 00 00 00 00 00 00 00 00 00 00 00 00 00 00 00 00 00 D3 50
14:02:54.717 设备发送:05 03 06 84 00 04 05 2C
14:02:55.527 设备接收:05 03 08 00 00 62 40 00 0E 07 88 EA FF
14:02:55.543 设备发送:05 03 04 04 00 01 C5 7F
14:02:56.328 设备接收:05 03 02 00 02 C8 45
14:02:56.344 设备发送:06 03 04 84 00 04 04 A7
14:02:57.125 设备接收:06 03 08 13 85 13 45 00 1F 13 45 28 1B
14:02:57.172 设备发送:06 03 04 8D 00 21 15 7E
14:02:57.982 设备接收:06 03 42 09 05 1B C4 00 00 00 00 00 00 00 00 00 00 00 00 00 00 00 00 00 00 09 13 1B BD 00 00 00 00 00 00 00 00 00 00 00 00 00 00 00 00 00 00 09 12 1B CF 00 00 00 00 00 00 00 00 00 00 00 00 00 00 00 00 00 00 CE 45
14:02:57.998 设备发送:06 03 06 84 00 04 05 1F
14:02:58.781 设备接收:06 03 08 00 00 5F 1C 00 0D FC 8F C3 A9
14:02:58.797 设备发送:06 03 04 04 00 01 C5 4C
14:02:59.595 设备接收:06 03 02 00 02 8C 45
14:02:59.642 设备发送:07 03 04 84 00 04 05 76
14:03:00.424 设备接收:07 03 08 13 85 0A 51 FF D7 0A 58 64 9E
14:03:00.455 设备发送:07 03 04 8D 00 21 14 AF
14:03:01.271 设备接收:07 03 42 09 03 0E EA 00 00 00 00 00 00 00 00 00 00 00 00 00 00 00 00 00 00 09 05 0E F6 00 00 00 00 00 00 00 00 00 00 00 00 00 00 00 00 00 00 09 04 0E F8 00 00 00 00 00 00 00 00 00 00 00 00 00 00 00 00 00 00 65 51
14:03:01.287 设备发送:07 03 06 84 00 04 04 CE
14:03:02.078 设备接收:07 03 08 00 00 34 7E 00 06 ED 91 CB DC
14:03:02.093 设备发送:07 03 04 04 00 01 C4 9D
14:03:02.888 设备接收:07 03 02 00 02 B1 85
14:03:02.904 设备发送:08 03 04 84 00 04 05 89
14:03:03.713 设备接收:08 03 08 13 86 15 9B FF 7E 15 9C 24 76
14:03:03.728 设备发送:08 03 04 8D 00 21 14 50
14:03:04.526 设备接收:08 03 42 08 F1 1F 65 00 00 00 00 00 00 00 00 00 00 00 00 00 00 00 00 00 00 08 EB 1F 6E 00 00 00 00 00 00 00 00 00 00 00 00 00 00 00 00 00 00 08 FA 1F 7C 00 00 00 00 00 00 00 00 00 00 00 00 00 00 00 00 00 00 D0 01
14:03:04.541 设备发送:08 03 06 84 00 04 04 31
14:03:05.335 设备接收:08 03 08 00 00 6F 39 00 0F 19 98 14 28
14:03:05.351 设备发送:08 03 04 04 00 01 C4 62
14:03:06.149 设备接收:08 03 02 00 02 E5 84
14:03:06.196 设备发送:09 03 04 84 00 04 04 58
14:03:07.006 设备接收:09 03 08 13 85 13 C3 00 21 13 C3 71 BF
14:03:07.022 设备发送:09 03 04 8D 00 21 15 81
14:03:07.803 设备接收:09 03 42 08 FD 1C A5 00 00 00 00 00 00 00 00 00 00 00 00 00 00 00 00 00 00 08 F3 1C AF 00 00 00 00 00 00 00 00 00 00 00 00 00 00 00 00 00 00 09 05 1C AC 00 00 00 00 00 00 00 00 00 00 00 00 00 00 00 00 00 00 A8 F7
14:03:07.818 设备发送:09 03 06 84 00 04 05 E0
14:03:08.621 设备接收:09 03 08 00 00 64 3D 00 0D BD B2 BA B0
14:03:08.642 设备发送:09 03 04 04 00 01 C5 B3
14:03:09.430 设备接收:09 03 02 00 02 D8 44
14:03:09.441 设备发送:0A 03 04 84 00 04 04 6B
14:03:10.274 设备发送:0A 03 04 84 00 04 04 6B
14:03:11.102 设备发送:0A 03 04 84 00 04 04 6B
14:03:11.908 设备发送:0A 03 04 8D 00 21 15 B2
14:03:12.735 设备发送:0A 03 04 8D 00 21 15 B2
14:03:13.555 设备发送:0A 03 04 8D 00 21 15 B2
14:03:14.392 设备发送:0A 03 06 84 00 04 05 D3
14:03:15.194 设备发送:0A 03 06 84 00 04 05 D3
14:03:16.019 设备发送:0A 03 06 84 00 04 05 D3
14:03:16.826 设备发送:0A 03 04 04 00 01 C5 80
14:03:17.660 设备发送:0A 03 04 04 00 01 C5 80
14:03:18.469 设备发送:0A 03 04 04 00 01 C5 80
14:03:19.304 设备发送:01 03 04 84 00 04 05 10
14:03:20.095 设备接收:01 03 08 13 88 18 A6 FF CD 18 A6 FC 96
14:03:20.104 设备发送:01 03 04 8D 00 21 14 C9
14:03:20.911 设备接收:01 03 42 09 01 23 04 00 00 00 00 00 00 00 00 00 00 00 00 00 00 00 00 00 00 09 1D 23 04 00 00 00 00 00 00 00 00 00 00 00 00 00 00 00 00 00 00 09 15 23 10 00 00 00 00 00 00 00 00 00 00 00 00 00 00 00 00 00 00 49 56
14:03:20.951 设备发送:01 03 06 84 00 04 04 A8
14:03:21.13700

