
10:33:17.862 设备接收:01 03 08 13 89 1A 96 FF C8 1A 96 BC C5
10:33:17.869 设备发送:01 03 04 8D 00 05 14 D2
10:33:22.876 设备接收:01 03 0A 09 17 25 C9 00 00 00 00 00 00 84 42
10:33:22.916 设备发送:01 03 04 98 00 05 05 16
10:33:27.929 设备接收:01 03 0A 09 39 25 AE 00 00 00 00 00 00 47 25
10:33:27.938 设备发送:01 03 04 A3 00 05 74 DB
10:33:32.953 设备接收:01 03 0A 09 2E 25 DE 00 00 00 00 00 00 DD 12
10:33:32.975 设备发送:01 03 06 84 00 04 04 A8
10:33:37.988 设备接收:01 03 08 00 00 21 98 00 13 2E 9F 1E B7
10:33:38.011 设备发送:01 03 04 04 00 01 C4 FB
10:33:43.029 设备接收:01 03 02 00 02 39 85
10:33:43.038 设备发送:01 03 05 84 00 0F 45 2B
10:33:48.032 设备接收:01 03 1E 20 A3 05 47 04 69 1F B5 05 96 04 88 20 A9 05 33 04 59 1F 69 05 9B 04 82 17 20 02 E8 01 B9 11 16
10:33:48.094 设备发送:01 03 05 93 00 0F F5 2F
10:33:53.073 设备接收:01 03 1E 00 00 00 00 00 00 1A 27 05 F2 03 FB 1B F3 02 E9 02 15 1C 63 02 EC 02 1F 00 00 00 04 00 00 1C A4
10:33:53.114 设备发送:01 03 05 A2 00 0F A4 E0
10:33:58.108 设备接收:01 03 1E 00 00 00 00 00 00 00 00 00 00 00 00 00 00 00 00 00 00 00 00 00 00 00 00 00 00 00 00 00 00 D8 BA
10:33:58.130 设备发送:01 03 05 B1 00 03 55 20
10:34:03.153 设备接收:01 03 06 00 00 00 00 00 00 21 75
10:34:03.164 设备发送:01 03 04 2B 00 01 F5 32
10:34:08.151 设备接收:01 03 02 02 CE 38 B0
10:34:08.193 设备发送:01 03 04 20 00 01 84 F0
10:34:13.176 设备接收:01 03 02 00 32 39 91
10:34:13.230 设备发送:01 03 04 05 00 01 95 3B
10:34:18.208 设备接收:01 03 02 00 00 B8 44
10:34:18.259 设备发送:02 03 04 84 00 04 05 23
10:34:23.246 设备接收:02 03 08 13 8C 19 9D FF CB 19 9D F2 44
10:34:23.259 设备发送:02 03 04 8D 00 05 14 E1
10:34:28.286 设备接收:02 03 0A 09 17 24 7C 00 00 00 00 00 00 A4 86
10:34:28.307 设备发送:02 03 04 98 00 05 05 25
10:34:33.289 设备接收:02 03 0A 09 3C 24 8A 00 00 00 00 00 00 D8 78
10:34:33.335 设备发送:02 03 04 A3 00 05 74 E8
10:34:38.330 设备接收:02 03 0A 09 2A 24 96 00 00 00 00 00 00 E3 D9
10:34:38.346 设备发送:02 03 06 84 00 04 04 9B
10:34:43.381 设备接收:02 03 08 00 00 20 38 00 13 76 E7 AB D9
10:34:43.397 设备发送:02 03 04 04 00 01 C4 C8
10:34:48.377 设备接收:02 03 02 00 02 7D 85
10:34:48.428 设备发送:02 03 05 84 00 0F 45 18
10:34:53.434 设备接收:02 03 1E 1F 6C 02 C2 02 38 1F 62 02 B9 02 30 1F 51 02 C1 02 35 1F 39 05 7D 04 63 1F 37 02 BA 02 2E B0 C0
10:34:53.455 设备发送:02 03 05 93 00 0F F5 1C
10:34:58.437 设备接收:02 03 1E 1F 61 02 B2 02 2A 1F 3E 02 C2 02 35 1F 3B 05 9E 04 7E 1F 56 02 C9 02 3C 1F 90 02 DA 02 4D 42 78
10:34:58.488 设备发送:02 03 05 A2 00 0F A4 D3
10:35:03.489 设备接收:02 03 1E 00 00 00 04 00 00 00 00 00 00 00 00 00 00 00 00 00 00 00 00 00 00 00 00 00 00 00 00 00 00 92 31
10:35:03.511 设备发送:02 03 05 B1 00 03 55 13
10:35:08.509 设备接收:02 03 06 00 00 00 00 00 00 35 85
10:35:08.540 设备发送:02 03 04 2B 00 01 F5 01
10:35:13.563 设备接收:02 03 02 02 C9 3D 72
10:35:13.572 设备发送:02 03 04 20 00 01 84 C3
10:35:18.556 设备接收:02 03 02 00 44 FC 77
10:35:18.597 设备发送:02 03 04 05 00 01 95 08
10:35:23.603 设备接收:02 03 02 00 00 FC 44
10:35:23.613 设备发送:03 03 04 84 00 04 04 F2
10:35:28.628 设备接收:03 03 08 13 8B 1B EF FF 5C 1B F1 09 30
10:35:28.639 设备发送:03 03 04 8D 00 05 15 30
10:35:33.634 设备接收:03 03 0A 09 16 27 B6 00 00 00 00 00 00 81 8E
10:35:33.677 设备发送:03 03 04 98 00 05 04 F4
10:35:38.674 设备接收:03 03 0A 09 40 27 99 00 00 00 00 00 00 88 EF
10:35:38.724 设备发送:03 03 04 A3 00 05 75 39
10:35:43.729 设备接收:03 03 0A 09 2F 27 CD 00 00 00 00 00 00 74 D8
10:35:43.737 设备发送:03 03 06 84 00 04 05 4A
10:35:48.754 设备接收:03 03 08 00 00 26 F6 00 14 01 48 10 DE
10:35:48.763 设备发送:03 03 04 04 00 01 C5 19
10:35:53.759 设备接收:03 03 02 00 02 40 45
10:35:53.809 设备发送:03 03 05 84 00 0F 44 C9
10:35:58.804 设备接收:03 03 1E 1F 3D 06 00 04 CC 1F 47 05 FB 04 CA 1F 11 05 E7 04 B2 1F 19 05 ED 04 B8 16 FC 05 FD 03 86 AE 20
10:35:58.826 设备发送:03 03 05 93 00 0F F4 CD
10:36:03.827 设备接收:03 03 1E 05 20 00 00 00 00 13 90 04 57 02 2C 1B C4 03 07 02 27 1B D6 03 05 02 27 05 27 00 00 00 00 AE C6
10:36:03.869 设备发送:03 03 05 A2 00 0F A5 02
10:36:08.871 设备接收:03 03 1E 00 0F 00 00 00 00 00 00 00 00 00 00 00 00 00 00 00 00 00 00 00 00 00 00 00 00 00 00 00 00 41 71
10:36:08.881 设备发送:03 03 05 B1 00 03 54 C2
10:36:13.887 设备接收:03 03 06 00 00 00 00 00 00 38 15
10:36:13.940 设备发送:03 03 04 2B 00 01 F4 D0
10:36:18.930 设备接收:03 03 02 02 D1 00 B8
10:36:18.941 设备发送:03 03 04 20 00 01 85 12
10:36:23.973 设备接收:03 03 02 00 1F 80 4C
10:36:23.983 设备发送:03 03 04 05 00 01 94 D9
10:36:28.986 设备接收:03 03 02 00 00 C1 84
10:36:29.006 设备发送:01 03 04 84 00 04 05 10
10:36:34.024 设备接收:01 03 08 13 85 1A E9 FF C9 1A E9 75 2F
10:36:34.034 设备发送:01 03 04 8D 00 05 14 D2
10:36:39.044 设备接收:01 03 0A 09 1F 26 2C 00 00 00 00 00 00 17 59
10:36:39.067 设备发送:01 03 04 98 00 05 05 16
10:36:44.078 设备接收:01 03 0A 09 3C 26 20 00 00 00 00 00 00 56 68
10:36:44.099 设备发送:01 03 04 A3 00 05 74 DB
10:36:49.110 设备接收:01 03 0A 09 32 26 48 00 00 00 00 00 00 F3 CE
10:36:49.158 设备发送:01 03 06 84 00 04 04 A8
10:36:54.145 设备接收:01 03 08 00 00 23 0D 00 13 2E C4 52 B3
10:36:54.160 设备发送:01 03 04 04 00 01 C4 FB
10:36:59.206 设备接收:01 03 02 00 02 39 85
10:36:59.221 设备发送:01 03 05 84 00 0F 45 2B
10:37:04.199 设备接收:01 03 1E 20 A1 05 4E 04 6E 1F 67 05 B4 04 96 20 A7 05 44 04 67 1F 93 05 AB 04 95 17 21 02 ED 01 BB 21 C4
10:37:04.244 设备发送:01 03 05 93 00 0F F5 2F
10:37:09.242 设备接收:01 03 1E 00 00 00 00 00 00 1A 4D 06 00 04 0A 1B ED 02 F2 02 1B 1C 3A 02 F8 02 25 00 00 00 05 00 00 3C 7A
10:37:09.258 设备发送:01 03 05 A2 00 0F A4 E0
10:37:14.271 设备接收:01 03 1E 00 00 00 00 00 00 00 00 00 00 00 00 00 00 00 00 00 00 00 00 00 00 00 00 00 00 00 00 00 00 D8 BA
10:37:14.288 设备发送:01 03 05 B1 00 03 55 20
10:37:19.281 设备接收:01 03 06 00 00 00 00 00 00 21 75
10:37:19.291 设备发送:01 03 04 2B 00 01 F5 32
10:37:24.307 设备接收:01 03 02 02 CE 38 B0
10:37:24.348 设备发送:01 03 04 20 00 01 84 F0
10:37:29.347 设备接收:01 03 02 00 27 F8 5E
10:37:29.358 设备发送:01 03 04 05 00 01 95 3B
10:37:34.388 设备接收:01 03 02 00 00 B8 44
10:37:34.409 设备发送:02 03 04 84 00 04 05 23
10:37:39.427 设备接收:02 03 08 13 87 19 F4 00 2E 19 F4 F5 40
10:37:39.437 设备发送:02 03 04 8D 00 05 14 E1
10:37:44.448 设备接收:02 03 0A 09 1C 24 E1 00 00 00 00 00 00 9B 7F
10:37:44.488 设备发送:02 03 04 98 00 05 05 25
10:37:49.493 设备接收:02 03 0A 09 3E 24 ED 00 00 00 00 00 00 D7 DE
10:37:49.525 设备发送:02 03 04 A3 00 05 74 E8
10:37:54.538 设备接收:02 03 0A 09 2B 24 F5 00 00 00 00 00 00 BD 4F
10:37:54.566 设备发送:02 03 06 84 00 04 04 9B
10:37:59.560 设备接收:02 03 08 00 00 21 A1 00 13 77 0B B6 09
10:37:59.576 设备发送:02 03 04 04 00 01 C4 C8
10:38:04.593 设备接收:02 03 02 00 02 7D 85
10:38:04.607 设备发送:02 03 05 84 00 0F 45 18
10:38:09.610 设备接收:02 03 1E 1F 6B 02 CA 02 3E 1F 63 02 C0 02 35 1F 02 02 D1 02 3C 1F 88 05 81 04 71 1F 61 02 BE 02 34 6A E2
10:38:09.626 设备发送:02 03 05 93 00 0F F5 1C
10:38:14.625 设备接收:02 03 1E 1E E7 02 C6 02 31 1F 40 02 CD 02 3E 1F 3C 05 B4 04 8F 1F 07 02 D9 02 43 1F 6C 02 E4 02 53 98 F8
10:38:14.671 设备发送:02 03 05 A2 00 0F A4 D3
10:38:19.660 设备接收:02 03 1E 00 00 00 04 00 00 00 00 00 00 00 00 00 00 00 00 00 00 00 00 00 00 00 00 00 00 00 00 00 00 92 31
10:38:19.694 设备发送:02 03 05 B1 00 03 55 13
10:38:24.690 设备接收:02 03 06 00 00 00 00 00 00 35 85
10:38:24.753 设备发送:02 03 04 2B 00 01 F5 01
10:38:29.726 设备接收:02 03 02 02 C9 3D 72
10:38:29.741 设备发送:02 03 04 20 00 01 84 C3
10:38:34.774 设备接收:02 03 02 00 3F BC 54
10:38:34.788 设备发送:02 03 04 05 00 01 95 08
10:38:39.801 设备接收:02 03 02 00 00 FC 44
10:38:39.827 设备发送:03 03 04 84 00 04 04 F2
10:38:44.818 设备接收:03 03 08 13 8B 1C 65 FF C5 1C 66 02 E9
10:38:44.849 设备发送:03 03 04 8D 00 05 15 30
10:38:49.847 设备接收:03 03 0A 09 16 28 4B 00 00 00 00 00 00 ED 01
10:38:49.859 设备发送:03 03 04 98 00 05 04 F4
10:38:54.875 设备接收:03 03 0A 09 3F 28 40 00 00 00 00 00 00 A4 50
10:38:54.895 设备发送:03 03 04 A3 00 05 75 39
10:38:59.894 设备接收:03 03 0A 09 30 28 48 00 00 00 00 00 00 6C 60
10:38:59.947 设备发送:03 03 06 84 00 04 05 4A
10:39:04.941 设备接收:03 03 08 00 00 28 7F 00 14 01 6F 8C 35
10:39:04.962 设备发送:03 03 04 04 00 01 C5 19
10:39:09.963 设备接收:03 03 02 00 02 40 45
10:39:09.973 设备发送:03 03 05 84 00 0F 44 C9
10:39:14.984 设备接收:03 03 1E 1F 3E 06 21 04 E7 1F 22 06 1E 04 E0 1F 3A 05 F2 04 C1 1F 19 06 01 04 C8 16 FE 06 19 03 97 65 16
10:39:15.005 设备发送:03 03 05 93 00 0F F4 CD
10:39:20.031 设备接收:03 03 1E 05 23 00 00 00 00 13 A8 04 2E 02 1A 1B ED 03 0E 02 2F 1B B0 03 13 02 2E 05 24 00 00 00 00 39 6A
10:39:20.040 设备发送:03 03 05 A2 00 0F A5 02
10:39:25.063 设备接收:03 03 1E 00 0E 00 00 00 00 00 00 00 00 00 00 00 00 00 00 00 00 00 00 00 00 00 00 00 00 00 00 00 00 81 70
10:39:25.073 设备发送:03 03 05 B1 00 03 54 C2
10:39:30.072 设备接收:03 03 06 00 00 00 00 00 00 38 15
10:39:30.093 设备发送:03 03 04 2B 00 01 F4 D0
10:39:35.090 设备接收:03 03 02 02 D1 00 B8
10:39:35.133 设备发送:03 03 04 20 00 01 85 12
10:39:40.125 设备接收:03 03 02 00 1E 41 8C
10:39:40.146 设备发送:03 03 04 05 00 01 94 D9
10:39:45.149 设备接收:03 03 02 00 00 C1 84
10:39:45.203 设备发送:01 03 04 84 00 04 05 10
10:39:50.191 设备接收:01 03 08 13 87 1B 3F FF 5F 1B 41 FE EE
10:39:50.210 设备发送:01 03 04 8D 00 05 14 D2
10:39:55.218 设备接收:01 03 0A 09 17 26 DB 00 00 00 00 00 00 F6 56
10:39:55.262 设备发送:01 03 04 98 00 05 05 16
10:40:00.262 设备接收:01 03 0A 09 3C 26 D3 00 00 00 00 00 00 95 67
10:40:00.281 设备发送:01 03 04 A3 00 05 74 DB
10:40:05.302 设备接收:01 03 0A 09 31 26 D6 00 00 00 00 00 00 98 F7
10:40:05.324 设备发送:01 03 06 84 00 04 04 A8
10:40:10.320 设备接收:01 03 08 00 00 24 87 00 13 2E EA 4A C7
10:40:10.359 设备发送:01 03 04 04 00 01 C4 FB
10:40:15.342 设备接收:01 03 02 00 02 39 85
10:40:15.393 设备发送:01 03 05 84 00 0F 45 2B
10:40:20.389 设备接收:01 03 1E 20 A3 05 63 04 80 1F 66 05 CA 04 A7 20 A7 05 52 04 73 1F 93 05 B7 04 9F 17 22 02 FA 01 C3 EC 8F
10:40:20.409 设备发送:01 03 05 93 00 0F F5 2F
10:40:25.412 设备接收:01 03 1E 00 00 00 00 00 00 1A 4C 06 12 04 16 1B F2 02 FC 02 23 1C 39 03 05 02 2E 00 00 00 04 00 00 16 98
10:40:25.452 设备发送:01 03 05 A2 00 0F A4 E0
10:40:30.448 设备接收:01 03 1E 00 00 00 00 00 00 00 00 00 00 00 00 00 00 00 00 00 00 00 00 00 00 00 00 00 00 00 00 00 00 D8 BA
10:40:30.459 设备发送:01 03 05 B1 00 03 55 20
10:40:35.483 设备接收:01 03 06 00 00 00 00 00 00 21 75
10:40:35.506 设备发送:01 03 04 2B 00 01 F5 32
10:40:40.480 设备接收:01 03 02 02 CE 38 B0
10:40:40.522 设备发送:01 03 04 20 00 01 84 F0
10:40:45.503 设备接收:01 03 02 00 34 B9 93
10:40:45.555 设备发送:01 03 04 05 00 01 95 3B
10:40:50.550 设备接收:01 03 02 00 00 B8 44
10:40:50.566 设备发送:02 03 04 84 00 04 05 23
10:40:55.576 设备接收:02 03 08 13 8B 1A 4B FF CA 1A 4B 1D CB
10:40:55.585 设备发送:02 03 04 8D 00 05 14 E1
10:41:00.621 设备接收:02 03 0A 09 1C 25 47 00 00 00 00 00 00 9C B9
10:41:00.637 设备发送:02 03 04 98 00 05 05 25
10:41:05.633 设备接收:02 03 0A 09 3F 25 6B 00 00 00 00 00 00 FC 4A
10:41:05.680 设备发送:02 03 04 A3 00 05 74 E8
10:41:10.653 设备接收:02 03 0A 09 29 25 6F 00 00 00 00 00 00 5F EA
10:41:10.694 设备发送:02 03 06 84 00 04 04 9B
10:41:15.700 设备接收:02 03 08 00 00 23 0F 00 13 77 30 1F E0
10:41:15.718 设备发送:02 03 04 04 00 01 C4 C8
10:41:20.747 设备接收:02 03 02 00 02 7D 85
10:41:20.763 设备发送:02 03 05 84 00 0F 45 18

