
15:49:43.161 设备接收:FF FF FF FF FF FF FF 01 03 08 00 00 88 A2 00 12 C6 B2 01 56
15:49:43.170 设备发送:01 03 04 04 00 01 C4 FB
15:49:45.190 设备接收:FF FF FF FF FF FF FF
15:49:45.205 设备发送:02 03 04 84 00 04 05 23
15:49:47.207 设备接收:FF FF FF FF FF FF FF
15:49:47.224 设备发送:02 03 04 8D 00 21 14 FA
15:49:49.253 设备接收:FF FF FF FF FF FF 02 03 42 08 E4 08 65 00 00 00 00 00 00 00 00 00 00 00 00 00 00 00 00 00 00 08 E3 08 5A 00 00 00 00 00 00 00 00 00 00 00 00 00 00 00 00 00 00 08 EE 08 87 00 00 00 00 00 00 00 00 00 00 00 00 00 00 00 00 00 00 69 4E
15:49:49.268 设备发送:02 03 06 84 00 04 04 9B
15:49:51.249 设备接收:FF FF FF FF FF FF
15:49:51.264 设备发送:02 03 04 04 00 01 C4 C8
15:49:53.262 设备接收:FF FF FF FF FF FF FF
15:49:53.308 设备发送:03 03 04 84 00 04 04 F2
15:49:55.290 设备接收:FF FF FF FF FF FF FF 03 03 08 13 89 07 6D 00 0B 07 6D D9 DF
15:49:55.306 设备发送:03 03 04 8D 00 21 15 2B
15:49:57.301 设备接收:FF FF FF FF FF FF FF FF 03 03 42 08 E4 0A ED 00 00 00 00 00 00 00 00 00 00 00 00 00 00 00 00 00 00 08 EB 0A ED 00 00 00 00 00 00 00 00 00 00 00 00 00 00 00 00 00 00 08 F0 0B 19 00 00 00 00 00 00 00 00 00 00 00 00 00 00 00 00 00 00 44 EF
15:49:57.348 设备发送:03 03 06 84 00 04 05 4A
15:49:59.330 设备接收:FF FF FF FF FF FF FF FF 03 03 08 00 00 90 6F 00 13 92 3D 0A 42
15:49:59.345 设备发送:03 03 04 04 00 01 C5 19
15:50:01.342 设备接收:FF FF FF FF FF FF FF
15:50:01.358 设备发送:04 03 04 84 00 04 05 45
15:50:03.382 设备接收:FF FF FF FF FF FF FF
15:50:03.398 设备发送:04 03 04 8D 00 21 14 9C
15:50:05.391 设备接收:FF FF FF FF FF FF 04 03 42 08 E8 08 71 00 00 00 00 00 00 00 00 00 00 00 00 00 00 00 00 00 00 08 DE 08 6B 00 00 00 00 00 00 00 00 00 00 00 00 00 00 00 00 00 00 08 F0 08 86 00 00 00 00 00 00 00 00 00 00 00 00 00 00 00 00 00 00 CD 4E
15:50:05.407 设备发送:04 03 06 84 00 04 04 FD
15:50:07.401 设备接收:FF FF FF FF FF FF
15:50:07.433 设备发送:04 03 04 04 00 01 C4 AE
15:50:09.429 设备接收:FF FF FF FF FF FF FF
15:50:09.446 设备发送:05 03 04 84 00 04 04 94
15:50:11.444 设备接收:FF FF FF FF FF FF FF 05 03 08 13 86 04 77 FF FF 04 77 91 7B
15:50:11.490 设备发送:05 03 04 8D 00 21 15 4D
15:50:13.487 设备接收:FF FF FF FF FF FF FF FF 05 03 42 08 E4 06 A6 00 00 00 00 00 00 00 00 00 00 00 00 00 00 00 00 00 00 08 E5 06 9B 00 00 00 00 00 00 00 00 00 00 00 00 00 00 00 00 00 00 08 EC 06 C0 00 00 00 00 00 00 00 00 00 00 00 00 00 00 00 00 00 00 BC B9
15:50:13.503 设备发送:05 03 06 84 00 04 05 2C
15:50:15.491 设备接收:FF FF FF FF FF FF FF FF 05 03 08 00 00 65 EE 00 0E 41 7E B0 B6
15:50:15.506 设备发送:05 03 04 04 00 01 C5 7F
15:50:17.509 设备接收:FF FF FF FF FF FF FF
15:50:17.524 设备发送:06 03 04 84 00 04 04 A7
15:50:19.539 设备接收:FF FF FF FF FF FF
15:50:19.554 设备发送:06 03 04 8D 00 21 15 7E
15:50:21.555 设备接收:FF FF FF FF FF FF FF 06 03 42 08 E9 06 19 00 00 00 00 00 00 00 00 00 00 00 00 00 00 00 00 00 00 08 E6 06 19 00 00 00 00 00 00 00 00 00 00 00 00 00 00 00 00 00 00 08 EF 06 4A 00 00 00 00 00 00 00 00 00 00 00 00 00 00 00 00 00 00 3A FB
15:50:21.571 设备发送:06 03 06 84 00 04 05 1F
15:50:23.564 设备接收:FF FF FF
15:50:23.611 设备发送:06 03 04 04 00 01 C5 4C
15:50:25.596 设备接收:FF FF FF FF C1 27 EE
15:50:25.612 设备发送:07 03 04 84 00 04 05 76
15:50:27.596 设备接收:FF FF FF FF FF FF FF FF 07 03 08 13 86 02 21 FF E3 02 28 50 F7
15:50:27.643 设备发送:07 03 04 8D 00 21 14 AF
15:50:29.642 设备接收:FF FF FF FF FF FF FF 07 03 42 08 ED 03 29 00 00 00 00 00 00 00 00 00 00 00 00 00 00 00 00 00 00 08 E7 03 2D 00 00 00 00 00 00 00 00 00 00 00 00 00 00 00 00 00 00 08 EC 03 27 00 00 00 00 00 00 00 00 00 00 00 00 00 00 00 00 00 00 26 1A
15:50:29.658 设备发送:07 03 06 84 00 04 04 CE
15:50:31.654 设备接收:FF FF FF FF FF FF FF 07 03 08 00 00 34 91 00 07 0B 8A 45 A0
15:50:31.670 设备发送:07 03 04 04 00 01 C4 9D
15:50:33.668 设备接收:FF FF FF FF FF FF FF 07 03 02 00 02 B1 85
15:50:33.684 设备发送:08 03 04 84 00 04 05 89
15:50:35.695 设备接收:FF FF FF FF FF FF 08 03 08 13 86 04 CE 00 00 04 CE F6 9A
15:50:35.727 设备发送:08 03 04 8D 00 21 14 50
15:50:37.697 设备接收:FF FF FF FF FF FF FF 08 03 42 08 E3 07 3A 00 00 00 00 00 00 00 00 00 00 00 00 00 00 00 00 00 00 08 DB 07 26 00 00 00 00 00 00 00 00 00 00 00 00 00 00 00 00 00 00 08 E7 07 73 00 00 00 00 00 00 00 00 00 00 00 00 00 00 00 00 00 00 48 09
15:50:37.743 设备发送:08 03 06 84 00 04 04 31
15:50:39.733 设备接收:FF FF FF FF FF FF FF 08 03 08 00 00 6F 20 00 0F 59 15 F8 4F
15:50:39.750 设备发送:08 03 04 04 00 01 C4 62
15:50:41.748 设备接收:FF FF FF FF FF FF FF 08 03 02 00 02 E5 84
15:50:41.779 设备发送:09 03 04 84 00 04 04 58
15:50:43.778 设备接收:FF FF FF FF FF FF FF FF 09 03 08 13 86 04 6E 00 16 04 6E 93 C3
15:50:43.794 设备发送:09 03 04 8D 00 21 15 81
15:50:45.806 设备接收:FF FF FF FF FF FF FF 09 03 42 08 DF 06 7F 00 00 00 00 00 00 00 00 00 00 00 00 00 00 00 00 00 00 08 DD 06 A4 00 00 00 00 00 00 00 00 00 00 00 00 00 00 00 00 00 00 08 E9 06 A8 00 00 00 00 00 00 00 00 00 00 00 00 00 00 00 00 00 00 77 0A
15:50:45.821 设备发送:09 03 06 84 00 04 05 E0
15:50:47.816 设备接收:FF FF FF FF FF FF FF 09 03 08 00 00 64 1A 00 0D F7 42 B9 93
15:50:47.833 设备发送:09 03 04 04 00 01 C5 B3
15:50:49.846 设备接收:FF FF FF FF FF FF FF 09 03 02 00 02 D8 44
15:50:49.862 设备发送:0A 03 04 84 00 04 04 6B
15:50:51.849 设备接收:FF FF FF FF FF FF FF
15:50:51.881 设备发送:0A 03 04 8D 00 21 15 B2
15:50:53.875 设备接收:FF FF FF FF FF FF
15:50:53.906 设备发送:0A 03 06 84 00 04 05 D3
15:50:55.873 设备接收:FF FF FF FF FF FF
15:50:55.919 设备发送:0A 03 04 04 00 01 C5 80
15:50:57.902 设备接收:FF FF FF FF FF FF FF
15:50:57.933 设备发送:01 03 04 84 00 04 05 10
15:50:59.948 设备接收:FF FF FF FF FF FF FF FF 01 03 08 13 86 05 A9 00 16 05 A9 4D A1
15:50:59.964 设备发送:01 03 04 8D 00 21 14 C9
15:51:00.81700

