
14:06:48.342 设备接收:01 03 02 02 E1 79 6C
14:06:48.357 设备发送:01 03 04 20 00 01 84 F0
14:06:53.385 设备接收:01 03 02 00 1E 38 4C
14:06:53.400 设备发送:01 03 04 05 00 01 95 3B
14:06:58.375 设备接收:01 03 02 00 00 B8 44
14:06:58.406 设备发送:02 03 04 84 00 04 05 23
14:07:03.398 设备接收:02 03 08 13 8A 1F 93 FF BF 1F 94 7E 5F
14:07:03.413 设备发送:02 03 04 8D 00 05 14 E1
14:07:08.441 设备接收:02 03 0A 09 02 2D 30 00 00 00 00 00 00 1B B8
14:07:08.457 设备发送:02 03 04 98 00 05 05 25
14:07:13.441 设备接收:02 03 0A 09 2D 2D 52 00 00 00 00 00 00 80 4F
14:07:13.456 设备发送:02 03 04 A3 00 05 74 E8
14:07:18.475 设备接收:02 03 0A 09 15 2D 41 00 00 00 00 00 00 91 4F
14:07:18.505 设备发送:02 03 06 84 00 04 04 9B
14:07:23.493 设备接收:02 03 08 00 00 A3 08 00 14 0A FE A4 E5
14:07:23.508 设备发送:02 03 04 04 00 01 C4 C8
14:07:28.507 设备接收:02 03 02 00 02 7D 85
14:07:28.524 设备发送:02 03 05 84 00 0F 45 18
14:07:33.531 设备接收:02 03 1E 1F 72 03 58 02 B1 1F E2 03 50 02 B4 1F DA 03 5D 02 BE 1F DE 06 9F 05 67 1F BF 03 4B 02 AD D9 B6
14:07:33.546 设备发送:02 03 05 93 00 0F F5 1C
14:07:38.546 设备发送:02 03 05 A2 00 0F A4 D3
14:07:38.572 设备接收:02 03 1E 1F AB 03 47 02 A8 1F BB 03 59 02 B8 1F 78 06 C7 05 75 1F DA 03 60 02 C1 1F A3 03 7E 02 D4 4E 4B
14:07:43.587 设备接收:02 03 1E 00 00 00 04 00 00 00 00 00 00 00 00 00 00 00 00 00 00 00 00 00 00 00 00 00 00 00 00 00 00 92 31
14:07:43.602 设备发送:02 03 05 B1 00 03 55 13
14:07:48.573 设备接收:02 03 06 00 00 00 00 00 00 35 85
14:07:48.604 设备发送:02 03 04 2B 00 01 F5 01
14:07:53.603 设备接收:02 03 02 02 E2 7D 6D
14:07:53.616 设备发送:02 03 04 20 00 01 84 C3
14:07:58.617 设备接收:02 03 02 00 43 BD B5
14:07:58.648 设备发送:02 03 04 05 00 01 95 08
14:08:03.638 设备接收:02 03 02 00 00 FC 44
14:08:03.653 设备发送:03 03 04 84 00 04 04 F2
14:08:08.671 设备接收:03 03 08 13 8A 21 2B FF 3C 21 2E BE 5D
14:08:08.686 设备发送:03 03 04 8D 00 05 15 30
14:08:13.699 设备接收:03 03 0A 09 01 2F 85 00 00 00 00 00 00 68 DB
14:08:13.721 设备发送:03 03 04 98 00 05 04 F4
14:08:18.711 设备接收:03 03 0A 09 33 2F 7E 00 00 00 00 00 00 6F 75
14:08:18.733 设备发送:03 03 04 A3 00 05 75 39
14:08:23.738 设备接收:03 03 0A 09 1A 2F 78 00 00 00 00 00 00 FA E4
14:08:23.761 设备发送:03 03 06 84 00 04 05 4A
14:08:28.738 设备接收:03 03 08 00 00 B2 F4 00 14 A4 A9 CE D2
14:08:28.759 设备发送:03 03 04 04 00 01 C5 19
14:08:33.778 设备接收:03 03 02 00 02 40 45
14:08:33.790 设备发送:03 03 05 84 00 0F 44 C9
14:08:38.799 设备接收:03 03 1E 1F 3E 07 1F 05 B2 1F 6B 07 0B 05 AA 1F 6B 07 08 05 A7 1F 48 07 00 05 9B 16 FF 07 3C 04 42 D3 27
14:08:38.820 设备发送:03 03 05 93 00 0F F4 CD
14:08:43.794 设备接收:03 03 1E 05 2B 00 00 00 00 13 F7 04 E1 02 7E 1B F8 03 8A 02 89 1B E4 03 8F 02 8B 05 2D 00 00 00 00 57 8C
14:08:43.811 设备发送:03 03 05 A2 00 0F A5 02
14:08:48.828 设备接收:03 03 1E 00 0E 00 00 00 00 00 00 00 00 00 00 00 00 00 00 00 00 00 00 00 00 00 00 00 00 00 00 00 00 81 70
14:08:48.848 设备发送:03 03 05 B1 00 03 54 C2
14:08:53.843 设备接收:03 03 06 00 00 00 00 00 00 38 15
14:08:53.852 设备发送:03 03 04 2B 00 01 F4 D0
14:08:58.856 设备接收:03 03 02 02 E2 40 AD
14:08:58.878 设备发送:03 03 04 20 00 01 85 12
14:09:03.883 设备接收:03 03 02 00 21 01 9C
14:09:03.894 设备发送:03 03 04 05 00 01 94 D9
14:09:08.904 设备接收:03 03 02 00 00 C1 84
14:09:08.926 设备发送:04 03 04 84 00 04 05 45
14:09:13.913 设备接收:04 03 08 13 86 1C 26 00 32 1C 26 01 84
14:09:13.924 设备发送:04 03 04 8D 00 05 14 87
14:09:18.943 设备接收:04 03 0A 09 0C 28 93 00 00 00 00 00 00 0D 2B
14:09:18.953 设备发送:04 03 04 98 00 05 05 43
14:09:23.970 设备接收:04 03 0A 08 F8 28 85 00 00 00 00 00 00 1D EB
14:09:23.991 设备发送:04 03 04 A3 00 05 74 8E
14:09:28.975 设备接收:04 03 0A 09 1D 28 69 00 00 00 00 00 00 97 74
14:09:28.987 设备发送:04 03 06 84 00 04 04 FD
14:09:33.995 设备接收:04 03 08 00 00 98 51 00 11 CC 16 E1 04
14:09:34.007 设备发送:04 03 04 04 00 01 C4 AE
14:09:39.009 设备接收:04 03 02 00 02 F5 85
14:09:39.029 设备发送:04 03 05 84 00 0F 45 7E
14:09:44.058 设备接收:04 03 1E 1A B5 03 5A 02 4B 1C 6F 06 B2 04 E0 1A A0 03 6D 02 55 1C 66 06 E5 05 03 1C 4B 06 B6 04 DC 11 A0
14:09:44.079 设备发送:04 03 05 93 00 0F F5 7A
14:09:49.067 设备接收:04 03 1E 1C 8E 06 DD 05 04 1B 0A 06 C9 04 B2 04 97 00 02 00 00 04 B7 00 00 00 00 04 AB 00 00 00 00 21 CA
14:09:49.088 设备发送:04 03 05 A2 00 0F A4 B5
14:09:54.109 设备接收:04 03 1E 00 00 00 00 00 00 00 01 00 04 00 00 00 00 00 00 00 00 00 00 00 00 00 00 00 00 00 00 00 00 8C A3
14:09:54.119 设备发送:04 03 05 B1 00 03 55 75
14:09:59.111 设备接收:04 03 06 00 00 00 00 00 00 1E 25
14:09:59.131 设备发送:04 03 04 2B 00 01 F5 67
14:10:04.148 设备接收:04 03 02 02 E9 B4 AA
14:10:04.170 设备发送:04 03 04 20 00 01 84 A5
14:10:09.155 设备接收:04 03 02 00 18 74 4E
14:10:09.170 设备发送:04 03 04 05 00 01 95 6E
14:10:14.184 设备接收:04 03 02 00 00 74 44
14:10:14.203 设备发送:05 03 04 84 00 04 04 94
14:10:19.201 设备接收:05 03 08 13 8B 17 BC 00 29 17 BD B6 43
14:10:19.222 设备发送:05 03 04 8D 00 05 15 56
14:10:24.218 设备接收:05 03 0A 08 FE 22 28 00 00 00 00 00 00 C8 7F
14:10:24.239 设备发送:05 03 04 98 00 05 04 92
14:10:29.241 设备接收:05 03 0A 09 14 22 14 00 00 00 00 00 00 D2 DD
14:10:29.252 设备发送:05 03 04 A3 00 05 75 5F
14:10:34.250 设备接收:05 03 0A 09 11 22 02 00 00 00 00 00 00 9A 4C
14:10:34.271 设备发送:05 03 06 84 00 04 05 2C
14:10:39.280 设备接收:05 03 08 00 00 80 0B 00 0F 03 45 CB E6
14:10:39.300 设备发送:05 03 04 04 00 01 C5 7F
14:10:44.299 设备接收:05 03 02 00 02 C8 45
14:10:44.311 设备发送:05 03 05 84 00 0F 44 AF
14:10:49.323 设备接收:05 03 1E 04 A8 00 00 00 00 17 5D 06 CA 04 0F 17 69 06 8D 03 ED 17 4E 06 7F 03 E0 1D BD 03 3B 02 75 6A 9E
14:10:49.343 设备发送:05 03 05 93 00 0F F4 AB
14:10:54.360 设备接收:05 03 1E 1E 49 03 2C 02 76 04 94 00 02 00 00 18 F6 06 A6 04 40 04 A1 00 05 00 00 15 DF 06 6B 03 98 74 9B
14:10:54.379 设备发送:05 03 05 A2 00 0F A5 64
14:10:59.374 设备接收:05 03 1E 00 06 00 00 00 00 00 01 00 04 00 00 00 00 00 00 00 00 00 00 00 00 00 00 00 00 00 00 00 00 61 67
14:10:59.384 设备发送:05 03 05 B1 00 03 54 A4
14:11:04.407 设备接收:05 03 06 00 00 00 00 00 00 13 B5
14:11:04.428 设备发送:05 03 04 2B 00 01 F4 B6
14:11:09.402 设备接收:05 03 02 02 E8 48 AA
14:11:09.423 设备发送:05 03 04 20 00 01 85 74
14:11:14.444 设备接收:05 03 02 00 23 08 5D
14:11:14.455 设备发送:05 03 04 05 00 01 94 BF
14:11:19.440 设备接收:05 03 02 00 00 49 84
14:11:19.451 设备发送:06 03 04 84 00 04 04 A7
14:11:24.466 设备接收:06 03 08 13 87 17 85 FF CE 17 85 68 F3
14:11:24.475 设备发送:06 03 04 8D 00 05 15 65
14:11:29.480 设备接收:06 03 0A 09 05 21 DB 00 00 00 00 00 00 68 57
14:11:29.528 设备发送:06 03 04 98 00 05 04 A1
14:11:34.504 设备接收:06 03 0A 09 16 21 D4 00 00 00 00 00 00 4E 67
14:11:34.512 设备发送:06 03 04 A3 00 05 75 6C
14:11:39.519 设备接收:06 03 0A 09 14 21 EA 00 00 00 00 00 00 88 C4
14:11:39.541 设备发送:06 03 06 84 00 04 05 1F
14:11:44.551 设备接收:06 03 08 00 00 7D 97 00 0E ED FE 5D 40
14:11:44.578 设备发送:06 03 04 04 00 01 C5 4C
14:11:49.593 设备接收:06 03 02 00 02 8C 45
14:11:49.602 设备发送:06 03 05 84 00 0F 44 9C
14:11:54.575 设备接收:06 03 1E 04 95 00 06 00 00 1C 66 06 6D 04 AC 1C 88 06 6E 04 B2 1A F7 03 41 02 3F 1E 4D 06 B0 05 30 CA 10
14:11:54.597 设备发送:06 03 05 93 00 0F F4 98
14:11:59.604 设备接收:06 03 1E 04 93 00 00 00 00 04 82 00 00 00 00 17 3A 06 C8 04 08 04 84 00 06 00 00 15 CC 06 AB 03 B8 CA 88
14:11:59.612 设备发送:06 03 05 A2 00 0F A5 57
14:12:04.636 设备接收:06 03 1E 00 08 00 00 00 00 00 00 00 00 00 00 00 00 00 00 00 00 00 00 00 00 00 00 00 00 00 00 00 00 DD 75
14:12:04.657 设备发送:06 03 05 B1 00 03 54 97
14:12:09.661 设备接收:06 03 06 00 00 00 00 00 00 07 45
14:12:09.680 设备发送:06 03 04 2B 00 01 F4 85
14:12:14.685 设备接收:06 03 02 02 E9 CD 6A
14:12:14.696 设备发送:06 03 04 20 00 01 85 47
14:12:19.699 设备接收:06 03 02 00 2C 0C 59
14:12:19.714 设备发送:06 03 04 05 00 01 94 8C
14:12:24.709 设备接收:06 03 02 00 00 0D 84
14:12:24.732 设备发送:07 03 04 84 00 04 05 76
14:12:29.748 设备接收:07 03 08 13 86 0C 3C FF F1 0C 43 58 51
14:12:29.770 设备发送:07 03 04 8D 00 05 14 B4
14:12:34.752 设备接收:07 03 0A 08 FD 11 BD 00 00 00 00 00 00 5D C5
14:12:34.763 设备发送:07 03 04 98 00 05 05 70
14:12:39.771 设备接收:07 03 0A 09 00 11 BF 00 00 00 00 00 00 73 54
14:12:39.782 设备发送:07 03 04 A3 00 05 74 BD
14:12:44.790 设备接收:07 03 0A 08 FB 11 BE 00 00 00 00 00 00 45 65
14:12:44.801 设备发送:07 03 06 84 00 04 04 CE
14:12:49.816 设备接收:07 03 08 00 00 42 58 00 07 6F B6 B8 37
14:12:49.837 设备发送:07 03 04 04 00 01 C4 9D
14:12:54.855 设备接收:07 03 02 00 02 B1 85
14:12:54.866 设备发送:07 03 05 84 00 0F 45 4D
14:12:59.861 设备接收:07 03 1E 19 0F 06 74 04 24 1A 4A 03 3A 02 2B 1A C5 03 18 02 1E 19 0B 06 5E 04 15 00 00 00 00 00 00 ED 3D
14:12:59.873 设备发送:07 03 05 93 00 0F F5 49
14:13:04.871 设备接收:07 03 1E 00 00 00 00 00 00 00 00 00 00 00 00 00 00 00 00 00 00 00 00 00 00 00 00 00 00 00 00 00 00 B0 BB
14:13:04.915 设备发送:07 03 05 A2 00 0F A4 86
14:13:09.906 设备接收:07 03 1E 00 00 00 00 00 00 00 00 00 00 00 00 00 00 00 00 00 00 00 00 00 00 00 00 00 00 00 00 00 00 B0 BB
14:13:09.926 设备发送:07 03 05 B1 00 03 55 46
14:13:14.923 设备接收:07 03 06 00 00 00 00 00 00 0A D5
14:13:14.944 设备发送:07 03 04 2B 00 01 F5 54
14:13:19.946 设备接收:07 03 02 01 DA B0 4F
14:13:19.996 设备发送:07 03 04 20 00 01 84 96
14:13:24.968 设备接收:07 03 02 00 25 F1 9F
14:13:24.989 设备发送:07 03 04 05 00 01 95 5D
14:13:29.991 设备接收:07 03 02 00 00 30 44
14:13:30.036 设备发送:08 03 04 84 00 04 05 89
14:13:35.008 设备接收:08 03 08 13 86 19 75 FF 69 19 77 39 E6
14:13:35.053 设备发送:08 03 04 8D 00 05 14 4B
14:13:40.056 设备接收:08 03 0A 08 F3 25 1E 00 00 00 00 00 00 94 47
14:13:40.067 设备发送:08 03 04 98 00 05 05 8F
14:13:45.058 设备接收:08 03 0A 08 E5 25 1E 00 00 00 00 00 00 72 27
14:13:45.090 设备发送:08 03 04 A3 00 05 74 42
14:13:50.095 设备接收:08 03 0A 08 F6 25 10 00 00 00 00 00 00 44 D7
14:13:50.106 设备发送:08 03 06 84 00 04 04 31
14:13:55.082 设备接收:08 03 08 00 00 8D 1C 00 10 2D 9B 29 6A
14:13:55.134 设备发送:08 03 04 04 00 01 C4 62
14:14:00.128 设备接收:08 03 02 00 02 E5 84
14:14:00.149 设备发送:08 03 05 84 00 0F 45 B2
14:14:05.156 设备接收:08 03 1E 11 BD 02 68 01 18 1B 46 02 48 01 98 1A EB 02 65 01 A6 1A 83 05 AB 03 D9 19 C1 05 DC 03 DD 95 1D
14:14:05.193 设备发送:08 03 05 93 00 0F F5 B6
14:14:10.173 设备接收:08 03 1E 1C B7 05 EA 04 59 1E 22 03 0B 02 59 1A 9B 02 C3 01 E2 19 59 02 D8 01 D8 1A 7C 05 B6 03 DF B4 54
14:14:10.193 设备发送:08 03 05 A2 00 0F A4 79
14:14:15.176 设备接收:08 03 1E 00 00 00 08 00 00 00 00 00 05 00 00 00 00 00 00 00 00 00 00 00 00 00 00 00 00 00 00 00 00 7E BB
14:14:15.187 设备发送:08 03 05 B1 00 03 55 B9
14:14:20.194 设备接收:08 03 06 00 00 00 00 00 00 4B 25
14:14:20.238 设备发送:08 03 04 2B 00 01 F5 AB
14:14:25.214 设备接收:08 03 02 02 DD A5 7C
14:14:25.234 设备发送:08 03 04 20 00 01 84 69
14:14:30.249 设备接收:08 03 02 00 31 A5 91
14:14:30.260 设备发送:08 03 04 05 00 01 95 A2
14:14:35.252 设备接收:08 03 02 00 00 64 45
14:14:35.301 设备发送:09 03 04 84 00 04 04 58
14:14:40.300 设备接收:09 03 08 13 8B 17 01 FF D0 17 02 44 9D
14:14:40.321 设备发送:09 03 04 8D 00 05 15 9A
14:14:45.304 设备接收:09 03 0A 08 F6 21 55 00 00 00 00 00 00 53 61
14:14:45.314 设备发送:09 03 04 98 00 05 04 5E
14:14:50.342 设备接收:09 03 0A 08 EA 21 5E 00 00 00 00 00 00 71 61
14:14:50.357 设备发送:09 03 04 A3 00 05 75 93
14:14:55.355 设备接收:09 03 0A 09 00 21 42 00 00 00 00 00 00 4A 01
14:14:55.369 设备发送:09 03 06 84 00 04 05 E0
14:15:00.355 设备接收:09 03 08 00 00 7D F4 00 0E B5 D0 12 80
14:15:00.401 设备发送:09 03 04 04 00 01 C5 B3
14:15:05.369 设备接收:09 03 02 00 02 D8 44
14:15:05.390 设备发送:09 03 05 84 00 0F 44 63
14:15:10.410 设备接收:09 03 1E 1E 33 02 2B 01 AD 1E BE 02 2B 01 B5 1E 65 02 65 01 DD 1E 51 02 B1 02 17 1E 24 02 3B 01 B9 C2 09
14:15:10.421 设备发送:09 03 05 93 00 0F F4 67
14:15:15.443 设备接收:09 03 1E 1E 60 05 67 04 33 1E 47 02 93 01 FE 1E 72 05 C0 04 7B 1D F7 02 9B 02 00 1D E2 02 A9 02 09 56 FF
14:15:15.453 设备发送:09 03 05 A2 00 0F A5 A8
14:15:20.454 设备接收:09 03 1E 00 04 00 00 00 00 00 02 00 03 00 00 00 00 00 00 00 00 00 00 00 00 00 00 00 00 00 00 00 00 13 34
14:15:20.469 设备发送:09 03 05 B1 00 03 54 68
14:15:25.471 设备接收:09 03 06 00 00 00 00 00 00 46 B5
14:15:25.489 设备发送:09 03 04 2B 00 01 F4 7A
14:15:30.495 设备接收:09 03 02 02 CF 18 B1
14:15:30.505 设备发送:09 03 04 20 00 01 85 B8
14:15:35.510 设备接收:09 03 02 00 34 58 52
14:15:35.529 设备发送:09 03 04 05 00 01 94 73
14:15:40.546 设备发送:0A 03 04 84 00 04 04 6B
14:15:40.552 设备接收:09 03 02 00 00 59 85
14:15:45.554 设备接收:0A 03 08 13 8A 05 95 FF D8 05 99 A5 7F
14:15:45.576 设备发送:0A 03 04 8D 00 05 15 A9
14:15:50.585 设备接收:0A 03 0A 08 F7 08 25 00 00 00 00 00 00 E8 87
14:15:50.605 设备发送:0A 03 04 98 00 05 04 6D
14:15:55.596 设备接收:0A 03 0A 08 F5 08 23 00 00 00 00 00 00 97 E7
14:15:55.607 设备发送:0A 03 04 A3 00 05 75 A0
14:16:00.623 设备接收:0A 03 0A 08 FE 08 20 00 00 00 00 00 00 D7 D7
14:16:00.644 设备发送:0A 03 06 84 00 04 05 D3
14:16:05.646 设备接收:0A 03 08 00 00 1E B1 00 03 52 50 02 0B
14:16:05.667 设备发送:0A 03 04 04 00 01 C5 80
14:16:10.644 设备接收:0A 03 02 00 02 9C 44
14:16:10.657 设备发送:0A 03 05 84 00 0F 44 50
14:16:15.668 设备接收:0A 03 1E 19 16 02 E0 01 D8 19 21 02 F7 01 E8 18 E6 03 17 01 F8 0B F8 00 00 00 00 00 00 00 00 00 00 48 66
14:16:15.690 设备发送:0A 03 05 93 00 0F F4 54
14:16:20.724 设备接收:0A 03 1E 00 00 00 00 00 00 00 00 00 00 00 00 00 00 00 00 00 00 00 00 00 00 00 00 00 00 00 00 00 00 0D 79
14:16:20.734 设备发送:0A 03 05 A2 00 0F A5 9B
14:16:25.740 设备接收:0A 03 1E 00 00 00 00 00 00 00 00 00 00 00 00 00 00 00 00 00 00 00 00 00 00 00 00 00 00 00 00 00 00 0D 79
14:16:25.771 设备发送:0A 03 05 B1 00 03 54 5B
14:16:30.729 设备接收:0A 03 06 00 00 00 00 00 00 52 45
14:16:30.752 设备发送:0A 03 04 2B 00 01 F4 49
14:16:35.749 设备接收:0A 03 02 01 DE 9C 4D
14:16:35.800 设备发送:0A 03 04 20 00 01 85 8B
14:16:40.781 设备接收:0A 03 02 00 27 5D 9F
14:16:40.801 设备发送:0A 03 04 05 00 01 94 40
14:16:45.819 设备接收:0A 03 02 00 00 1D 85
14:16:45.829 设备发送:01 03 04 84 00 04 05 10
14:16:50.826 设备接收:01 03 08 13 87 1F CD 00 3A 1F CD E5 D1
14:16:50.847 设备发送:01 03 04 8D 00 05 14 D2
14:16:55.841 设备接收:01 03 0A 08 FD 2D 96 00 00 00 00 00 00 CC 40
14:16:55.861 设备发送:01 03 04 98 00 05 05 16
14:17:00.879 设备接收:01 03 0A 09 28 2D 89 00 00 00 00 00 00 D1 D1
14:17:00.900 设备发送:01 03 04 A3 00 05 74 DB
14:17:05.886 设备接收:01 03 0A 09 13 2D 8E 00 00 00 00 00 00 80 20
14:17:05.895 设备发送:01 03 06 84 00 04 04 A8
14:17:10.923 设备接收:01 03 08 00 00 B0 A0 00 13 C9 2D 68 76
14:17:10.945 设备发送:01 03 04 04 00 01 C4 FB
14:17:15.955 设备接收:01 03 02 00 02 39 85
14:17:15.965 设备发送:01 03 05 84 00 0F 45 2B
14:17:20.972 设备接收:01 03 1E 1F DF 06 88 05 54 1F B8 06 98 05 5B 1F 9A 06 89 05 49 1F C3 06 A5 05 67 17 61 03 5C 02 02 0D D7
14:17:20.983 设备发送:01 03 05 93 00 0F F5 2F
14:17:25.982 设备发送:01 03 05 A2 00 0F A4 E0
14:17:25.992 设备接收:01 03 1E 00 00 00 01 00 00 1A 69 06 F0 04 B1 1C 80 03 64 02 79 1C 46 03 6D 02 7B 00 00 00 05 00 00 FA 31
14:17:30.998 设备接收:01 03 1E 00 00 00 00 00 00 00 00 00 00 00 00 00 00 00 00 00 00 00 00 00 00 00 00 00 00 00 00 00 00 D8 BA
14:17:31.009 设备发送:01 03 05 B1 00 03 55 20
14:17:36.017 设备接收:01 03 06 00 00 00 00 00 00 21 75
14:17:36.035 设备发送:01 03 04 2B 00 01 F5 32
14:17:41.046 设备接收:01 03 02 02 E1 79 6C
14:17:41.067 设备发送:01 03 04 20 00 01 84 F0
14:17:46.053 设备接收:01 03 02 00 1D 78 4D
14:17:46.072 设备发送:01 03 04 05 00 01 95 3B
14:17:51.093 设备接收:01 03 02 00 00 B8 44
14:17:51.103 设备发送:02 03 04 84 00 04 05 23
14:17:56.091 设备接收:02 03 08 13 89 1E 6B FF C5 1E 6B 8D 53
14:17:56.142 设备发送:02 03 04 8D 00 05 14 E1
14:17:58.04800

