15:48:31.331 设备发送:03 03 04 05 00 01 94 D9
15:48:31.42500
15:48:32.91400
15:48:32.91700
15:48:32.91900
15:48:32.93900
15:48:34.389 设备接收:03 03 02 00 00 C1 84
15:48:34.404 设备发送:01 03 04 84 00 04 05 10
15:48:35.907 设备接收:01 03 08 13 8B 08 3A FF CD 08 3A 10 B3
15:48:35.923 设备发送:01 03 04 8D 00 21 14 C9
15:48:37.424 设备接收:01 03 42 08 E7 0C 02 00 00 00 00 00 00 00 00 00 00 00 00 00 00 00 00 00 00 08 ED 0C 1C 00 00 00 00 00 00 00 00 00 00 00 00 00 00 00 00 00 00 08 F4 0C 37 00 00 00 00 00 00 00 00 00 00 00 00 00 00 00 00 00 00 71 3C
15:48:37.486 设备发送:01 03 06 84 00 04 04 A8
15:48:38.983 设备发送:01 03 06 84 00 04 04 A8
15:48:40.496 设备接收:01 03 08 00 00 98 62 00 13 2A D8 9E F8
15:48:40.512 设备发送:01 03 04 04 00 01 C4 FB
15:48:42.040 设备发送:01 03 04 04 00 01 C4 FB
15:48:43.538 设备发送:01 03 04 04 00 01 C4 FB
15:48:45.083 设备发送:01 03 05 84 00 0F 45 2B
15:48:46.603 设备发送:01 03 05 84 00 0F 45 2B
15:48:48.117 设备发送:01 03 05 84 00 0F 45 2B
15:48:49.659 设备发送:01 03 05 93 00 0F F5 2F
15:48:51.187 设备发送:01 03 05 93 00 0F F5 2F
15:48:52.701 设备发送:01 03 05 93 00 0F F5 2F
15:48:54.219 设备发送:01 03 05 A2 00 0F A4 E0
15:48:55.733 设备发送:01 03 05 A2 00 0F A4 E0
15:48:57.270 设备发送:01 03 05 A2 00 0F A4 E0
15:48:58.800 设备发送:01 03 05 B1 00 03 55 20
15:49:00.332 设备发送:01 03 05 B1 00 03 55 20
15:49:01.847 设备发送:01 03 05 B1 00 03 55 20
15:49:03.376 设备发送:01 03 04 2B 00 01 F5 32
15:49:04.921 设备发送:01 03 04 2B 00 01 F5 32
15:49:06.450 设备发送:01 03 04 2B 00 01 F5 32
15:49:07.965 设备发送:01 03 04 20 00 01 84 F0
15:49:09.483 设备发送:01 03 04 20 00 01 84 F0
15:49:11.012 设备发送:01 03 04 20 00 01 84 F0
15:49:12.553 设备发送:01 03 04 05 00 01 95 3B
15:49:14.066 设备发送:01 03 04 05 00 01 95 3B
15:49:15.581 设备发送:01 03 04 05 00 01 95 3B
15:49:17.127 设备发送:02 03 04 84 00 04 05 23
15:49:18.599 设备接收:02 03 08 13 85 07 EA FF EE 07 EA C4 BC
15:49:18.661 设备发送:02 03 04 8D 00 21 14 FA
15:49:20.157 设备接收:02 03 42 08 E6 0B 9F 00 00 00 00 00 00 00 00 00 00 00 00 00 00 00 00 00 00 08 EC 0B AD 00 00 00 00 00 00 00 00 00 00 00 00 00 00 00 00 00 00 08 EF 0B CC 00 00 00 00 00 00 00 00 00 00 00 00 00 00 00 00 00 00 DA 44
15:49:20.172 设备发送:02 03 06 84 00 04 04 9B
15:49:21.705 设备发送:02 03 06 84 00 04 04 9B
15:49:23.232 设备接收:02 03 08 00 00 92 67 00 13 73 49 A6 EA
15:49:23.248 设备发送:02 03 04 04 00 01 C4 C8
15:49:24.750 设备发送:02 03 04 04 00 01 C4 C8
15:49:26.279 设备发送:02 03 04 04 00 01 C4 C8
15:49:27.809 设备发送:02 03 05 84 00 0F 45 18
15:49:29.310 设备接收:02 03 1E 20 BB 00 C7 00 A7 21 23 00 C2 00 A4 20 E7 00 CC 00 AB 20 DF 01 9D 01 5B 21 1F 00 C7 00 A9 3F E5
15:49:29.357 设备发送:02 03 05 93 00 0F F5 1C
15:49:30.836 设备接收:02 03 1E 21 05 00 C5 00 A7 21 B0 00 D3 00 B6 21 1E 01 A8 01 68 21 B1 00 D7 00 B9 1F 79 01 50 01 0E BB 0D
15:49:30.867 设备发送:02 03 05 A2 00 0F A4 D3
15:49:32.365 设备接收:02 03 1E 00 00 00 04 00 00 00 00 00 00 00 00 00 00 00 00 00 00 00 00 00 00 00 00 00 00 00 00 00 00 92 31
15:49:32.381 设备发送:02 03 05 B1 00 03 55 13
15:49:33.894 设备接收:02 03 06 00 00 00 00 00 00 35 85
15:49:33.925 设备发送:02 03 04 2B 00 01 F5 01
15:49:35.448 设备发送:02 03 04 2B 00 01 F5 01
15:49:36.993 设备发送:02 03 04 2B 00 01 F5 01
15:49:38.487 设备发送:02 03 04 20 00 01 84 C3
15:49:40.038 设备发送:02 03 04 20 00 01 84 C3
15:49:41.557 设备发送:02 03 04 20 00 01 84 C3
15:49:43.059 设备接收:02 03 02 00 3C FC 55
15:49:43.074 设备发送:02 03 04 05 00 01 95 08
15:49:44.590 设备发送:02 03 04 05 00 01 95 08
15:49:46.134 设备发送:02 03 04 05 00 01 95 08
15:49:47.663 设备发送:03 03 04 84 00 04 04 F2
15:49:49.174 设备接收:03 03 08 13 85 0B 3B FF EA 0B 3B B8 03
15:49:49.190 设备发送:03 03 04 8D 00 21 15 2B
15:49:50.672 设备接收:03 03 42 08 E4 10 6C 00 00 00 00 00 00 00 00 00 00 00 00 00 00 00 00 00 00 08 F1 10 67 00 00 00 00 00 00 00 00 00 00 00 00 00 00 00 00 00 00 08 F2 10 8D 00 00 00 00 00 00 00 00 00 00 00 00 00 00 00 00 00 00 4A FF
15:49:50.720 设备发送:03 03 06 84 00 04 05 4A
15:49:52.220 设备接收:03 03 08 00 00 9F E5 00 13 FC D2 FE 8E
15:49:52.236 设备发送:03 03 04 04 00 01 C5 19
15:49:53.764 设备发送:03 03 04 04 00 01 C5 19
15:49:55.311 设备发送:03 03 04 04 00 01 C5 19
15:49:56.838 设备发送:03 03 05 84 00 0F 44 C9
15:49:58.316 设备接收:03 03 1E 1F C6 02 B0 02 30 1F DA 02 B7 02 37 20 4A 02 2C 01 CB 1F CD 02 35 01 CC 18 20 01 CA 01 1B 11 17
15:49:58.363 设备发送:03 03 05 93 00 0F F4 CD
15:49:59.859 设备接收:03 03 1E 05 44 00 00 00 00 13 62 01 AD 00 D5 1C 7D 01 5B 00 FD 1C 4C 01 61 01 00 05 49 00 00 00 00 35 B6
15:49:59.890 设备发送:03 03 05 A2 00 0F A5 02
15:50:01.379 设备接收:03 03 1E 00 0E 00 00 00 00 00 00 00 00 00 00 00 00 00 00 00 00 00 00 00 00 00 00 00 00 00 00 00 00 81 70
15:50:01.394 设备发送:03 03 05 B1 00 03 54 C2
15:50:02.908 设备接收:03 03 06 00 00 00 00 00 00 38 15
15:50:02.955 设备发送:03 03 04 2B 00 01 F4 D0
15:50:04.469 设备发送:03 03 04 2B 00 01 F4 D0
15:50:05.983 设备发送:03 03 04 2B 00 01 F4 D0
15:50:07.511 设备接收:03 03 02 02 E2 40 AD
15:50:07.527 设备发送:03 03 04 20 00 01 85 12
15:50:09.055 设备发送:03 03 04 20 00 01 85 12
15:50:10.572 设备接收:03 03 02 00 28 C1 9A
15:50:10.589 设备发送:03 03 04 05 00 01 94 D9
15:50:12.082 设备发送:03 03 04 05 00 01 94 D9
15:50:13.621 设备发送:03 03 04 05 00 01 94 D9
15:50:15.166 设备发送:01 03 04 84 00 04 05 10
15:50:16.673 设备接收:01 03 08 13 87 08 05 FF F0 08 05 19 6A
15:50:16.689 设备发送:01 03 04 8D 00 21 14 C9
15:50:18.191 设备接收:01 03 42 08 E7 0B BC 00 00 00 00 00 00 00 00 00 00 00 00 00 00 00 00 00 00 08 EC 0B D3 00 00 00 00 00 00 00 00 00 00 00 00 00 00 00 00 00 00 08 F2 0B ED 00 00 00 00 00 00 00 00 00 00 00 00 00 00 00 00 00 00 57 0F
15:50:18.207 设备发送:01 03 06 84 00 04 04 A8
15:50:19.727 设备接收:01 03 08 00 00 98 9B 00 13 2A DD C2 EF
15:50:19.742 设备发送:01 03 04 04 00 01 C4 FB
15:50:21.261 设备发送:01 03 04 04 00 01 C4 FB
15:50:22.784 设备发送:01 03 04 04 00 01 C4 FB
15:50:24.315 设备发送:01 03 05 84 00 0F 45 2B
15:50:25.816 设备接收:01 03 1E 21 3A 01 AE 01 6E 21 3A 01 A1 01 63 20 AE 01 96 01 54 20 D7 01 A6 01 63 18 3A 00 DC 00 88 0B B8
15:50:25.847 设备发送:01 03 05 93 00 0F F5 2F
15:50:27.365 设备接收:01 03 1E 00 00 00 00 00 00 1B E0 01 CC 01 48 1D E7 00 D4 00 A3 1D 32 00 DF 00 A7 00 00 00 05 00 00 29 FF
15:50:27.380 设备发送:01 03 05 A2 00 0F A4 E0
15:50:28.880 设备接收:01 03 1E 00 00 00 00 00 00 00 00 00 00 00 00 00 00 00 00 00 00 00 00 00 00 00 00 00 00 00 00 00 00 D8 BA
15:50:28.927 设备发送:01 03 05 B1 00 03 55 20
15:50:30.422 设备接收:01 03 06 00 00 00 00 00 00 21 75
15:50:30.437 设备发送:01 03 04 2B 00 01 F5 32
15:50:31.938 设备发送:01 03 04 2B 00 01 F5 32
15:50:33.484 设备发送:01 03 04 2B 00 01 F5 32
15:50:35.003 设备发送:01 03 04 20 00 01 84 F0
15:50:36.534 设备发送:01 03 04 20 00 01 84 F0
15:50:38.038 设备发送:01 03 04 20 00 01 84 F0
15:50:39.536 设备接收:01 03 02 00 24 B8 5F
15:50:39.583 设备发送:01 03 04 05 00 01 95 3B
15:50:41.098 设备发送:01 03 04 05 00 01 95 3B
15:50:42.628 设备发送:01 03 04 05 00 01 95 3B
15:50:44.170 设备发送:02 03 04 84 00 04 05 23
15:50:45.645 设备接收:02 03 08 13 8B 07 BC FF EF 07 BC B2 8E
15:50:45.676 设备发送:02 03 04 8D 00 21 14 FA
15:50:47.191 设备接收:02 03 42 08 E3 0B 54 00 00 00 00 00 00 00 00 00 00 00 00 00 00 00 00 00 00 08 E9 0B 61 00 00 00 00 00 00 00 00 00 00 00 00 00 00 00 00 00 00 08 EE 0B 86 00 00 00 00 00 00 00 00 00 00 00 00 00 00 00 00 00 00 A7 B9
15:50:47.206 设备发送:02 03 06 84 00 04 04 9B
15:50:48.733 设备发送:02 03 06 84 00 04 04 9B
15:50:50.232 设备接收:02 03 08 00 00 92 98 00 13 73 4E F3 3C
15:50:50.248 设备发送:02 03 04 04 00 01 C4 C8
15:50:51.778 设备发送:02 03 04 04 00 01 C4 C8
15:50:53.339 设备发送:02 03 04 04 00 01 C4 C8
15:50:54.857 设备发送:02 03 05 84 00 0F 45 18
15:50:56.371 设备接收:02 03 1E 20 BD 00 C3 00 A3 21 68 00 B8 00 9D 20 EC 00 C5 00 A6 20 B7 01 95 01 53 20 D4 00 C4 00 A5 91 27
15:50:56.387 设备发送:02 03 05 93 00 0F F5 1C
15:50:57.889 设备接收:02 03 1E 21 08 00 BD 00 A0 21 1C 00 D2 00 B2 21 1D 01 9D 01 5E 21 98 00 D0 00 B3 1F 76 01 44 01 05 86 07
15:50:57.904 设备发送:02 03 05 A2 00 0F A4 D3
15:50:59.402 设备接收:02 03 1E 00 00 00 03 00 00 00 00 00 00 00 00 00 00 00 00 00 00 00 00 00 00 00 00 00 00 00 00 00 00 6D 7D
15:50:59.433 设备发送:02 03 05 B1 00 03 55 13
15:51:00.945 设备接收:02 03 06 00 00 00 00 00 00 35 85
15:51:00.977 设备发送:02 03 04 2B 00 01 F5 01
15:51:02.492 设备发送:02 03 04 2B 00 01 F5 01
15:51:04.005 设备发送:02 03 04 2B 00 01 F5 01
15:51:05.551 设备发送:02 03 04 20 00 01 84 C3
15:51:07.046 设备接收:02 03 02 00 3B BD 97
15:51:07.061 设备发送:02 03 04 05 00 01 95 08
15:51:08.572 设备发送:02 03 04 05 00 01 95 08
15:51:10.091 设备发送:02 03 04 05 00 01 95 08
15:51:11.634 设备发送:03 03 04 84 00 04 04 F2
15:51:13.117 设备接收:03 03 08 13 8A 0A F3 00 14 0A F3 F6 E0
15:51:13.149 设备发送:03 03 04 8D 00 21 15 2B
15:51:14.665 设备接收:03 03 42 08 E7 10 01 00 00 00 00 00 00 00 00 00 00 00 00 00 00 00 00 00 00 08 F3 10 00 00 00 00 00 00 00 00 00 00 00 00 00 00 00 00 00 00 00 08 F5 10 25 00 00 00 00 00 00 00 00 00 00 00 00 00 00 00 00 00 00 EB CA
15:51:14.713 设备发送:03 03 06 84 00 04 05 4A
15:51:16.238 设备发送:03 03 06 84 00 04 05 4A
15:51:17.751 设备发送:03 03 06 84 00 04 05 4A
15:51:19.251 设备接收:03 03 08 00 00 A0 29 00 13 FC D9 AA 56
15:51:19.267 设备发送:03 03 04 04 00 01 C5 19
15:51:20.829 设备发送:03 03 04 04 00 01 C5 19
15:51:22.328 设备发送:03 03 04 04 00 01 C5 19
15:51:23.887 设备发送:03 03 05 84 00 0F 44 C9
15:51:25.367 设备接收:03 03 1E 1F C6 02 A2 02 24 1F B3 02 AB 02 2A 20 4A 02 1E 01 C0 1F F6 02 26 01 C2 18 20 01 BF 01 14 34 FA
15:51:25.445 设备发送:03 03 05 93 00 0F F4 CD
15:51:26.898 设备接收:03 03 1E 05 45 00 00 00 00 13 61 01 A3 00 D0 1C 2B 01 56 00 F6 1C 4D 01 5A 00 FA 05 47 00 00 00 00 5B 41
15:51:26.929 设备发送:03 03 05 A2 00 0F A5 02
15:51:28.442 设备接收:03 03 1E 00 0E 00 00 00 00 00 00 00 00 00 00 00 00 00 00 00 00 00 00 00 00 00 00 00 00 00 00 00 00 81 70
15:51:28.473 设备发送:03 03 05 B1 00 03 54 C2
15:51:29.943 设备接收:03 03 06 00 00 00 00 00 00 38 15
15:51:30.006 设备发送:03 03 04 2B 00 01 F4 D0
15:51:31.519 设备发送:03 03 04 2B 00 01 F4 D0
15:51:33.003 设备接收:03 03 02 02 E2 40 AD
15:51:33.019 设备发送:03 03 04 20 00 01 85 12
15:51:34.565 设备发送:03 03 04 20 00 01 85 12
15:51:36.106 设备发送:03 03 04 20 00 01 85 12
15:51:37.618 设备发送:03 03 04 05 00 01 94 D9
15:51:39.116 设备发送:03 03 04 05 00 01 94 D9
15:51:40.646 设备接收:03 03 02 00 00 C1 84
15:51:40.661 设备发送:01 03 04 84 00 04 05 10
15:51:42.159 设备接收:01 03 08 13 88 07 DB FF EF 07 DB FA E8
15:51:42.190 设备发送:01 03 04 8D 00 21 14 C9
15:51:43.693 设备接收:01 03 42 08 E5 0B 79 00 00 00 00 00 00 00 00 00 00 00 00 00 00 00 00 00 00 08 EE 0B 96 00 00 00 00 00 00 00 00 00 00 00 00 00 00 00 00 00 00 08 F4 0B B6 00 00 00 00 00 00 00 00 00 00 00 00 00 00 00 00 00 00 91 9A
15:51:43.771 设备发送:01 03 06 84 00 04 04 A8
15:51:45.237 设备发送:01 03 06 84 00 04 04 A8
15:51:46.770 设备发送:01 03 06 84 00 04 04 A8
15:51:48.285 设备发送:01 03 04 04 00 01 C4 FB
15:51:49.829 设备发送:01 03 04 04 00 01 C4 FB
15:51:51.362 设备发送:01 03 04 04 00 01 C4 FB
15:51:52.876 设备发送:01 03 05 84 00 0F 45 2B
15:51:54.372 设备接收:01 03 1E 21 63 01 A4 01 67 21 63 01 96 01 5B 20 AB 01 8D 01 4C 21 2A 01 8A 01 4F 17 E9 00 D8 00 84 C1 5A
15:51:54.420 设备发送:01 03 05 93 00 0F F5 2F
15:51:55.897 设备接收:01 03 1E 00 00 00 00 00 00 1C 09 01 C0 01 42 1D 95 00 D4 00 A0 1D 83 00 DA 00 A4 00 00 00 03 00 00 BB A1
15:51:55.945 设备发送:01 03 05 A2 00 0F A4 E0
15:51:57.429 设备接收:01 03 1E 00 00 00 00 00 00 00 00 00 00 00 00 00 00 00 00 00 00 00 00 00 00 00 00 00 00 00 00 00 00 D8 BA
15:51:57.476 设备发送:01 03 05 B1 00 03 55 20
15:51:58.973 设备接收:01 03 06 00 00 00 00 00 00 21 75
15:51:58.988 设备发送:01 03 04 2B 00 01 F5 32
15:52:00.517 设备发送:01 03 04 2B 00 01 F5 32
15:52:02.049 设备发送:01 03 04 2B 00 01 F5 32
15:52:03.573 设备发送:01 03 04 20 00 01 84 F0
15:52:05.119 设备发送:01 03 04 20 00 01 84 F0
15:52:06.601 设备发送:01 03 04 20 00 01 84 F0
15:52:08.146 设备发送:01 03 04 05 00 01 95 3B
15:52:09.672 设备发送:01 03 04 05 00 01 95 3B
15:52:11.200 设备发送:01 03 04 05 00 01 95 3B
15:52:12.734 设备发送:02 03 04 84 00 04 05 23
15:52:14.253 设备发送:02 03 04 84 00 04 05 23
15:52:15.739 设备接收:02 03 08 13 88 07 72 FF D2 07 72 F8 06
15:52:15.787 设备发送:02 03 04 8D 00 21 14 FA
15:52:17.286 设备接收:02 03 42 08 E6 0B 0D 00 00 00 00 00 00 00 00 00 00 00 00 00 00 00 00 00 00 08 ED 0B 19 00 00 00 00 00 00 00 00 00 00 00 00 00 00 00 00 00 00 08 EF 0B 3F 00 00 00 00 00 00 00 00 00 00 00 00 00 00 00 00 00 00 CF F7
15:52:17.333 设备发送:02 03 06 84 00 04 04 9B
15:52:18.817 设备接收:02 03 08 00 00 92 C8 00 13 73 53 F3 39
15:52:18.832 设备发送:02 03 04 04 00 01 C4 C8
15:52:20.371 设备发送:02 03 04 04 00 01 C4 C8
15:52:21.906 设备发送:02 03 04 04 00 01 C4 C8
15:52:23.423 设备发送:02 03 05 84 00 0F 45 18
15:52:24.922 设备接收:02 03 1E 20 B0 00 BC 00 9D 21 44 00 B5 00 9A 20 EF 00 C1 00 A2 21 02 01 7D 01 42 21 4B 00 BD 00 A1 09 D4
15:52:24.970 设备发送:02 03 05 93 00 0F F5 1C
15:52:26.481 设备接收:02 03 1E 20 B1 00 BC 00 9E 21 31 00 BD 00 A1 21 1D 01 96 01 59 21 97 00 CE 00 B1 1F 72 01 3B 00 FD 14 0C
15:52:26.496 设备发送:02 03 05 A2 00 0F A4 D3
15:52:27.996 设备接收:02 03 1E 00 00 00 03 00 00 00 00 00 00 00 00 00 00 00 00 00 00 00 00 00 00 00 00 00 00 00 00 00 00 6D 7D
15:52:28.012 设备发送:02 03 05 B1 00 03 55 13
15:52:29.499 设备接收:02 03 06 00 00 00 00 00 00 35 85
15:52:29.547 设备发送:02 03 04 2B 00 01 F5 01
15:52:31.074 设备发送:02 03 04 2B 00 01 F5 01
15:52:32.601 设备发送:02 03 04 2B 00 01 F5 01
15:52:34.133 设备发送:02 03 04 20 00 01 84 C3
15:52:35.649 设备发送:02 03 04 20 00 01 84 C3
15:52:37.202 设备发送:02 03 04 20 00 01 84 C3
15:52:38.701 设备发送:02 03 04 05 00 01 95 08
15:52:40.233 设备发送:02 03 04 05 00 01 95 08
15:52:41.760 设备发送:02 03 04 05 00 01 95 08
15:52:43.306 设备发送:03 03 04 84 00 04 04 F2
15:52:44.793 设备接收:03 03 08 13 89 0A AF 00 14 0A B0 54 1C
15:52:44.839 设备发送:03 03 04 8D 00 21 15 2B
15:52:46.339 设备接收:03 03 42 08 E3 0F A7 00 00 00 00 00 00 00 00 00 00 00 00 00 00 00 00 00 00 08 F1 0F A6 00 00 00 00 00 00 00 00 00 00 00 00 00 00 00 00 00 00 08 F1 0F C9 00 00 00 00 00 00 00 00 00 00 00 00 00 00 00 00 00 00 E4 8F
15:52:46.356 设备发送:03 03 06 84 00 04 05 4A
15:52:47.900 设备发送:03 03 06 84 00 04 05 4A
15:52:49.412 设备发送:03 03 06 84 00 04 05 4A
15:52:50.945 设备接收:03 03 08 00 00 A0 6F 00 13 FC E0 E3 8B
15:52:50.961 设备发送:03 03 04 04 00 01 C5 19
15:52:52.449 设备发送:03 03 04 04 00 01 C5 19
15:52:53.983 设备发送:03 03 04 04 00 01 C5 19
15:52:55.525 设备发送:03 03 05 84 00 0F 44 C9
15:52:57.041 设备接收:03 03 1E 1F C7 02 93 02 18 1F DA 02 98 02 1E 1F D1 02 18 01 B5 1F A8 02 1F 01 B8 18 21 01 B5 01 0E E9 FB
15:52:57.057 设备发送:03 03 05 93 00 0F F4 CD
15:52:58.556 设备接收:03 03 1E 05 42 00 00 00 00 13 39 01 A0 00 CC 1C 2B 01 51 00 F3 1B F9 01 53 00 F3 05 48 00 00 00 00 3B 13
15:52:58.588 设备发送:03 03 05 A2 00 0F A5 02
15:53:00.089 设备接收:03 03 1E 00 0E 00 00 00 00 00 00 00 00 00 00 00 00 00 00 00 00 00 00 00 00 00 00 00 00 00 00 00 00 81 70
15:53:00.105 设备发送:03 03 05 B1 00 03 54 C2
15:53:01.619 设备接收:03 03 06 00 00 00 00 00 00 38 15
15:53:01.635 设备发送:03 03 04 2B 00 01 F4 D0
15:53:03.164 设备接收:03 03 02 02 E2 40 AD
15:53:03.180 设备发送:03 03 04 20 00 01 85 12
15:53:04.674 设备发送:03 03 04 20 00 01 85 12
15:53:06.206 设备发送:03 03 04 20 00 01 85 12
15:53:07.739 设备发送:03 03 04 05 00 01 94 D9
15:53:09.248 设备接收:03 03 02 00 00 C1 84
15:53:09.263 设备发送:01 03 04 84 00 04 05 10
15:53:10.797 设备接收:01 03 08 13 86 07 A7 FF D1 07 A7 24 CF
15:53:10.812 设备发送:01 03 04 8D 00 21 14 C9
15:53:12.313 设备接收:01 03 42 08 E6 0B 1A 00 00 00 00 00 00 00 00 00 00 00 00 00 00 00 00 00 00 08 EA 0B 2A 00 00 00 00 00 00 00 00 00 00 00 00 00 00 00 00 00 00 08 EF 0B 4A 00 00 00 00 00 00 00 00 00 00 00 00 00 00 00 00 00 00 66 34
15:53:12.328 设备发送:01 03 06 84 00 04 04 A8
15:53:13.848 设备接收:01 03 08 00 00 98 FD 00 13 2A E7 4A F4
15:53:13.879 设备发送:01 03 04 04 00 01 C4 FB
15:53:15.388 设备发送:01 03 04 04 00 01 C4 FB
15:53:16.918 设备发送:01 03 04 04 00 01 C4 FB
15:53:18.436 设备发送:01 03 05 84 00 0F 45 2B
15:53:19.932 设备接收:01 03 1E 21 60 01 9B 01 5F 21 0E 01 8D 01 50 20 59 01 83 01 41 21 65 01 8E 01 54 18 3A 00 D3 00 82 1D 89
15:53:19.964 设备发送:01 03 05 93 00 0F F5 2F
15:53:21.499 设备接收:01 03 1E 00 00 00 00 00 00 1B E1 01 BB 01 3C 1D 96 00 CC 00 9A 1D 85 00 D5 00 A1 00 00 00 03 00 00 C6 77
15:53:21.515 设备发送:01 03 05 A2 00 0F A4 E0
15:53:23.012 设备接收:01 03 1E 00 00 00 00 00 00 00 00 00 00 00 00 00 00 00 00 00 00 00 00 00 00 00 00 00 00 00 00 00 00 D8 BA
15:53:23.027 设备发送:01 03 05 B1 00 03 55 20
15:53:24.557 设备发送:01 03 05 B1 00 03 55 20
15:53:26.069 设备接收:01 03 06 00 00 00 00 00 00 21 75
15:53:26.085 设备发送:01 03 04 2B 00 01 F5 32
15:53:27.613 设备发送:01 03 04 2B 00 01 F5 32
15:53:29.136 设备发送:01 03 04 2B 00 01 F5 32
15:53:30.653 设备发送:01 03 04 20 00 01 84 F0
15:53:32.196 设备发送:01 03 04 20 00 01 84 F0
15:53:33.700 设备发送:01 03 04 20 00 01 84 F0
15:53:35.230 设备发送:01 03 04 05 00 01 95 3B
15:53:36.762 设备发送:01 03 04 05 00 01 95 3B
15:53:38.278 设备发送:01 03 04 05 00 01 95 3B
15:53:39.824 设备发送:02 03 04 84 00 04 05 23
15:53:41.341 设备发送:02 03 04 84 00 04 05 23
15:53:42.817 设备接收:02 03 08 13 87 07 5A FF D3 07 5A 36 DE
15:53:42.865 设备发送:02 03 04 8D 00 21 14 FA
15:53:44.358 设备接收:02 03 42 08 E8 0A D0 00 00 00 00 00 00 00 00 00 00 00 00 00 00 00 00 00 00 08 EB 0A DA 00 00 00 00 00 00 00 00 00 00 00 00 00 00 00 00 00 00 08 F3 0B 06 00 00 00 00 00 00 00 00 00 00 00 00 00 00 00 00 00 00 7D 16
15:53:44.389 设备发送:02 03 06 84 00 04 04 9B
15:53:45.919 设备发送:02 03 06 84 00 04 04 9B
15:53:47.435 设备接收:02 03 08 00 00 92 F7 00 13 73 58 A6 FB
15:53:47.450 设备发送:02 03 04 04 00 01 C4 C8
15:53:48.948 设备发送:02 03 04 04 00 01 C4 C8
15:53:50.478 设备发送:02 03 04 04 00 01 C4 C8
15:53:51.995 设备发送:02 03 05 84 00 0F 45 18
15:53:53.523 设备接收:02 03 1E 20 BE 00 BA 00 9C 21 24 00 B2 00 97 20 9E 00 BC 00 9D 20 BB 01 85 01 46 20 D3 00 BB 00 9D D5 C8
15:53:53.540 设备发送:02 03 05 93 00 0F F5 1C
15:53:55.031 设备接收:02 03 1E 20 B3 00 B7 00 99 21 B2 00 C6 00 AB 21 46 01 88 01 4E 21 B2 00 C9 00 AD 1E 84 01 3A 00 F5 9E 24
15:53:55.078 设备发送:02 03 05 A2 00 0F A4 D3
15:53:56.576 设备接收:02 03 1E 00 00 00 04 00 00 00 00 00 00 00 00 00 00 00 00 00 00 00 00 00 00 00 00 00 00 00 00 00 00 92 31
15:53:56.593 设备发送:02 03 05 B1 00 03 55 13
15:53:58.117 设备接收:02 03 06 00 00 00 00 00 00 35 85
15:53:58.132 设备发送:02 03 04 2B 00 01 F5 01
15:53:59.646 设备发送:02 03 04 2B 00 01 F5 01
15:54:01.160 设备发送:02 03 04 2B 00 01 F5 01
15:54:02.693 设备发送:02 03 04 20 00 01 84 C3
15:54:04.219 设备发送:02 03 04 20 00 01 84 C3
15:54:05.737 设备接收:02 03 02 00 3B BD 97
15:54:05.752 设备发送:02 03 04 05 00 01 95 08
15:54:07.268 设备发送:02 03 04 05 00 01 95 08
15:54:08.825 设备发送:02 03 04 05 00 01 95 08
15:54:10.340 设备发送:03 03 04 84 00 04 04 F2
15:54:11.853 设备接收:03 03 08 13 8C 0A 6B FF EB 0A 6B B0 B2
15:54:11.885 设备发送:03 03 04 8D 00 21 15 2B
15:54:13.385 设备接收:03 03 42 08 E4 0F 3C 00 00 00 00 00 00 00 00 00 00 00 00 00 00 00 00 00 00 08 EF 0F 3D 00 00 00 00 00 00 00 00 00 00 00 00 00 00 00 00 00 00 08 F1 0F 67 00 00 00 00 00 00 00 00 00 00 00 00 00 00 00 00 00 00 50 83
15:54:13.449 设备发送:03 03 06 84 00 04 05 4A
15:54:14.949 设备接收:03 03 08 00 00 A0 AE 00 13 FC E6 5E 58
15:54:14.965 设备发送:03 03 04 04 00 01 C5 19
15:54:16.497 设备发送:03 03 04 04 00 01 C5 19
15:54:18.015 设备发送:03 03 04 04 00 01 C5 19
15:54:19.560 设备发送:03 03 05 84 00 0F 44 C9
15:54:21.031 设备接收:03 03 1E 1F EF 02 7E 02 09 1F B3 02 8B 02 11 20 23 02 09 01 AC 1F D0 02 11 01 AF 18 48 01 A9 01 08 04 14
15:54:21.080 设备发送:03 03 05 93 00 0F F4 CD
15:54:22.580 设备接收:03 03 1E 05 47 00 00 00 00 13 3A 01 97 00 C8 1B D7 01 4B 00 EC 1C 49 01 4A 00 EF 05 49 00 00 00 00 79 CD
15:54:22.658 设备发送:03 03 05 A2 00 0F A5 02
15:54:24.112 设备接收:03 03 1E 00 0F 00 00 00 00 00 00 00 00 00 00 00 00 00 00 00 00 00 00 00 00 00 00 00 00 00 00 00 00 41 71
15:54:24.128 设备发送:03 03 05 B1 00 03 54 C2
15:54:25.657 设备发送:03 03 05 B1 00 03 54 C2
15:54:27.176 设备发送:03 03 05 B1 00 03 54 C2
15:54:28.694 设备发送:03 03 04 2B 00 01 F4 D0
15:54:30.222 设备发送:03 03 04 2B 00 01 F4 D0
15:54:31.751 设备发送:03 03 04 2B 00 01 F4 D0
15:54:33.271 设备发送:03 03 04 20 00 01 85 12
15:54:34.774 设备接收:03 03 02 00 32 40 51
15:54:34.791 设备发送:03 03 04 05 00 01 94 D9
15:54:36.320 设备发送:03 03 04 05 00 01 94 D9
15:54:37.846 设备发送:03 03 04 05 00 01 94 D9
15:54:39.358 设备接收:03 03 02 00 00 C1 84
15:54:39.390 设备发送:01 03 04 84 00 04 05 10
15:54:40.923 设备发送:01 03 04 84 00 04 05 10
15:54:42.421 设备接收:01 03 08 13 87 07 79 FF EF 07 79 7D 88
15:54:42.440 设备发送:01 03 04 8D 00 21 14 C9
15:54:43.967 设备接收:01 03 42 08 E6 0A E2 00 00 00 00 00 00 00 00 00 00 00 00 00 00 00 00 00 00 08 E8 0A F7 00 00 00 00 00 00 00 00 00 00 00 00 00 00 00 00 00 00 08 EF 0B 12 00 00 00 00 00 00 00 00 00 00 00 00 00 00 00 00 00 00 AA A5
15:54:43.983 设备发送:01 03 06 84 00 04 04 A8
15:54:45.498 设备接收:01 03 08 00 00 99 2E 00 13 2A EC 8F 30
15:54:45.514 设备发送:01 03 04 04 00 01 C4 FB
15:54:47.027 设备发送:01 03 04 04 00 01 C4 FB
15:54:48.562 设备发送:01 03 04 04 00 01 C4 FB
15:54:50.117 设备发送:01 03 05 84 00 0F 45 2B
15:54:51.602 设备接收:01 03 1E 20 EC 01 8F 01 51 21 0E 01 85 01 49 21 12 01 75 01 3C 20 D7 01 8B 01 4C 17 E8 00 CB 00 7C A9 7C
15:54:51.617 设备发送:01 03 05 93 00 0F F5 2F
15:54:53.146 设备接收:01 03 1E 00 00 00 00 00 00 1B BB 01 AE 01 31 1D 46 00 CA 00 98 1D 86 00 CF 00 9D 00 00 00 04 00 00 85 A1
15:54:53.165 设备发送:01 03 05 A2 00 0F A4 E0
15:54:54.658 设备接收:01 03 1E 00 00 00 00 00 00 00 00 00 00 00 00 00 00 00 00 00 00 00 00 00 00 00 00 00 00 00 00 00 00 D8 BA
15:54:54.674 设备发送:01 03 05 B1 00 03 55 20
15:54:56.193 设备接收:01 03 06 00 00 00 00 00 00 21 75
15:54:56.208 设备发送:01 03 04 2B 00 01 F5 32
15:54:57.721 设备发送:01 03 04 2B 00 01 F5 32
15:54:59.296 设备发送:01 03 04 2B 00 01 F5 32
15:55:00.815 设备发送:01 03 04 20 00 01 84 F0
15:55:02.330 设备发送:01 03 04 20 00 01 84 F0
15:55:03.870 设备发送:01 03 04 20 00 01 84 F0
15:55:05.388 设备发送:01 03 04 05 00 01 95 3B
15:55:06.907 设备发送:01 03 04 05 00 01 95 3B
15:55:08.422 设备发送:01 03 04 05 00 01 95 3B
15:55:09.984 设备发送:02 03 04 84 00 04 05 23
15:55:11.464 设备接收:02 03 08 13 85 07 2C FF F0 07 2C AC F9
15:55:11.480 设备发送:02 03 04 8D 00 21 14 FA
15:55:12.995 设备接收:02 03 42 08 E2 0A 84 00 00 00 00 00 00 00 00 00 00 00 00 00 00 00 00 00 00 08 E6 0A 88 00 00 00 00 00 00 00 00 00 00 00 00 00 00 00 00 00 00 08 EC 0A AF 00 00 00 00 00 00 00 00 00 00 00 00 00 00 00 00 00 00 70 BA
15:55:13.041 设备发送:02 03 06 84 00 04 04 9B
15:55:14.552 设备接收:02 03 08 00 00 93 23 00 13 73 5C 96 FB
15:55:14.567 设备发送:02 03 04 04 00 01 C4 C8
15:55:16.083 设备发送:02 03 04 04 00 01 C4 C8
15:55:17.622 设备发送:02 03 04 04 00 01 C4 C8
15:55:19.154 设备发送:02 03 05 84 00 0F 45 18
15:55:20.644 设备接收:02 03 1E 21 0D 00 B3 00 97 21 23 00 AD 00 93 20 EE 00 B8 00 9B 20 65 01 7D 01 3C 21 21 00 B5 00 9A AE F1
15:55:20.660 设备发送:02 03 05 93 00 0F F5 1C
15:55:22.174 设备接收:02 03 1E 21 5A 00 AC 00 93 21 B1 00 C1 00 A7 21 48 01 7E 01 45 20 FC 00 C5 00 A6 1E 87 01 31 00 EE 61 5A
15:55:22.192 设备发送:02 03 05 A2 00 0F A4 D3
15:55:23.703 设备接收:02 03 1E 00 00 00 04 00 00 00 00 00 00 00 00 00 00 00 00 00 00 00 00 00 00 00 00 00 00 00 00 00 00 92 31
15:55:23.719 设备发送:02 03 05 B1 00 03 55 13
15:55:25.227 设备接收:02 03 06 00 00 00 00 00 00 35 85
15:55:25.301 设备发送:02 03 04 2B 00 01 F5 01
15:55:26.786 设备发送:02 03 04 2B 00 01 F5 01
15:55:28.320 设备发送:02 03 04 2B 00 01 F5 01
15:55:29.823 设备发送:02 03 04 20 00 01 84 C3
15:55:31.353 设备发送:02 03 04 20 00 01 84 C3
15:55:32.900 设备发送:02 03 04 20 00 01 84 C3
15:55:34.413 设备接收:02 03 02 00 3A 7C 57
15:55:34.448 设备发送:02 03 04 05 00 01 95 08
15:55:35.943 设备发送:02 03 04 05 00 01 95 08
15:55:37.443 设备发送:02 03 04 05 00 01 95 08
15:55:38.986 设备发送:03 03 04 84 00 04 04 F2
15:55:40.540 设备发送:03 03 04 84 00 04 04 F2
15:55:42.008 设备接收:03 03 08 13 89 0A 18 FF EB 0A 18 A1 9C
15:55:42.040 设备发送:03 03 04 8D 00 21 15 2B
15:55:43.561 设备接收:03 03 42 08 E1 0E C6 00 00 00 00 00 00 00 00 00 00 00 00 00 00 00 00 00 00 08 F0 0E C6 00 00 00 00 00 00 00 00 00 00 00 00 00 00 00 00 00 00 08 F2 0E E9 00 00 00 00 00 00 00 00 00 00 00 00 00 00 00 00 00 00 A0 C0
15:55:43.576 设备发送:03 03 06 84 00 04 05 4A
15:55:45.093 设备接收:03 03 08 00 00 A0 EF 00 13 FC EC E2 50
15:55:45.109 设备发送:03 03 04 04 00 01 C5 19
15:55:46.619 设备接收:03 03 02 00 02 40 45
15:55:46.635 设备发送:03 03 05 84 00 0F 44 C9
15:55:48.148 设备接收:03 03 1E 1F EF 02 6D 01 FC 1F DB 02 78 02 03 20 23 01 FA 01 A1 1F CF 02 02 01 A2 18 71 01 9D 01 02 88 0A
15:55:48.164 设备发送:03 03 05 93 00 0F F4 CD
15:55:49.695 设备接收:03 03 1E 05 44 00 00 00 00 13 61 01 86 00 C1 1C 2C 01 40 00 E6 1C 4C 01 44 00 EA 05 48 00 00 00 00 CA 7B
15:55:49.710 设备发送:03 03 05 A2 00 0F A5 02
15:55:51.193 设备接收:03 03 1E 00 0E 00 00 00 00 00 00 00 00 00 00 00 00 00 00 00 00 00 00 00 00 00 00 00 00 00 00 00 00 81 70
15:55:51.228 设备发送:03 03 05 B1 00 03 54 C2
15:55:52.722 设备接收:03 03 06 00 00 00 00 00 00 38 15
15:55:52.770 设备发送:03 03 04 2B 00 01 F4 D0
15:55:54.285 设备发送:03 03 04 2B 00 01 F4 D0
15:55:55.795 设备发送:03 03 04 2B 00 01 F4 D0
15:55:57.309 设备发送:03 03 04 20 00 01 85 12
15:55:58.827 设备发送:03 03 04 20 00 01 85 12
15:56:00.358 设备发送:03 03 04 20 00 01 85 12
15:56:01.889 设备发送:03 03 04 05 00 01 94 D9
15:56:03.417 设备发送:03 03 04 05 00 01 94 D9
15:56:04.961 设备发送:03 03 04 05 00 01 94 D9
15:56:06.490 设备发送:01 03 04 84 00 04 05 10
15:56:07.989 设备接收:01 03 08 13 89 07 38 FF F0 07 38 5F B1
15:56:08.004 设备发送:01 03 04 8D 00 21 14 C9
15:56:09.508 设备接收:01 03 42 08 E2 0A A5 00 00 00 00 00 00 00 00 00 00 00 00 00 00 00 00 00 00 08 E8 0A B9 00 00 00 00 00 00 00 00 00 00 00 00 00 00 00 00 00 00 08 EE 0A D9 00 00 00 00 00 00 00 00 00 00 00 00 00 00 00 00 00 00 D1 27
15:56:09.524 设备发送:01 03 06 84 00 04 04 A8
15:56:11.046 设备接收:01 03 08 00 00 99 5B 00 13 2A F0 03 32
15:56:11.061 设备发送:01 03 04 04 00 01 C4 FB
15:56:12.592 设备发送:01 03 04 04 00 01 C4 FB
15:56:14.108 设备发送:01 03 04 04 00 01 C4 FB
15:56:15.642 设备发送:01 03 05 84 00 0F 45 2B
15:56:17.155 设备接收:01 03 1E 21 11 01 8B 01 4F 21 11 01 7B 01 41 20 AF 01 6F 01 33 20 D7 01 91 01 51 18 39 00 C7 00 7B 8E 9E
15:56:17.173 设备发送:01 03 05 93 00 0F F5 2F
15:56:18.670 设备接收:01 03 1E 00 00 00 00 00 00 1B B6 01 A4 01 2A 1D 96 00 C4 00 94 1D 32 00 CB 00 97 00 00 00 05 00 00 9D E7
15:56:18.685 设备发送:01 03 05 A2 00 0F A4 E0
15:56:20.170 设备接收:01 03 1E 00 00 00 00 00 00 00 00 00 00 00 00 00 00 00 00 00 00 00 00 00 00 00 00 00 00 00 00 00 00 D8 BA
15:56:20.218 设备发送:01 03 05 B1 00 03 55 20
15:56:21.706 设备接收:01 03 06 00 00 00 00 00 00 21 75
15:56:21.753 设备发送:01 03 04 2B 00 01 F5 32
15:56:23.266 设备发送:01 03 04 2B 00 01 F5 32
15:56:24.808 设备发送:01 03 04 2B 00 01 F5 32
15:56:26.337 设备发送:01 03 04 20 00 01 84 F0
15:56:27.848 设备发送:01 03 04 20 00 01 84 F0
15:56:29.376 设备发送:01 03 04 20 00 01 84 F0
15:56:30.906 设备发送:01 03 04 05 00 01 95 3B
15:56:32.432 设备发送:01 03 04 05 00 01 95 3B
15:56:33.958 设备发送:01 03 04 05 00 01 95 3B
15:56:35.492 设备发送:02 03 04 84 00 04 05 23
15:56:36.986 设备接收:02 03 08 13 88 06 FD FF D5 06 FD 5D FD
15:56:37.019 设备发送:02 03 04 8D 00 21 14 FA
15:56:38.516 设备接收:02 03 42 08 E2 0A 40 00 00 00 00 00 00 00 00 00 00 00 00 00 00 00 00 00 00 08 EA 0A 4B 00 00 00 00 00 00 00 00 00 00 00 00 00 00 00 00 00 00 08 EF 0A 73 00 00 00 00 00 00 00 00 00 00 00 00 00 00 00 00 00 00 87 B7
15:56:38.564 设备发送:02 03 06 84 00 04 04 9B
15:56:40.064 设备接收:02 03 08 00 00 93 4E 00 13 73 61 FA E3
15:56:40.080 设备发送:02 03 04 04 00 01 C4 C8
15:56:41.614 设备发送:02 03 04 04 00 01 C4 C8
15:56:43.125 设备发送:02 03 04 04 00 01 C4 C8
15:56:44.659 设备发送:02 03 05 84 00 0F 45 18
15:56:46.154 设备接收:02 03 1E 21 0C 00 B0 00 94 20 D2 00 A9 00 8E 20 9C 00 B5 00 97 20 B6 01 73 01 37 20 D1 00 B1 00 95 ED 8B
15:56:46.171 设备发送:02 03 05 93 00 0F F5 1C
15:56:47.686 设备接收:02 03 1E 20 6E 00 AE 00 91 22 51 00 B0 00 9B 21 39 01 75 01 3D 21 3E 00 BF 00 A2 1E 82 01 2B 00 E9 46 35
15:56:47.702 设备发送:02 03 05 A2 00 0F A4 D3
15:56:49.234 设备接收:02 03 1E 00 00 00 03 00 00 00 00 00 00 00 00 00 00 00 00 00 00 00 00 00 00 00 00 00 00 00 00 00 00 6D 7D
15:56:49.250 设备发送:02 03 05 B1 00 03 55 13
15:56:50.748 设备接收:02 03 06 00 00 00 00 00 00 35 85
15:56:50.764 设备发送:02 03 04 2B 00 01 F5 01
15:56:52.279 设备发送:02 03 04 2B 00 01 F5 01
15:56:53.810 设备发送:02 03 04 2B 00 01 F5 01
15:56:55.324 设备发送:02 03 04 20 00 01 84 C3
15:56:56.851 设备发送:02 03 04 20 00 01 84 C3
15:56:58.368 设备发送:02 03 04 20 00 01 84 C3
15:56:59.896 设备发送:02 03 04 05 00 01 95 08
15:57:01.428 设备发送:02 03 04 05 00 01 95 08
15:57:02.941 设备发送:02 03 04 05 00 01 95 08
15:57:04.499 设备发送:03 03 04 84 00 04 04 F2
15:57:05.966 设备接收:03 03 08 13 8C 09 DA FF C6 09 DB 5D D6
15:57:06.013 设备发送:03 03 04 8D 00 21 15 2B
15:57:07.509 设备接收:03 03 42 08 DF 0E 6B 00 00 00 00 00 00 00 00 00 00 00 00 00 00 00 00 00 00 08 EF 0E 6F 00 00 00 00 00 00 00 00 00 00 00 00 00 00 00 00 00 00 08 F1 0E 98 00 00 00 00 00 00 00 00 00 00 00 00 00 00 00 00 00 00 ED EA
15:57:07.556 设备发送:03 03 06 84 00 04 05 4A
15:57:09.060 设备发送:03 03 06 84 00 04 05 4A
15:57:10.589 设备接收:03 03 08 00 00 A1 2C 00 13 FC F3 E6 58
15:57:10.620 设备发送:03 03 04 04 00 01 C5 19
15:57:12.118 设备发送:03 03 04 04 00 01 C5 19
15:57:13.650 设备发送:03 03 04 04 00 01 C5 19
15:57:15.196 设备发送:03 03 05 84 00 0F 44 C9
15:57:16.698 设备接收:03 03 1E 1F C7 02 62 01 F0 1F B3 02 6C 01 F7 20 22 01 ED 01 96 20 1F 01 F2 01 9A 18 49 01 96 00 FC 82 A6
15:57:16.713 设备发送:03 03 05 93 00 0F F4 CD
15:57:18.213 设备接收:03 03 1E 05 44 00 00 00 00 13 12 01 85 00 BE 1B DB 01 3A 00 DF 1C 4C 01 3A 00 E3 05 46 00 00 00 00 FB 5B
15:57:18.245 设备发送:03 03 05 A2 00 0F A5 02
15:57:19.757 设备接收:03 03 1E 00 0E 00 00 00 00 00 00 00 00 00 00 00 00 00 00 00 00 00 00 00 00 00 00 00 00 00 00 00 00 81 70
15:57:19.773 设备发送:03 03 05 B1 00 03 54 C2
15:57:21.304 设备接收:03 03 06 00 00 00 00 00 00 38 15
15:57:21.320 设备发送:03 03 04 2B 00 01 F4 D0
15:57:22.819 设备发送:03 03 04 2B 00 01 F4 D0
15:57:24.369 设备发送:03 03 04 2B 00 01 F4 D0
15:57:25.884 设备发送:03 03 04 20 00 01 85 12
15:57:27.429 设备发送:03 03 04 20 00 01 85 12
15:57:28.943 设备发送:03 03 04 20 00 01 85 12
15:57:30.470 设备发送:03 03 04 05 00 01 94 D9
15:57:31.968 设备接收:03 03 02 00 00 C1 84
15:57:32.014 设备发送:01 03 04 84 00 04 05 10
15:57:33.512 设备接收:01 03 08 13 8B 07 14 FF F1 07 14 BD AA
15:57:33.546 设备发送:01 03 04 8D 00 21 14 C9
15:57:35.041 设备接收:01 03 42 08 E5 0A 5A 00 00 00 00 00 00 00 00 00 00 00 00 00 00 00 00 00 00 08 E7 0A 73 00 00 00 00 00 00 00 00 00 00 00 00 00 00 00 00 00 00 08 EF 0A 8D 00 00 00 00 00 00 00 00 00 00 00 00 00 00 00 00 00 00 D3 1E
15:57:35.072 设备发送:01 03 06 84 00 04 04 A8
15:57:36.602 设备发送:01 03 06 84 00 04 04 A8
15:57:38.098 设备接收:01 03 08 00 00 99 87 00 13 2A F5 12 E2
15:57:38.130 设备发送:01 03 04 04 00 01 C4 FB
15:57:39.645 设备发送:01 03 04 04 00 01 C4 FB
15:57:41.188 设备发送:01 03 04 04 00 01 C4 FB
15:57:42.711 设备发送:01 03 05 84 00 0F 45 2B
15:57:44.207 设备接收:01 03 1E 20 EF 01 83 01 46 21 0D 01 74 01 3B 20 AC 01 67 01 2C 21 CA 01 68 01 38 18 38 00 C1 00 78 E2 74
15:57:44.254 设备发送:01 03 05 93 00 0F F5 2F
15:57:45.751 设备接收:01 03 1E 00 00 00 00 00 00 1B E4 01 97 01 22 1D 98 00 C0 00 91 1D 34 00 C5 00 93 00 00 00 04 00 00 33 8D
15:57:45.767 设备发送:01 03 05 A2 00 0F A4 E0
15:57:47.269 设备接收:01 03 1E 00 00 00 00 00 00 00 00 00 00 00 00 00 00 00 00 00 00 00 00 00 00 00 00 00 00 00 00 00 00 D8 BA
15:57:47.284 设备发送:01 03 05 B1 00 03 55 20
15:57:48.835 设备发送:01 03 05 B1 00 03 55 20
15:57:50.324 设备接收:01 03 06 00 00 00 00 00 00 21 75
15:57:50.371 设备发送:01 03 04 2B 00 01 F5 32
15:57:51.889 设备发送:01 03 04 2B 00 01 F5 32
15:57:53.409 设备发送:01 03 04 2B 00 01 F5 32
15:57:54.937 设备发送:01 03 04 20 00 01 84 F0
15:57:56.476 设备发送:01 03 04 20 00 01 84 F0
15:57:58.012 设备发送:01 03 04 20 00 01 84 F0
15:57:59.543 设备发送:01 03 04 05 00 01 95 3B
15:58:01.042 设备发送:01 03 04 05 00 01 95 3B
15:58:02.587 设备发送:01 03 04 05 00 01 95 3B
15:58:04.092 设备发送:02 03 04 84 00 04 05 23
15:58:05.608 设备接收:02 03 08 13 8B 06 CB FF F1 06 CB 66 E4
15:58:05.623 设备发送:02 03 04 8D 00 21 14 FA
15:58:07.155 设备接收:02 03 42 08 E5 09 FF 00 00 00 00 00 00 00 00 00 00 00 00 00 00 00 00 00 00 08 E5 0A 07 00 00 00 00 00 00 00 00 00 00 00 00 00 00 00 00 00 00 08 EB 0A 2C 00 00 00 00 00 00 00 00 00 00 00 00 00 00 00 00 00 00 37 F2
15:58:07.171 设备发送:02 03 06 84 00 04 04 9B
15:58:08.653 设备接收:02 03 08 00 00 93 7A 00 13 73 65 4A E4
15:58:08.668 设备发送:02 03 04 04 00 01 C4 C8
15:58:10.199 设备发送:02 03 04 04 00 01 C4 C8
15:58:11.731 设备发送:02 03 04 04 00 01 C4 C8
15:58:13.249 设备发送:02 03 05 84 00 0F 45 18
15:58:14.778 设备接收:02 03 1E 20 BE 00 AC 00 90 20 D4 00 A6 00 8B 21 46 00 AB 00 92 20 BC 01 6A 01 2F 21 24 00 AB 00 91 55 D0
15:58:14.793 设备发送:02 03 05 93 00 0F F5 1C
15:58:16.304 设备接收:02 03 1E 20 BB 00 A9 00 8D 21 60 00 BA 00 9F 20 A9 01 71 01 34 21 33 00 BF 00 A2 1E DA 01 1E 00 E1 D8 57
15:58:16.319 设备发送:02 03 05 A2 00 0F A4 D3
15:58:17.851 设备接收:02 03 1E 00 00 00 04 00 00 00 00 00 00 00 00 00 00 00 00 00 00 00 00 00 00 00 00 00 00 00 00 00 00 92 31
15:58:17.866 设备发送:02 03 05 B1 00 03 55 13
15:58:19.364 设备接收:02 03 06 00 00 00 00 00 00 35 85
15:58:19.380 设备发送:02 03 04 2B 00 01 F5 01
15:58:20.915 设备发送:02 03 04 2B 00 01 F5 01
15:58:22.431 设备发送:02 03 04 2B 00 01 F5 01
15:58:23.973 设备发送:02 03 04 20 00 01 84 C3
15:58:25.503 设备发送:02 03 04 20 00 01 84 C3
15:58:27.035 设备发送:02 03 04 20 00 01 84 C3
15:58:28.572 设备发送:02 03 04 05 00 01 95 08
15:58:30.069 设备发送:02 03 04 05 00 01 95 08
15:58:31.613 设备发送:02 03 04 05 00 01 95 08
15:58:33.143 设备发送:03 03 04 84 00 04 04 F2
15:58:34.636 设备接收:03 03 08 13 8C 09 91 00 0F 09 91 98 05
15:58:34.667 设备发送:03 03 04 8D 00 21 15 2B
15:58:36.179 设备接收:03 03 42 08 E4 0D F1 00 00 00 00 00 00 00 00 00 00 00 00 00 00 00 00 00 00 08 EE 0D F5 00 00 00 00 00 00 00 00 00 00 00 00 00 00 00 00 00 00 08 F3 0E 1D 00 00 00 00 00 00 00 00 00 00 00 00 00 00 00 00 00 00 72 9E
15:58:36.195 设备发送:03 03 06 84 00 04 05 4A
15:58:37.693 设备接收:03 03 08 00 00 A1 68 00 13 FC F9 96 50
15:58:37.739 设备发送:03 03 04 04 00 01 C5 19
15:58:39.784 设备发送:03 03 04 04 00 01 C5 19
15:58:41.313 设备发送:03 03 04 04 00 01 C5 19
15:58:42.837 设备接收:03 03 02 00 02 40 45
15:58:42.860 设备发送:03 03 05 84 00 0F 44 C9
15:58:44.344 设备接收:03 03 1E 1F 9F 02 54 01 E2 1F B3 02 5A 01 E8 20 22 01 E1 01 8C 20 1D 01 E3 01 8D 18 49 01 8B 00 F5 6B A8
15:58:44.392 设备发送:03 03 05 93 00 0F F4 CD
15:58:45.891 设备接收:03 03 1E 05 43 00 00 00 00 13 11 01 7C 00 B9 1C 7C 01 2C 00 DB 1C 4B 01 32 00 DD 05 46 00 00 00 00 66 32
15:58:45.906 设备发送:03 03 05 A2 00 0F A5 02
15:58:47.424 设备接收:03 03 1E 00 0E 00 00 00 00 00 00 00 00 00 00 00 00 00 00 00 00 00 00 00 00 00 00 00 00 00 00 00 00 81 70
15:58:47.441 设备发送:03 03 05 B1 00 03 54 C2
15:58:48.954 设备发送:03 03 05 B1 00 03 54 C2
15:58:50.474 设备发送:03 03 05 B1 00 03 54 C2
15:58:52.015 设备发送:03 03 04 2B 00 01 F4 D0
15:58:53.559 设备发送:03 03 04 2B 00 01 F4 D0
15:58:55.074 设备发送:03 03 04 2B 00 01 F4 D0
15:58:56.604 设备发送:03 03 04 20 00 01 85 12
15:58:58.131 设备发送:03 03 04 20 00 01 85 12
15:58:59.659 设备发送:03 03 04 20 00 01 85 12
15:59:01.189 设备发送:03 03 04 05 00 01 94 D9
15:59:02.673 设备发送:03 03 04 05 00 01 94 D9
15:59:04.207 设备发送:03 03 04 05 00 01 94 D9
15:59:05.734 设备接收:03 03 02 00 00 C1 84
15:59:05.749 设备发送:01 03 04 84 00 04 05 10
15:59:07.248 设备接收:01 03 08 13 8C 06 DD FF F0 06 DD 86 AD
15:59:07.264 设备发送:01 03 04 8D 00 21 14 C9
15:59:08.778 设备接收:01 03 42 08 E2 0A 1B 00 00 00 00 00 00 00 00 00 00 00 00 00 00 00 00 00 00 08 E4 0A 37 00 00 00 00 00 00 00 00 00 00 00 00 00 00 00 00 00 00 08 EE 0A 53 00 00 00 00 00 00 00 00 00 00 00 00 00 00 00 00 00 00 34 A3
15:59:08.794 设备发送:01 03 06 84 00 04 04 A8
15:59:10.322 设备接收:01 03 08 00 00 99 B4 00 13 2A F9 16 E3
15:59:10.337 设备发送:01 03 04 04 00 01 C4 FB
15:59:11.867 设备发送:01 03 04 04 00 01 C4 FB
15:59:13.371 设备发送:01 03 04 04 00 01 C4 FB
15:59:14.901 设备发送:01 03 05 84 00 0F 45 2B
15:59:16.414 设备接收:01 03 1E 21 39 01 6E 01 38 21 5D 01 64 01 30 21 62 01 4F 01 1E 21 0E 01 6B 01 33 18 39 00 BE 00 76 10 01
15:59:16.445 设备发送:01 03 05 93 00 0F F5 2F
15:59:17.944 设备接收:01 03 1E 00 00 00 00 00 00 1C 32 01 85 01 18 1D 95 00 BA 00 8D 1D D4 00 BB 00 8F 00 00 00 03 00 00 29 57
15:59:17.959 设备发送:01 03 05 A2 00 0F A4 E0
15:59:19.468 设备接收:01 03 1E 00 00 00 00 00 00 00 00 00 00 00 00 00 00 00 00 00 00 00 00 00 00 00 00 00 00 00 00 00 00 D8 BA
15:59:19.490 设备发送:01 03 05 B1 00 03 55 20
15:59:21.016 设备发送:01 03 05 B1 00 03 55 20
15:59:22.551 设备接收:01 03 06 00 00 00 00 00 00 21 75
15:59:22.566 设备发送:01 03 04 2B 00 01 F5 32
15:59:24.079 设备发送:01 03 04 2B 00 01 F5 32
15:59:25.593 设备发送:01 03 04 2B 00 01 F5 32
15:59:27.109 设备发送:01 03 04 20 00 01 84 F0
15:59:28.642 设备发送:01 03 04 20 00 01 84 F0
15:59:30.197 设备发送:01 03 04 20 00 01 84 F0
15:59:31.706 设备发送:01 03 04 05 00 01 95 3B
15:59:33.242 设备发送:01 03 04 05 00 01 95 3B
15:59:34.770 设备发送:01 03 04 05 00 01 95 3B
15:59:36.306 设备发送:02 03 04 84 00 04 05 23
15:59:37.811 设备发送:02 03 04 84 00 04 05 23
15:59:39.342 设备发送:02 03 04 84 00 04 05 23
15:59:40.843 设备接收:02 03 08 13 8A 06 8F FF F1 06 8F 86 18
15:59:40.890 设备发送:02 03 04 8D 00 21 14 FA
15:59:42.387 设备接收:02 03 42 08 E3 09 AC 00 00 00 00 00 00 00 00 00 00 00 00 00 00 00 00 00 00 08 E6 09 B9 00 00 00 00 00 00 00 00 00 00 00 00 00 00 00 00 00 00 08 EE 09 DE 00 00 00 00 00 00 00 00 00 00 00 00 00 00 00 00 00 00 97 DD
15:59:42.449 设备发送:02 03 06 84 00 04 04 9B
15:59:43.966 设备发送:02 03 06 84 00 04 04 9B
15:59:45.512 设备发送:02 03 06 84 00 04 04 9B
15:59:47.010 设备发送:02 03 04 04 00 01 C4 C8
15:59:48.556 设备发送:02 03 04 04 00 01 C4 C8
15:59:50.054 设备发送:02 03 04 04 00 01 C4 C8
15:59:51.599 设备发送:02 03 05 84 00 0F 45 18
15:59:53.114 设备接收:02 03 1E 20 BC 00 A6 00 8B 20 D3 00 A0 00 87 21 41 00 A5 00 8D 20 B8 01 5F 01 26 20 D0 00 A9 00 8E 66 B3
15:59:53.130 设备发送:02 03 05 93 00 0F F5 1C
15:59:54.657 设备接收:02 03 1E 21 0B 00 A2 00 89 21 B2 00 B4 00 9B 20 A6 01 66 01 2B 21 4A 00 B7 00 9C 1D E8 01 16 00 D5 A9 96
15:59:54.672 设备发送:02 03 05 A2 00 0F A4 D3
15:59:56.157 设备接收:02 03 1E 00 00 00 03 00 00 00 00 00 00 00 00 00 00 00 00 00 00 00 00 00 00 00 00 00 00 00 00 00 00 6D 7D
15:59:56.189 设备发送:02 03 05 B1 00 03 55 13
15:59:57.715 设备发送:02 03 05 B1 00 03 55 13
15:59:59.248 设备发送:02 03 05 B1 00 03 55 13
16:00:00.751 设备接收:02 03 06 00 00 00 00 00 00 35 85
16:00:00.767 设备发送:02 03 04 2B 00 01 F5 01
16:00:02.307 设备发送:02 03 04 2B 00 01 F5 01
16:00:03.848 设备发送:02 03 04 2B 00 01 F5 01
16:00:05.347 设备发送:02 03 04 20 00 01 84 C3
16:00:06.894 设备发送:02 03 04 20 00 01 84 C3
16:00:08.408 设备发送:02 03 04 20 00 01 84 C3
16:00:09.936 设备发送:02 03 04 05 00 01 95 08
16:00:11.449 设备发送:02 03 04 05 00 01 95 08
16:00:12.993 设备发送:02 03 04 05 00 01 95 08
16:00:14.495 设备发送:03 03 04 84 00 04 04 F2
16:00:16.007 设备接收:03 03 08 13 86 09 47 FF EC 09 47 3B AB
16:00:16.039 设备发送:03 03 04 8D 00 21 15 2B
16:00:17.529 设备接收:03 03 42 08 E2 0D 99 00 00 00 00 00 00 00 00 00 00 00 00 00 00 00 00 00 00 08 ED 0D 9D 00 00 00 00 00 00 00 00 00 00 00 00 00 00 00 00 00 00 08 F2 0D BE 00 00 00 00 00 00 00 00 00 00 00 00 00 00 00 00 00 00 07 D0
16:00:17.576 设备发送:03 03 06 84 00 04 05 4A
16:00:19.101 设备接收:03 03 08 00 00 A1 A9 00 13 FC FF 2B 83
16:00:19.116 设备发送:03 03 04 04 00 01 C5 19
16:00:20.617 设备发送:03 03 04 04 00 01 C5 19
16:00:22.147 设备发送:03 03 04 04 00 01 C5 19
16:00:23.676 设备发送:03 03 05 84 00 0F 44 C9
16:00:25.178 设备接收:03 03 1E 1F EF 02 3E 01 D5 1F 89 02 48 01 D7 20 49 01 CD 01 7D 1F A5 01 DB 01 81 18 48 01 81 00 EF C5 88
16:00:25.193 设备发送:03 03 05 93 00 0F F4 CD
16:00:26.721 设备接收:03 03 1E 05 44 00 00 00 00 13 13 01 71 00 B4 1C 2C 01 25 00 D3 1B FB 01 29 00 D5 05 4A 00 00 00 00 23 99
16:00:26.736 设备发送:03 03 05 A2 00 0F A5 02
16:00:28.236 设备接收:03 03 1E 00 0E 00 00 00 00 00 00 00 00 00 00 00 00 00 00 00 00 00 00 00 00 00 00 00 00 00 00 00 00 81 70
16:00:28.259 设备发送:03 03 05 B1 00 03 54 C2
16:00:29.757 设备接收:03 03 06 00 00 00 00 00 00 38 15
16:00:29.804 设备发送:03 03 04 2B 00 01 F4 D0
16:00:31.320 设备发送:03 03 04 2B 00 01 F4 D0
16:00:32.840 设备发送:03 03 04 2B 00 01 F4 D0
16:00:34.357 设备发送:03 03 04 20 00 01 85 12
16:00:35.871 设备发送:03 03 04 20 00 01 85 12
16:00:37.417 设备发送:03 03 04 20 00 01 85 12
16:00:38.948 设备发送:03 03 04 05 00 01 94 D9
16:00:40.475 设备发送:03 03 04 05 00 01 94 D9
16:00:41.987 设备发送:03 03 04 05 00 01 94 D9
16:00:43.539 设备发送:01 03 04 84 00 04 05 10
16:00:45.035 设备接收:01 03 08 13 8B 06 A0 FF F2 06 A0 FD 86
16:00:45.051 设备发送:01 03 04 8D 00 21 14 C9
16:00:46.545 设备接收:01 03 42 08 E7 09 BD 00 00 00 00 00 00 00 00 00 00 00 00 00 00 00 00 00 00 08 E8 09 D4 00 00 00 00 00 00 00 00 00 00 00 00 00 00 00 00 00 00 08 F0 09 EE 00 00 00 00 00 00 00 00 00 00 00 00 00 00 00 00 00 00 68 5B
16:00:46.595 设备发送:01 03 06 84 00 04 04 A8
16:00:48.089 设备接收:01 03 08 00 00 99 E3 00 13 2A FE 22 ED
16:00:48.121 设备发送:01 03 04 04 00 01 C4 FB
16:00:49.654 设备发送:01 03 04 04 00 01 C4 FB
16:00:51.183 设备发送:01 03 04 04 00 01 C4 FB
16:00:52.713 设备发送:01 03 05 84 00 0F 45 2B
16:00:54.215 设备接收:01 03 1E 20 FD 01 6E 01 35 20 BD 01 5E 01 25 21 03 01 4C 01 19 21 01 01 5D 01 27 17 E9 00 BB 00 72 4C 4C
16:00:54.231 设备发送:01 03 05 93 00 0F F5 2F
16:00:55.759 设备接收:01 03 1E 00 00 00 00 00 00 1B 93 01 84 01 12 1D 45 00 B7 00 89 1D 84 00 BA 00 8D 00 00 00 04 00 00 0B 7E
16:00:55.777 设备发送:01 03 05 A2 00 0F A4 E0
16:00:57.289 设备接收:01 03 1E 00 00 00 00 00 00 00 00 00 00 00 00 00 00 00 00 00 00 00 00 00 00 00 00 00 00 00 00 00 00 D8 BA
16:00:57.305 设备发送:01 03 05 B1 00 03 55 20
16:00:58.805 设备接收:01 03 06 00 00 00 00 00 00 21 75
16:00:58.821 设备发送:01 03 04 2B 00 01 F5 32
16:01:00.354 设备发送:01 03 04 2B 00 01 F5 32
16:01:01.884 设备发送:01 03 04 2B 00 01 F5 32
16:01:03.398 设备发送:01 03 04 20 00 01 84 F0
16:01:04.932 设备发送:01 03 04 20 00 01 84 F0
16:01:06.448 设备发送:01 03 04 20 00 01 84 F0
16:01:07.978 设备发送:01 03 04 05 00 01 95 3B
16:01:09.504 设备发送:01 03 04 05 00 01 95 3B
16:01:11.050 设备发送:01 03 04 05 00 01 95 3B
16:01:12.552 设备发送:02 03 04 84 00 04 05 23
16:01:14.051 设备接收:02 03 08 13 8B 06 62 FF F5 06 62 BB 43
16:01:14.099 设备发送:02 03 04 8D 00 21 14 FA
16:01:15.601 设备接收:02 03 42 08 E4 09 59 00 00 00 00 00 00 00 00 00 00 00 00 00 00 00 00 00 00 08 E8 09 67 00 00 00 00 00 00 00 00 00 00 00 00 00 00 00 00 00 00 08 F0 09 91 00 00 00 00 00 00 00 00 00 00 00 00 00 00 00 00 00 00 23 CB
16:01:15.617 设备发送:02 03 06 84 00 04 04 9B
16:01:17.133 设备接收:02 03 08 00 00 93 D1 00 13 73 6E 2E FB
16:01:17.156 设备发送:02 03 04 04 00 01 C4 C8
16:01:18.694 设备发送:02 03 04 04 00 01 C4 C8
16:01:20.240 设备发送:02 03 04 04 00 01 C4 C8
16:01:21.735 设备发送:02 03 05 84 00 0F 45 18
16:01:23.265 设备接收:02 03 1E 21 0C 00 A1 00 88 20 D3 00 9D 00 84 20 EE 00 A5 00 8B 20 B8 01 56 01 1E 20 D1 00 A4 00 8A A1 32
16:01:23.281 设备发送:02 03 05 93 00 0F F5 1C
16:01:24.779 设备接收:02 03 1E 21 5A 00 99 00 83 21 B1 00 B1 00 98 20 A5 01 5D 01 24 21 B2 00 B0 00 98 1D 47 01 12 00 CD 92 7B
16:01:24.827 设备发送:02 03 05 A2 00 0F A4 D3
16:01:26.327 设备接收:02 03 1E 00 00 00 03 00 00 00 00 00 00 00 00 00 00 00 00 00 00 00 00 00 00 00 00 00 00 00 00 00 00 6D 7D
16:01:26.345 设备发送:02 03 05 B1 00 03 55 13
16:01:27.875 设备发送:02 03 05 B1 00 03 55 13
16:01:29.377 设备接收:02 03 06 00 00 00 00 00 00 35 85
16:01:29.393 设备发送:02 03 04 2B 00 01 F5 01
16:01:30.911 设备发送:02 03 04 2B 00 01 F5 01
16:01:32.455 设备发送:02 03 04 2B 00 01 F5 01
16:01:33.990 设备发送:02 03 04 20 00 01 84 C3
16:01:35.523 设备发送:02 03 04 20 00 01 84 C3
16:01:37.021 设备发送:02 03 04 20 00 01 84 C3
16:01:38.533 设备发送:02 03 04 05 00 01 95 08
16:01:40.078 设备发送:02 03 04 05 00 01 95 08
16:01:41.589 设备发送:02 03 04 05 00 01 95 08
16:01:43.117 设备发送:03 03 04 84 00 04 04 F2
16:01:44.663 设备发送:03 03 04 84 00 04 04 F2
16:01:46.179 设备接收:03 03 08 13 8B 08 F1 FF ED 08 F1 FE 86
16:01:46.194 设备发送:03 03 04 8D 00 21 15 2B
16:01:47.708 设备接收:03 03 42 08 E6 0D 2B 00 00 00 00 00 00 00 00 00 00 00 00 00 00 00 00 00 00 08 F1 0D 2F 00 00 00 00 00 00 00 00 00 00 00 00 00 00 00 00 00 00 08 F5 0D 52 00 00 00 00 00 00 00 00 00 00 00 00 00 00 00 00 00 00 F3 90
16:01:47.754 设备发送:03 03 06 84 00 04 05 4A
16:01:49.241 设备接收:03 03 08 00 00 A1 E4 00 13 FD 05 86 5E
16:01:49.272 设备发送:03 03 04 04 00 01 C5 19
16:01:50.788 设备发送:03 03 04 04 00 01 C5 19
16:01:52.330 设备发送:03 03 04 04 00 01 C5 19
16:01:53.847 设备发送:03 03 05 84 00 0F 44 C9
16:01:55.366 设备接收:03 03 1E 1F C6 02 2C 01 C4 1F 8A 02 37 01 CA 20 22 01 C2 01 72 1F CF 01 C9 01 74 18 97 01 6F 00 E7 60 0B
16:01:55.382 设备发送:03 03 05 93 00 0F F4 CD
16:01:56.880 设备接收:03 03 1E 05 44 00 00 00 00 13 AC 01 3E 00 A0 1C 2C 01 1C 00 CC 1C 9A 01 19 00 CE 05 48 00 00 00 00 C3 E9
16:01:56.896 设备发送:03 03 05 A2 00 0F A5 02
16:01:58.412 设备接收:03 03 1E 00 0F 00 00 00 00 00 00 00 00 00 00 00 00 00 00 00 00 00 00 00 00 00 00 00 00 00 00 00 00 41 71
16:01:58.428 设备发送:03 03 05 B1 00 03 54 C2
16:01:59.925 设备接收:03 03 06 00 00 00 00 00 00 38 15
16:01:59.941 设备发送:03 03 04 2B 00 01 F4 D0
16:02:01.488 设备发送:03 03 04 2B 00 01 F4 D0
16:02:03.018 设备发送:03 03 04 2B 00 01 F4 D0
16:02:04.517 设备发送:03 03 04 20 00 01 85 12
16:02:06.044 设备发送:03 03 04 20 00 01 85 12
16:02:07.577 设备接收:03 03 02 00 25 00 5F
16:02:07.593 设备发送:03 03 04 05 00 01 94 D9
16:02:09.110 设备发送:03 03 04 05 00 01 94 D9
16:02:10.624 设备发送:03 03 04 05 00 01 94 D9
16:02:12.148 设备发送:01 03 04 84 00 04 05 10
16:02:13.664 设备接收:01 03 08 13 89 06 3D FF F7 06 3D E2 32
16:02:13.702 设备发送:01 03 04 8D 00 21 14 C9
16:02:15.194 设备接收:01 03 42 08 E4 09 33 00 00 00 00 00 00 00 00 00 00 00 00 00 00 00 00 00 00 08 E6 09 4B 00 00 00 00 00 00 00 00 00 00 00 00 00 00 00 00 00 00 08 EF 09 66 00 00 00 00 00 00 00 00 00 00 00 00 00 00 00 00 00 00 91 5B
16:02:15.240 设备发送:01 03 06 84 00 04 04 A8
16:02:16.724 设备接收:01 03 08 00 00 9A 0C 00 13 2B 02 F6 D8
16:02:16.772 设备发送:01 03 04 04 00 01 C4 FB
16:02:18.287 设备发送:01 03 04 04 00 01 C4 FB
16:02:19.798 设备发送:01 03 04 04 00 01 C4 FB
16:02:21.332 设备发送:01 03 05 84 00 0F 45 2B
16:02:22.860 设备接收:01 03 1E 21 AD 01 54 01 25 21 AE 01 3D 01 11 20 AD 01 35 01 03 20 D8 01 44 01 11 18 3A 00 B2 00 6F F5 B6
16:02:22.876 设备发送:01 03 05 93 00 0F F5 2F
16:02:24.393 设备接收:01 03 1E 00 00 00 00 00 00 1B 92 01 7A 01 0B 1D 46 00 B0 00 84 1D D6 00 B3 00 89 00 00 00 05 00 00 06 3B
16:02:24.408 设备发送:01 03 05 A2 00 0F A4 E0
16:02:25.893 设备接收:01 03 1E 00 00 00 00 00 00 00 00 00 00 00 00 00 00 00 00 00 00 00 00 00 00 00 00 00 00 00 00 00 00 D8 BA
16:02:25.908 设备发送:01 03 05 B1 00 03 55 20
16:02:27.457 设备发送:01 03 05 B1 00 03 55 20
16:02:28.946 设备接收:01 03 06 00 00 00 00 00 00 21 75
16:02:28.977 设备发送:01 03 04 2B 00 01 F5 32
16:02:30.479 设备发送:01 03 04 2B 00 01 F5 32
16:02:32.021 设备发送:01 03 04 2B 00 01 F5 32
16:02:33.536 设备发送:01 03 04 20 00 01 84 F0
16:02:35.064 设备发送:01 03 04 20 00 01 84 F0
16:02:36.609 设备发送:01 03 04 20 00 01 84 F0
16:02:38.140 设备发送:01 03 04 05 00 01 95 3B
16:02:39.670 设备发送:01 03 04 05 00 01 95 3B
16:02:41.176 设备发送:01 03 04 05 00 01 95 3B
16:02:42.704 设备发送:02 03 04 84 00 04 05 23
16:02:44.240 设备发送:02 03 04 84 00 04 05 23
16:02:45.738 设备接收:02 03 08 13 8C 06 23 00 10 06 23 10 5F
16:02:45.754 设备发送:02 03 04 8D 00 21 14 FA
16:02:47.267 设备接收:02 03 42 08 E9 09 07 00 00 00 00 00 00 00 00 00 00 00 00 00 00 00 00 00 00 08 E9 09 11 00 00 00 00 00 00 00 00 00 00 00 00 00 00 00 00 00 00 08 EE 09 33 00 00 00 00 00 00 00 00 00 00 00 00 00 00 00 00 00 00 6F AD
16:02:47.299 设备发送:02 03 06 84 00 04 04 9B
16:02:48.796 设备接收:02 03 08 00 00 93 FA 00 13 73 72 0B 34
16:02:48.811 设备发送:02 03 04 04 00 01 C4 C8
16:02:50.329 设备发送:02 03 04 04 00 01 C4 C8
16:02:51.864 设备发送:02 03 04 04 00 01 C4 C8
16:02:53.367 设备发送:02 03 05 84 00 0F 45 18
16:05:32.89100
16:05:33.80900
16:05:33.81300
16:05:33.90700
16:05:34.00700
16:05:34.402 设备接收:02 03 42 08 E7 08 5E 00 00 00 00 00 00 00 00 00 00 00 00 00 00 00 00 00 00 08 E5 08 6A 00 00 00 00 00 00 00 00 00 00 00 00 00 00 00 00 00 00 08 ED 08 92 00 00 00 00 00 00 00 00 00 00 00 00 00 00 00 00 00 00 C9 78
16:05:34.446 设备发送:02 03 06 84 00 04 04 9B
16:05:35.983 设备发送:02 03 06 84 00 04 04 9B
16:05:37.510 设备发送:02 03 06 84 00 04 04 9B
16:05:39.011 设备接收:02 03 08 00 00 94 42 00 13 73 79 EB 5F
16:05:39.027 设备发送:02 03 04 04 00 01 C4 C8
16:05:40.559 设备发送:02 03 04 04 00 01 C4 C8
16:05:42.085 设备发送:02 03 04 04 00 01 C4 C8
16:05:43.613 设备发送:02 03 05 84 00 0F 45 18
16:05:45.111 设备接收:02 03 1E 20 BC 00 8B 00 74 20 D3 00 89 00 73 20 4D 00 97 00 7D 20 B7 01 34 01 02 20 D1 00 92 00 7A F8 7D
16:05:45.131 设备发送:02 03 05 93 00 0F F5 1C
16:05:46.659 设备接收:02 03 1E 20 B2 00 8E 00 77 21 B2 00 A0 00 8A 20 F4 01 3B 01 0A 21 72 00 A0 00 89 1D 94 00 F3 00 B8 ED 2D
16:05:46.675 设备发送:02 03 05 A2 00 0F A4 D3
16:05:48.159 设备接收:02 03 1E 00 00 00 04 00 00 00 00 00 00 00 00 00 00 00 00 00 00 00 00 00 00 00 00 00 00 00 00 00 00 92 31
16:05:48.220 设备发送:02 03 05 B1 00 03 55 13
16:05:49.750 设备发送:02 03 05 B1 00 03 55 13
16:05:51.234 设备接收:02 03 06 00 00 00 00 00 00 35 85
16:05:51.265 设备发送:02 03 04 2B 00 01 F5 01
16:05:52.795 设备发送:02 03 04 2B 00 01 F5 01
16:05:54.343 设备发送:02 03 04 2B 00 01 F5 01
16:05:55.859 设备发送:02 03 04 20 00 01 84 C3
16:05:57.396 设备发送:02 03 04 20 00 01 84 C3
16:05:58.930 设备发送:02 03 04 20 00 01 84 C3
16:06:00.459 设备发送:02 03 04 05 00 01 95 08
16:06:01.973 设备发送:02 03 04 05 00 01 95 08
16:06:03.490 设备发送:02 03 04 05 00 01 95 08
16:06:05.016 设备发送:03 03 04 84 00 04 04 F2
16:06:06.551 设备发送:03 03 04 84 00 04 04 F2
16:06:08.049 设备接收:03 03 08 13 8B 08 01 FF EE 08 01 4E D7
16:06:08.065 设备发送:03 03 04 8D 00 21 15 2B
16:06:09.595 设备接收:03 03 42 08 E4 0B CD 00 00 00 00 00 00 00 00 00 00 00 00 00 00 00 00 00 00 08 EA 0B CA 00 00 00 00 00 00 00 00 00 00 00 00 00 00 00 00 00 00 08 F0 0B F7 00 00 00 00 00 00 00 00 00 00 00 00 00 00 00 00 00 00 82 F8
16:06:09.620 设备发送:03 03 06 84 00 04 05 4A
16:06:11.127 设备接收:03 03 08 00 00 A2 82 00 13 FD 15 8F A9
16:06:11.142 设备发送:03 03 04 04 00 01 C5 19
16:06:12.690 设备发送:03 03 04 04 00 01 C5 19
16:06:14.219 设备发送:03 03 04 04 00 01 C5 19
16:06:15.731 设备发送:03 03 05 84 00 0F 44 C9
16:06:17.244 设备接收:03 03 1E 1F C6 01 F2 01 95 1F AB 01 FE 01 9D 20 6D 01 91 01 4C 1F 82 01 A0 01 4F 18 3E 01 51 00 D1 E1 23
16:06:17.260 设备发送:03 03 05 93 00 0F F4 CD
16:06:18.746 设备接收:03 03 1E 05 49 00 00 00 00 12 71 01 47 00 9A 1C 2B 01 00 00 B8 1C 4C 01 02 00 BB 05 4F 00 00 00 00 E7 A7
16:06:18.810 设备发送:03 03 05 A2 00 0F A5 02
16:06:20.309 设备接收:03 03 1E 00 0E 00 00 00 00 00 00 00 00 00 00 00 00 00 00 00 00 00 00 00 00 00 00 00 00 00 00 00 00 81 70
16:06:20.325 设备发送:03 03 05 B1 00 03 54 C2
16:06:21.839 设备发送:03 03 05 B1 00 03 54 C2
16:06:23.376 设备发送:03 03 05 B1 00 03 54 C2
16:06:24.927 设备发送:03 03 04 2B 00 01 F4 D0
16:06:26.442 设备发送:03 03 04 2B 00 01 F4 D0
16:06:27.974 设备发送:03 03 04 2B 00 01 F4 D0
16:06:29.508 设备发送:03 03 04 20 00 01 85 12
16:06:31.027 设备发送:03 03 04 20 00 01 85 12
16:06:32.556 设备发送:03 03 04 20 00 01 85 12
16:06:34.087 设备发送:03 03 04 05 00 01 94 D9
16:06:35.615 设备发送:03 03 04 05 00 01 94 D9
16:06:37.131 设备发送:03 03 04 05 00 01 94 D9
16:06:38.675 设备发送:01 03 04 84 00 04 05 10
16:06:40.177 设备接收:01 03 08 13 89 05 2A FF EC 05 2A A6 FB
16:06:40.209 设备发送:01 03 04 8D 00 21 14 C9
16:06:41.690 设备接收:01 03 42 08 E1 07 A3 00 00 00 00 00 00 00 00 00 00 00 00 00 00 00 00 00 00 08 E2 07 B6 00 00 00 00 00 00 00 00 00 00 00 00 00 00 00 00 00 00 08 EB 07 C8 00 00 00 00 00 00 00 00 00 00 00 00 00 00 00 00 00 00 12 9D
16:06:41.738 设备发送:01 03 06 84 00 04 04 A8
16:06:43.255 设备接收:01 03 08 00 00 9A 77 00 13 2B 0D 52 D6
16:06:43.271 设备发送:01 03 04 04 00 01 C4 FB
16:06:44.801 设备发送:01 03 04 04 00 01 C4 FB
16:06:46.313 设备发送:01 03 04 04 00 01 C4 FB
16:06:47.830 设备发送:01 03 05 84 00 0F 45 2B
16:06:49.329 设备接收:01 03 1E 21 8A 01 10 00 E9 21 8A 00 FB 00 D8 20 AD 00 F4 00 CC 20 D5 01 06 00 DC 17 EA 00 A2 00 63 81 6C
16:06:49.376 设备发送:01 03 05 93 00 0F F5 2F
16:06:50.847 设备接收:01 03 1E 00 00 00 00 00 00 1B E3 01 51 00 F0 1D 46 00 A0 00 77 1D 36 00 A5 00 7B 00 00 00 05 00 00 EA 2B
16:06:50.894 设备发送:01 03 05 A2 00 0F A4 E0
16:06:52.405 设备接收:01 03 1E 00 00 00 00 00 00 00 00 00 00 00 00 00 00 00 00 00 00 00 00 00 00 00 00 00 00 00 00 00 00 D8 BA
16:06:52.421 设备发送:01 03 05 B1 00 03 55 20
16:06:53.922 设备接收:01 03 06 00 00 00 00 00 00 21 75
16:06:53.953 设备发送:01 03 04 2B 00 01 F5 32
16:06:55.469 设备发送:01 03 04 2B 00 01 F5 32
16:06:56.989 设备发送:01 03 04 2B 00 01 F5 32
16:06:58.508 设备发送:01 03 04 20 00 01 84 F0
16:07:00.024 设备发送:01 03 04 20 00 01 84 F0
16:07:01.567 设备发送:01 03 04 20 00 01 84 F0
16:07:03.087 设备发送:01 03 04 05 00 01 95 3B
16:07:04.620 设备发送:01 03 04 05 00 01 95 3B
16:07:06.153 设备发送:01 03 04 05 00 01 95 3B
16:07:07.650 设备发送:02 03 04 84 00 04 05 23
16:07:09.185 设备发送:02 03 04 84 00 04 05 23
16:07:10.702 设备发送:02 03 04 84 00 04 05 23
16:07:12.210 设备接收:02 03 08 13 85 05 68 00 1A 05 68 4D A7
16:07:12.257 设备发送:02 03 04 8D 00 21 14 FA
16:07:13.758 设备接收:02 03 42 08 DF 07 FE 00 00 00 00 00 00 00 00 00 00 00 00 00 00 00 00 00 00 08 E2 08 03 00 00 00 00 00 00 00 00 00 00 00 00 00 00 00 00 00 00 08 E9 08 27 00 00 00 00 00 00 00 00 00 00 00 00 00 00 00 00 00 00 57 23
16:07:13.773 设备发送:02 03 06 84 00 04 04 9B
16:07:15.298 设备发送:02 03 06 84 00 04 04 9B
16:07:16.815 设备接收:02 03 08 00 00 94 68 00 13 73 7D F3 5A
16:07:16.832 设备发送:02 03 04 04 00 01 C4 C8
16:07:18.347 设备发送:02 03 04 04 00 01 C4 C8
16:07:19.872 设备发送:02 03 04 04 00 01 C4 C8
16:07:21.419 设备发送:02 03 05 84 00 0F 45 18
16:07:22.902 设备接收:02 03 1E 21 5C 00 73 00 62 21 AF 00 76 00 65 20 9D 00 8E 00 77 21 08 01 27 00 F9 20 D4 00 8E 00 78 4A 55
16:07:22.948 设备发送:02 03 05 93 00 0F F5 1C
16:07:24.447 设备接收:02 03 1E 21 08 00 85 00 70 21 AF 00 97 00 82 20 F6 01 2F 01 00 21 4B 00 9C 00 85 1D 45 00 EA 00 AF 10 89
16:07:24.462 设备发送:02 03 05 A2 00 0F A4 D3
16:07:25.960 设备接收:02 03 1E 00 00 00 02 00 00 00 00 00 00 00 00 00 00 00 00 00 00 00 00 00 00 00 00 00 00 00 00 00 00 93 FF
16:07:25.991 设备发送:02 03 05 B1 00 03 55 13
16:07:27.523 设备发送:02 03 05 B1 00 03 55 13
16:07:29.039 设备发送:02 03 05 B1 00 03 55 13
16:07:30.555 设备接收:02 03 06 00 00 00 00 00 00 35 85
16:07:30.571 设备发送:02 03 04 2B 00 01 F5 01
16:07:32.094 设备发送:02 03 04 2B 00 01 F5 01
16:07:33.612 设备发送:02 03 04 2B 00 01 F5 01
16:07:35.144 设备发送:02 03 04 20 00 01 84 C3
16:07:36.677 设备发送:02 03 04 20 00 01 84 C3
16:07:38.210 设备发送:02 03 04 20 00 01 84 C3
16:07:39.771 设备发送:02 03 04 05 00 01 95 08
16:07:41.280 设备发送:02 03 04 05 00 01 95 08
16:07:42.781 设备发送:02 03 04 05 00 01 95 08
16:07:44.329 设备发送:03 03 04 84 00 04 04 F2
16:07:45.826 设备接收:03 03 08 13 85 07 B8 FF ED 07 B8 08 71
16:07:45.858 设备发送:03 03 04 8D 00 21 15 2B
16:07:47.360 设备接收:03 03 42 08 E0 0B 5E 00 00 00 00 00 00 00 00 00 00 00 00 00 00 00 00 00 00 08 E9 0B 5F 00 00 00 00 00 00 00 00 00 00 00 00 00 00 00 00 00 00 08 ED 0B 8C 00 00 00 00 00 00 00 00 00 00 00 00 00 00 00 00 00 00 46 26
16:07:47.375 设备发送:03 03 06 84 00 04 05 4A
16:07:48.895 设备接收:03 03 08 00 00 A2 B8 00 13 FD 1A 17 A8
16:07:48.912 设备发送:03 03 04 04 00 01 C5 19
16:07:50.411 设备发送:03 03 04 04 00 01 C5 19
16:07:51.941 设备发送:03 03 04 04 00 01 C5 19
16:07:53.491 设备发送:03 03 05 84 00 0F 44 C9
16:07:54.991 设备接收:03 03 1E 1F 9D 01 E0 01 85 1F B1 01 EB 01 8F 20 71 01 83 01 41 1F F4 01 8E 01 45 18 48 01 43 00 C9 D6 FA
16:07:55.007 设备发送:03 03 05 93 00 0F F4 CD
16:07:56.529 设备接收:03 03 1E 05 46 00 00 00 00 12 C1 01 3B 00 97 1C 2C 00 F9 00 B3 1B F9 00 FA 00 B3 05 49 00 00 00 00 D0 E5
16:07:56.544 设备发送:03 03 05 A2 00 0F A5 02
16:07:58.072 设备接收:03 03 1E 00 0F 00 00 00 00 00 00 00 00 00 00 00 00 00 00 00 00 00 00 00 00 00 00 00 00 00 00 00 00 41 71
16:07:58.088 设备发送:03 03 05 B1 00 03 54 C2
16:07:59.604 设备发送:03 03 05 B1 00 03 54 C2
16:08:01.132 设备发送:03 03 05 B1 00 03 54 C2
16:08:02.663 设备发送:03 03 04 2B 00 01 F4 D0
16:08:04.190 设备发送:03 03 04 2B 00 01 F4 D0
16:08:05.691 设备发送:03 03 04 2B 00 01 F4 D0
16:08:07.236 设备发送:03 03 04 20 00 01 85 12
16:08:08.756 设备发送:03 03 04 20 00 01 85 12
16:08:10.287 设备发送:03 03 04 20 00 01 85 12
16:08:11.800 设备发送:03 03 04 05 00 01 94 D9
16:08:13.359 设备发送:03 03 04 05 00 01 94 D9
16:08:14.890 设备发送:03 03 04 05 00 01 94 D9
16:08:16.424 设备发送:01 03 04 84 00 04 05 10
16:08:17.923 设备发送:01 03 04 84 00 04 05 10
16:08:19.443 设备接收:01 03 08 13 85 05 0B 00 01 05 0B B6 C5
16:08:19.459 设备发送:01 03 04 8D 00 21 14 C9
16:08:20.971 设备接收:01 03 42 08 DF 07 72 00 00 00 00 00 00 00 00 00 00 00 00 00 00 00 00 00 00 08 E3 07 84 00 00 00 00 00 00 00 00 00 00 00 00 00 00 00 00 00 00 08 EC 07 98 00 00 00 00 00 00 00 00 00 00 00 00 00 00 00 00 00 00 65 FD
16:08:21.004 设备发送:01 03 06 84 00 04 04 A8
16:08:22.488 设备接收:01 03 08 00 00 9A 9B 00 13 2B 10 03 08
16:08:22.535 设备发送:01 03 04 04 00 01 C4 FB
16:08:24.064 设备发送:01 03 04 04 00 01 C4 FB
16:08:25.597 设备发送:01 03 04 04 00 01 C4 FB
16:08:27.126 设备发送:01 03 05 84 00 0F 45 2B
16:08:28.627 设备接收:01 03 1E 1E 19 01 36 00 EF 21 5C 00 F2 00 CF 20 FD 00 E8 00 C4 21 61 00 FA 00 D5 18 3A 00 9C 00 60 C5 99
16:08:28.650 设备发送:01 03 05 93 00 0F F5 2F
16:08:30.158 设备接收:01 03 1E 00 00 00 00 00 00 1B 95 01 49 00 E8 1D 98 00 97 00 72 1D 35 00 A1 00 78 00 00 00 05 00 00 D3 F1
16:08:30.174 设备发送:01 03 05 A2 00 0F A4 E0
16:08:31.684 设备接收:01 03 1E 00 00 00 00 00 00 00 00 00 00 00 00 00 00 00 00 00 00 00 00 00 00 00 00 00 00 00 00 00 00 D8 BA
16:08:31.715 设备发送:01 03 05 B1 00 03 55 20
16:08:33.214 设备发送:01 03 05 B1 00 03 55 20
16:08:34.757 设备发送:01 03 05 B1 00 03 55 20
16:08:36.291 设备发送:01 03 04 2B 00 01 F5 32
16:08:37.806 设备发送:01 03 04 2B 00 01 F5 32
16:08:39.326 设备发送:01 03 04 2B 00 01 F5 32
16:08:40.839 设备发送:01 03 04 20 00 01 84 F0
16:08:42.372 设备发送:01 03 04 20 00 01 84 F0
16:08:43.891 设备发送:01 03 04 20 00 01 84 F0
16:08:45.420 设备发送:01 03 04 05 00 01 95 3B
16:08:46.953 设备发送:01 03 04 05 00 01 95 3B
16:08:48.469 设备发送:01 03 04 05 00 01 95 3B
16:08:49.996 设备发送:02 03 04 84 00 04 05 23
16:08:51.486 设备接收:02 03 08 13 87 04 E7 00 00 04 E7 5B 9A
16:08:51.533 设备发送:02 03 04 8D 00 21 14 FA
16:08:53.047 设备接收:02 03 42 08 E1 07 42 00 00 00 00 00 00 00 00 00 00 00 00 00 00 00 00 00 00 08 E3 07 4A 00 00 00 00 00 00 00 00 00 00 00 00 00 00 00 00 00 00 08 EB 07 6F 00 00 00 00 00 00 00 00 00 00 00 00 00 00 00 00 00 00 1A D4
16:08:53.063 设备发送:02 03 06 84 00 04 04 9B
16:08:54.551 设备接收:02 03 08 00 00 94 8C 00 13 73 80 42 CD
16:08:54.582 设备发送:02 03 04 04 00 01 C4 C8
16:08:56.107 设备发送:02 03 04 04 00 01 C4 C8
16:08:57.644 设备发送:02 03 04 04 00 01 C4 C8
16:08:59.185 设备发送:02 03 05 84 00 0F 45 18
16:09:00.669 设备接收:02 03 1E 21 1A 00 62 00 53 21 6B 00 68 00 59 20 EB 00 7B 00 67 20 B6 01 10 00 E4 21 20 00 80 00 6C 92 FA
16:09:00.716 设备发送:02 03 05 93 00 0F F5 1C
16:09:02.221 设备接收:02 03 1E 20 66 00 72 00 5F 21 D8 00 87 00 75 20 F7 01 27 00 F9 21 AA 00 95 00 80 1D E7 00 E0 00 AB A7 B1
16:09:02.237 设备发送:02 03 05 A2 00 0F A4 D3
16:09:03.753 设备接收:02 03 1E 00 00 00 03 00 00 00 00 00 00 00 00 00 00 00 00 00 00 00 00 00 00 00 00 00 00 00 00 00 00 6D 7D
16:09:03.768 设备发送:02 03 05 B1 00 03 55 13
16:09:05.298 设备发送:02 03 05 B1 00 03 55 13
16:09:06.797 设备发送:02 03 05 B1 00 03 55 13
16:09:08.327 设备接收:02 03 06 00 00 00 00 00 00 35 85
16:09:08.343 设备发送:02 03 04 2B 00 01 F5 01
16:09:09.860 设备发送:02 03 04 2B 00 01 F5 01
16:09:11.386 设备发送:02 03 04 2B 00 01 F5 01
16:09:12.906 设备发送:02 03 04 20 00 01 84 C3
16:09:14.419 设备发送:02 03 04 20 00 01 84 C3
16:09:15.969 设备发送:02 03 04 20 00 01 84 C3
16:09:17.475 设备发送:02 03 04 05 00 01 95 08
16:09:18.992 设备发送:02 03 04 05 00 01 95 08
16:09:20.509 设备发送:02 03 04 05 00 01 95 08
16:09:22.037 设备发送:03 03 04 84 00 04 04 F2
16:09:23.587 设备发送:03 03 04 84 00 04 04 F2
16:09:25.070 设备接收:03 03 08 13 85 07 6E FF EF 07 6E 61 FD
16:09:25.086 设备发送:03 03 04 8D 00 21 15 2B
16:09:26.616 设备接收:03 03 42 08 DE 0A ED 00 00 00 00 00 00 00 00 00 00 00 00 00 00 00 00 00 00 08 E7 0A EE 00 00 00 00 00 00 00 00 00 00 00 00 00 00 00 00 00 00 08 EB 0B 19 00 00 00 00 00 00 00 00 00 00 00 00 00 00 00 00 00 00 09 EF
16:09:26.632 设备发送:03 03 06 84 00 04 05 4A
16:09:28.134 设备接收:03 03 08 00 00 A2 EE 00 13 FD 20 DF B7
16:09:28.150 设备发送:03 03 04 04 00 01 C5 19
16:09:29.681 设备发送:03 03 04 04 00 01 C5 19
16:09:31.214 设备发送:03 03 04 04 00 01 C5 19
16:09:32.741 设备发送:03 03 05 84 00 0F 44 C9
16:09:34.241 设备接收:03 03 1E 1F C6 01 C9 01 74 1F B2 01 D9 01 80 20 22 01 72 01 30 1F 56 01 84 01 37 17 F9 01 3C 00 C2 46 7B
16:09:34.272 设备发送:03 03 05 93 00 0F F4 CD
16:09:35.768 设备接收:03 03 1E 05 43 00 00 00 00 12 C1 01 31 00 92 1C 7D 00 EA 00 AB 1C 9C 00 EC 00 AD 05 46 00 00 00 00 3F B7
16:09:35.817 设备发送:03 03 05 A2 00 0F A5 02
16:09:37.296 设备接收:03 03 1E 00 10 00 00 00 00 00 00 00 00 00 00 00 00 00 00 00 00 00 00 00 00 00 00 00 00 00 00 00 00 01 66
16:09:37.358 设备发送:03 03 05 B1 00 03 54 C2
16:09:38.874 设备发送:03 03 05 B1 00 03 54 C2
16:09:40.404 设备发送:03 03 05 B1 00 03 54 C2
16:09:41.924 设备发送:03 03 04 2B 00 01 F4 D0
16:09:43.429 设备发送:03 03 04 2B 00 01 F4 D0
16:09:44.982 设备发送:03 03 04 2B 00 01 F4 D0
16:09:46.484 设备发送:03 03 04 20 00 01 85 12
16:09:48.018 设备发送:03 03 04 20 00 01 85 12
16:09:49.561 设备发送:03 03 04 20 00 01 85 12
16:09:51.075 设备发送:03 03 04 05 00 01 94 D9
16:09:52.591 设备发送:03 03 04 05 00 01 94 D9
16:09:54.138 设备发送:03 03 04 05 00 01 94 D9
16:09:55.654 设备发送:01 03 04 84 00 04 05 10
16:09:57.159 设备接收:01 03 08 13 85 04 D6 00 00 04 D6 CB 0E
16:09:57.175 设备发送:01 03 04 8D 00 21 14 C9
16:09:58.706 设备接收:01 03 42 08 E2 07 2D 00 00 00 00 00 00 00 00 00 00 00 00 00 00 00 00 00 00 08 E1 07 37 00 00 00 00 00 00 00 00 00 00 00 00 00 00 00 00 00 00 08 EA 07 56 00 00 00 00 00 00 00 00 00 00 00 00 00 00 00 00 00 00 CD D7
16:09:58.722 设备发送:01 03 06 84 00 04 04 A8
16:10:00.222 设备接收:01 03 08 00 00 9A BD 00 13 2B 14 0B 0C
16:10:00.256 设备发送:01 03 04 04 00 01 C4 FB
16:10:01.775 设备发送:01 03 04 04 00 01 C4 FB
16:10:03.322 设备发送:01 03 04 04 00 01 C4 FB
16:10:04.848 设备发送:01 03 05 84 00 0F 45 2B
16:10:06.353 设备接收:01 03 1E 1E 19 01 2E 00 E9 21 AC 00 E4 00 C4 20 AD 00 DF 00 BA 21 26 00 F0 00 CB 18 39 00 97 00 5D 3A DA
16:10:06.371 设备发送:01 03 05 93 00 0F F5 2F
16:10:07.896 设备接收:01 03 1E 00 00 00 00 00 00 1B 92 01 3C 00 DF 1D 47 00 92 00 6D 1C E4 00 9B 00 72 00 00 00 04 00 00 66 FE
16:10:07.911 设备发送:01 03 05 A2 00 0F A4 E0
16:10:09.394 设备接收:01 03 1E 00 00 00 00 00 00 00 00 00 00 00 00 00 00 00 00 00 00 00 00 00 00 00 00 00 00 00 00 00 00 D8 BA
16:10:09.410 设备发送:01 03 05 B1 00 03 55 20
16:10:10.923 设备接收:01 03 06 00 00 00 00 00 00 21 75
16:10:10.939 设备发送:01 03 04 2B 00 01 F5 32
16:10:12.469 设备发送:01 03 04 2B 00 01 F5 32
16:10:13.995 设备发送:01 03 04 2B 00 01 F5 32
16:10:15.512 设备发送:01 03 04 20 00 01 84 F0
16:10:17.025 设备发送:01 03 04 20 00 01 84 F0
16:10:18.581 设备发送:01 03 04 20 00 01 84 F0
16:10:20.113 设备发送:01 03 04 05 00 01 95 3B
16:10:21.613 设备发送:01 03 04 05 00 01 95 3B
16:10:23.127 设备发送:01 03 04 05 00 01 95 3B
16:10:24.679 设备发送:02 03 04 84 00 04 05 23
16:10:26.162 设备发送:02 03 04 84 00 04 05 23
16:10:27.708 设备发送:02 03 04 84 00 04 05 23
16:10:29.222 设备接收:02 03 08 13 85 04 4A 00 0E 04 4A 75 FC
16:10:29.238 设备发送:02 03 04 8D 00 21 14 FA
16:10:30.744 设备接收:02 03 42 08 DC 06 6B 00 00 00 00 00 00 00 00 00 00 00 00 00 00 00 00 00 00 08 DB 06 6F 00 00 00 00 00 00 00 00 00 00 00 00 00 00 00 00 00 00 08 E4 06 99 00 00 00 00 00 00 00 00 00 00 00 00 00 00 00 00 00 00 B9 C8
16:10:30.790 设备发送:02 03 06 84 00 04 04 9B
16:10:32.289 设备接收:02 03 08 00 00 94 AC 00 13 73 84 C2 C9
16:10:32.305 设备发送:02 03 04 04 00 01 C4 C8
16:10:33.809 设备发送:02 03 04 04 00 01 C4 C8
16:10:35.341 设备发送:02 03 04 04 00 01 C4 C8
16:10:36.887 设备发送:02 03 05 84 00 0F 45 18
16:10:38.403 设备接收:02 03 1E 21 0C 00 57 00 4A 21 AD 00 52 00 47 21 92 00 64 00 56 21 07 00 E2 00 BF 21 74 00 68 00 59 B9 AB
16:10:38.420 设备发送:02 03 05 93 00 0F F5 1C
16:10:39.903 设备接收:02 03 1E 21 A8 00 5A 00 4D 22 10 00 6F 00 61 20 53 01 1B 00 EA 21 9B 00 91 00 7D 1D 46 00 D6 00 A0 88 8F
16:10:39.953 设备发送:02 03 05 A2 00 0F A4 D3
16:10:41.468 设备接收:02 03 1E 00 00 00 03 00 00 00 00 00 00 00 00 00 00 00 00 00 00 00 00 00 00 00 00 00 00 00 00 00 00 6D 7D
16:10:41.483 设备发送:02 03 05 B1 00 03 55 13
16:10:42.981 设备接收:02 03 06 00 00 00 00 00 00 35 85
16:10:43.013 设备发送:02 03 04 2B 00 01 F5 01
16:10:44.515 设备发送:02 03 04 2B 00 01 F5 01
16:10:46.045 设备发送:02 03 04 2B 00 01 F5 01
16:10:47.563 设备发送:02 03 04 20 00 01 84 C3
16:10:49.080 设备发送:02 03 04 20 00 01 84 C3
16:10:50.583 设备接收:02 03 02 00 34 FD 93
16:10:50.615 设备发送:02 03 04 05 00 01 95 08
16:10:52.127 设备发送:02 03 04 05 00 01 95 08
16:10:53.661 设备发送:02 03 04 05 00 01 95 08
16:10:55.188 设备发送:03 03 04 84 00 04 04 F2
16:10:56.714 设备发送:03 03 04 84 00 04 04 F2
16:10:58.229 设备发送:03 03 04 84 00 04 04 F2
16:10:59.728 设备接收:03 03 08 13 85 07 23 FF EE 07 23 DC 06
16:10:59.790 设备发送:03 03 04 8D 00 21 15 2B
16:11:01.271 设备接收:03 03 42 08 DA 0A 91 00 00 00 00 00 00 00 00 00 00 00 00 00 00 00 00 00 00 08 E2 0A 8A 00 00 00 00 00 00 00 00 00 00 00 00 00 00 00 00 00 00 08 E8 0A B7 00 00 00 00 00 00 00 00 00 00 00 00 00 00 00 00 00 00 DC 31
16:11:01.302 设备发送:03 03 06 84 00 04 05 4A
16:11:02.799 设备接收:03 03 08 00 00 A3 1F 00 13 FD 24 A2 70
16:11:02.847 设备发送:03 03 04 04 00 01 C5 19
16:11:04.364 设备发送:03 03 04 04 00 01 C5 19
16:11:05.883 设备接收:03 03 02 00 02 40 45
16:11:05.899 设备发送:03 03 05 84 00 0F 44 C9
16:11:07.400 设备接收:03 03 1E 1F 76 01 BB 01 65 1F B2 01 CA 01 74 1F 81 01 6D 01 26 1F F6 01 72 01 2E 17 F8 01 30 00 BA 61 8C
16:11:07.416 设备发送:03 03 05 93 00 0F F4 CD
16:11:08.903 设备接收:03 03 1E 05 3D 00 00 00 00 12 C2 01 24 00 8C 1C 2B 00 E4 00 A5 1C 9B 00 E4 00 A7 05 42 00 00 00 00 63 AC
16:11:08.951 设备发送:03 03 05 A2 00 0F A5 02
16:11:10.467 设备接收:03 03 1E 00 0D 00 00 00 00 00 00 00 00 00 00 00 00 00 00 00 00 00 00 00 00 00 00 00 00 00 00 00 00 C1 72
16:11:10.483 设备发送:03 03 05 B1 00 03 54 C2
16:11:12.013 设备发送:03 03 05 B1 00 03 54 C2
16:11:13.528 设备发送:03 03 05 B1 00 03 54 C2
16:11:15.048 设备发送:03 03 04 2B 00 01 F4 D0
16:11:16.581 设备发送:03 03 04 2B 00 01 F4 D0
16:11:18.109 设备发送:03 03 04 2B 00 01 F4 D0
16:11:19.627 设备发送:03 03 04 20 00 01 85 12
16:11:21.161 设备发送:03 03 04 20 00 01 85 12
16:11:22.680 设备发送:03 03 04 20 00 01 85 12
16:11:24.210 设备发送:03 03 04 05 00 01 94 D9
16:11:25.739 设备发送:03 03 04 05 00 01 94 D9
16:11:27.250 设备发送:03 03 04 05 00 01 94 D9
16:11:28.782 设备发送:01 03 04 84 00 04 05 10
16:11:30.330 设备发送:01 03 04 84 00 04 05 10
16:11:31.826 设备发送:01 03 04 84 00 04 05 10
16:11:33.372 设备发送:01 03 04 8D 00 21 14 C9
16:11:34.888 设备接收:01 03 42 08 DF 06 C6 00 00 00 00 00 00 00 00 00 00 00 00 00 00 00 00 00 00 08 DD 06 D6 00 00 00 00 00 00 00 00 00 00 00 00 00 00 00 00 00 00 08 E8 06 EE 00 00 00 00 00 00 00 00 00 00 00 00 00 00 00 00 00 00 62 31
16:11:34.903 设备发送:01 03 06 84 00 04 04 A8
16:11:36.401 设备接收:01 03 08 00 00 9A DD 00 13 2B 17 CB 05
16:11:36.448 设备发送:01 03 04 04 00 01 C4 FB
16:11:37.961 设备发送:01 03 04 04 00 01 C4 FB
16:11:39.479 设备发送:01 03 04 04 00 01 C4 FB
16:11:41.009 设备接收:01 03 02 00 02 39 85
16:11:41.025 设备发送:01 03 05 84 00 0F 45 2B
16:11:42.539 设备接收:01 03 1E 1E 69 01 22 00 E2 21 97 00 C7 00 AB 21 A0 00 BF 00 A4 21 CA 00 D7 00 BA 18 3A 00 93 00 5B 69 B6
16:11:42.555 设备发送:01 03 05 93 00 0F F5 2F
16:11:44.052 设备接收:01 03 1E 00 00 00 00 00 00 1B 93 01 33 00 D8 1D 47 00 8D 00 6A 1C E4 00 94 00 6D 00 00 00 04 00 00 1A 97
16:11:44.098 设备发送:01 03 05 A2 00 0F A4 E0
16:11:45.613 设备接收:01 03 1E 00 00 00 00 00 00 00 00 00 00 00 00 00 00 00 00 00 00 00 00 00 00 00 00 00 00 00 00 00 00 D8 BA
16:11:45.629 设备发送:01 03 05 B1 00 03 55 20
16:11:47.128 设备接收:01 03 06 00 00 00 00 00 00 21 75
16:11:47.160 设备发送:01 03 04 2B 00 01 F5 32
16:11:48.664 设备发送:01 03 04 2B 00 01 F5 32
16:11:50.210 设备发送:01 03 04 2B 00 01 F5 32
16:11:51.722 设备发送:01 03 04 20 00 01 84 F0
16:11:53.239 设备发送:01 03 04 20 00 01 84 F0
16:11:54.748 设备发送:01 03 04 20 00 01 84 F0
16:11:56.310 设备发送:01 03 04 05 00 01 95 3B
16:11:57.799 设备发送:01 03 04 05 00 01 95 3B
16:11:59.339 设备发送:01 03 04 05 00 01 95 3B
16:12:00.887 设备发送:02 03 04 84 00 04 05 23
16:12:02.375 设备发送:02 03 04 84 00 04 05 23
16:12:03.898 设备发送:02 03 04 84 00 04 05 23
16:12:05.456 设备发送:02 03 04 8D 00 21 14 FA
16:12:06.939 设备接收:02 03 42 08 D9 05 DF 00 00 00 00 00 00 00 00 00 00 00 00 00 00 00 00 00 00 08 D8 05 E2 00 00 00 00 00 00 00 00 00 00 00 00 00 00 00 00 00 00 08 E1 06 11 00 00 00 00 00 00 00 00 00 00 00 00 00 00 00 00 00 00 1F 29
16:12:06.955 设备发送:02 03 06 84 00 04 04 9B
16:12:08.492 设备接收:02 03 08 00 00 94 C8 00 13 73 86 32 C0
16:12:08.508 设备发送:02 03 04 04 00 01 C4 C8
16:12:10.020 设备发送:02 03 04 04 00 01 C4 C8
16:12:11.535 设备发送:02 03 04 04 00 01 C4 C8
16:12:13.078 设备发送:02 03 05 84 00 0F 45 18
16:12:14.559 设备接收:02 03 1E 21 0D 00 52 00 45 21 24 00 4E 00 42 20 F0 00 5A 00 4B 21 11 00 C1 00 A3 21 21 00 59 00 4B 25 73
16:12:14.606 设备发送:02 03 05 93 00 0F F5 1C
16:12:16.141 设备接收:02 03 1E 21 02 00 50 00 43 22 00 00 63 00 56 20 F6 01 10 00 E6 21 43 00 8B 00 77 1C F7 00 D1 00 9B 80 87
16:12:16.157 设备发送:02 03 05 A2 00 0F A4 D3
16:12:17.627 设备接收:02 03 1E 00 00 00 02 00 00 00 00 00 00 00 00 00 00 00 00 00 00 00 00 00 00 00 00 00 00 00 00 00 00 93 FF
16:12:17.674 设备发送:02 03 05 B1 00 03 55 13
16:12:19.193 设备发送:02 03 05 B1 00 03 55 13
16:12:20.726 设备发送:02 03 05 B1 00 03 55 13
16:12:22.255 设备发送:02 03 04 2B 00 01 F5 01
16:12:23.756 设备发送:02 03 04 2B 00 01 F5 01
16:12:25.289 设备发送:02 03 04 2B 00 01 F5 01
16:12:26.810 设备发送:02 03 04 20 00 01 84 C3
16:12:28.339 设备发送:02 03 04 20 00 01 84 C3
16:12:29.875 设备发送:02 03 04 20 00 01 84 C3
16:12:31.406 设备发送:02 03 04 05 00 01 95 08
16:12:32.936 设备发送:02 03 04 05 00 01 95 08
16:12:34.452 设备发送:02 03 04 05 00 01 95 08
16:12:35.986 设备发送:03 03 04 84 00 04 04 F2
16:12:37.502 设备发送:03 03 04 84 00 04 04 F2
16:12:39.020 设备发送:03 03 04 84 00 04 04 F2
16:12:40.540 设备接收:03 03 08 13 84 06 D6 FF EE 06 D6 80 D5
16:12:40.556 设备发送:03 03 04 8D 00 21 15 2B
16:12:42.075 设备接收:03 03 42 08 DC 0A 15 00 00 00 00 00 00 00 00 00 00 00 00 00 00 00 00 00 00 08 E3 0A 16 00 00 00 00 00 00 00 00 00 00 00 00 00 00 00 00 00 00 08 E8 0A 41 00 00 00 00 00 00 00 00 00 00 00 00 00 00 00 00 00 00 D0 A3
16:12:42.091 设备发送:03 03 06 84 00 04 05 4A
16:12:43.603 设备发送:03 03 06 84 00 04 05 4A
16:12:45.148 设备发送:03 03 06 84 00 04 05 4A
16:12:46.653 设备接收:03 03 08 00 00 A3 52 00 13 FD 2A 0F BA
16:12:46.684 设备发送:03 03 04 04 00 01 C5 19
16:12:48.184 设备发送:03 03 04 04 00 01 C5 19
16:12:49.715 设备发送:03 03 04 04 00 01 C5 19
16:12:51.265 设备发送:03 03 05 84 00 0F 44 C9
16:12:52.759 设备接收:03 03 1E 1F 77 01 AA 01 57 1F DB 01 B8 01 67 1E E2 01 60 01 16 1F 55 01 67 01 20 17 FA 01 25 00 B4 D5 9E
16:12:52.774 设备发送:03 03 05 93 00 0F F4 CD
16:12:54.290 设备接收:03 03 1E 05 3A 00 00 00 00 12 C2 01 1B 00 88 1C 7D 00 DA 00 9F 1C 4C 00 DF 00 A1 05 3C 00 00 00 00 FB 43
16:12:54.306 设备发送:03 03 05 A2 00 0F A5 02
16:12:55.818 设备接收:03 03 1E 00 0D 00 00 00 00 00 00 00 00 00 00 00 00 00 00 00 00 00 00 00 00 00 00 00 00 00 00 00 00 C1 72
16:12:55.834 设备发送:03 03 05 B1 00 03 54 C2
16:12:57.362 设备发送:03 03 05 B1 00 03 54 C2
16:12:58.883 设备发送:03 03 05 B1 00 03 54 C2
16:13:00.405 设备发送:03 03 04 2B 00 01 F4 D0
16:13:01.928 设备发送:03 03 04 2B 00 01 F4 D0
16:13:03.446 设备发送:03 03 04 2B 00 01 F4 D0
16:13:04.974 设备发送:03 03 04 20 00 01 85 12
16:13:06.491 设备发送:03 03 04 20 00 01 85 12
16:13:08.035 设备发送:03 03 04 20 00 01 85 12
16:13:09.551 设备发送:03 03 04 05 00 01 94 D9
16:13:11.064 设备发送:03 03 04 05 00 01 94 D9
16:13:12.611 设备发送:03 03 04 05 00 01 94 D9
16:13:14.142 设备发送:01 03 04 84 00 04 05 10
16:13:15.665 设备发送:01 03 04 84 00 04 05 10
16:13:17.182 设备发送:01 03 04 84 00 04 05 10
16:13:18.729 设备发送:01 03 04 8D 00 21 14 C9
16:13:20.212 设备接收:01 03 42 08 DB 06 2D 00 00 00 00 00 00 00 00 00 00 00 00 00 00 00 00 00 00 08 DB 06 3E 00 00 00 00 00 00 00 00 00 00 00 00 00 00 00 00 00 00 08 E5 06 58 00 00 00 00 00 00 00 00 00 00 00 00 00 00 00 00 00 00 2A CA
16:13:20.260 设备发送:01 03 06 84 00 04 04 A8
16:13:21.763 设备发送:01 03 06 84 00 04 04 A8
16:13:23.305 设备发送:01 03 06 84 00 04 04 A8
16:13:24.837 设备发送:01 03 04 04 00 01 C4 FB
16:13:26.350 设备发送:01 03 04 04 00 01 C4 FB
16:13:27.880 设备发送:01 03 04 04 00 01 C4 FB
16:13:29.426 设备发送:01 03 05 84 00 0F 45 2B
16:13:30.917 设备接收:01 03 1E 1D CB 01 1C 00 D9 21 0E 00 BA 00 9D 20 AC 00 AF 00 92 21 7A 00 C1 00 A5 18 3A 00 8C 00 57 73 D9
16:13:30.964 设备发送:01 03 05 93 00 0F F5 2F
16:13:32.466 设备接收:01 03 1E 00 00 00 00 00 00 1B E2 01 20 00 CE 1D 96 00 88 00 67 1D 35 00 8F 00 6B 00 00 00 05 00 00 DB 2F
16:13:32.482 设备发送:01 03 05 A2 00 0F A4 E0
16:13:33.994 设备接收:01 03 1E 00 00 00 00 00 00 00 00 00 00 00 00 00 00 00 00 00 00 00 00 00 00 00 00 00 00 00 00 00 00 D8 BA
16:13:34.009 设备发送:01 03 05 B1 00 03 55 20
16:13:35.522 设备发送:01 03 05 B1 00 03 55 20
16:13:37.067 设备发送:01 03 05 B1 00 03 55 20
16:13:38.585 设备发送:01 03 04 2B 00 01 F5 32
16:13:40.116 设备发送:01 03 04 2B 00 01 F5 32
16:13:41.629 设备发送:01 03 04 2B 00 01 F5 32
16:13:43.170 设备发送:01 03 04 20 00 01 84 F0
16:13:44.711 设备发送:01 03 04 20 00 01 84 F0
16:13:46.238 设备发送:01 03 04 20 00 01 84 F0
16:13:47.753 设备发送:01 03 04 05 00 01 95 3B
16:13:49.283 设备发送:01 03 04 05 00 01 95 3B
16:13:50.781 设备发送:01 03 04 05 00 01 95 3B
16:13:52.342 设备发送:02 03 04 84 00 04 05 23
16:13:53.825 设备发送:02 03 04 84 00 04 05 23
16:13:55.340 设备接收:02 03 08 13 85 03 C5 00 12 03 C5 A3 C6
16:13:55.356 设备发送:02 03 04 8D 00 21 14 FA
16:13:56.871 设备接收:02 03 42 08 DB 05 A7 00 00 00 00 00 00 00 00 00 00 00 00 00 00 00 00 00 00 08 DA 05 AB 00 00 00 00 00 00 00 00 00 00 00 00 00 00 00 00 00 00 08 E3 05 D1 00 00 00 00 00 00 00 00 00 00 00 00 00 00 00 00 00 00 40 80
16:13:56.904 设备发送:02 03 06 84 00 04 04 9B
16:13:58.451 设备发送:02 03 06 84 00 04 04 9B
16:13:59.947 设备发送:02 03 06 84 00 04 04 9B
16:14:01.496 设备发送:02 03 04 04 00 01 C4 C8
16:14:03.014 设备发送:02 03 04 04 00 01 C4 C8
16:14:04.544 设备发送:02 03 04 04 00 01 C4 C8
16:14:06.071 设备发送:02 03 05 84 00 0F 45 18
16:14:07.598 设备接收:02 03 1E 21 5D 00 4D 00 42 20 32 00 49 00 3C 20 4D 00 55 00 46 20 BA 00 B7 00 99 21 B2 00 58 00 4C 2B E5
16:14:07.614 设备发送:02 03 05 93 00 0F F5 1C
16:14:09.103 设备接收:02 03 1E 20 B5 00 4D 00 41 22 01 00 60 00 53 20 A7 01 06 00 DB 21 48 00 84 00 71 1D 46 00 C3 00 92 EF 18
16:14:09.151 设备发送:02 03 05 A2 00 0F A4 D3
16:14:10.640 设备接收:02 03 1E 00 00 00 02 00 00 00 00 00 00 00 00 00 00 00 00 00 00 00 00 00 00 00 00 00 00 00 00 00 00 93 FF
16:14:10.671 设备发送:02 03 05 B1 00 03 55 13
16:14:12.185 设备发送:02 03 05 B1 00 03 55 13
16:14:13.709 设备发送:02 03 05 B1 00 03 55 13
16:14:15.244 设备发送:02 03 04 2B 00 01 F5 01
16:14:16.778 设备发送:02 03 04 2B 00 01 F5 01
16:14:18.294 设备发送:02 03 04 2B 00 01 F5 01
16:14:19.840 设备发送:02 03 04 20 00 01 84 C3
16:14:21.380 设备发送:02 03 04 20 00 01 84 C3
16:14:22.894 设备发送:02 03 04 20 00 01 84 C3
16:14:24.423 设备发送:02 03 04 05 00 01 95 08
16:14:25.936 设备发送:02 03 04 05 00 01 95 08
16:14:27.485 设备发送:02 03 04 05 00 01 95 08
16:14:29.012 设备发送:03 03 04 84 00 04 04 F2
16:14:30.497 设备接收:03 03 08 13 85 06 72 00 0B 06 72 C1 94
16:14:30.558 设备发送:03 03 04 8D 00 21 15 2B
16:14:32.055 设备接收:03 03 42 08 DF 09 82 00 00 00 00 00 00 00 00 00 00 00 00 00 00 00 00 00 00 08 E5 09 85 00 00 00 00 00 00 00 00 00 00 00 00 00 00 00 00 00 00 08 EC 09 AF 00 00 00 00 00 00 00 00 00 00 00 00 00 00 00 00 00 00 F4 78
16:14:32.071 设备发送:03 03 06 84 00 04 05 4A
16:14:33.567 设备发送:03 03 06 84 00 04 05 4A
16:14:35.115 设备发送:03 03 06 84 00 04 05 4A
16:14:36.616 设备接收:03 03 08 00 00 A3 86 00 13 FD 2F FF AB
16:14:36.632 设备发送:03 03 04 04 00 01 C5 19
16:14:38.184 设备发送:03 03 04 04 00 01 C5 19
16:14:39.706 设备发送:03 03 04 04 00 01 C5 19
16:14:41.223 设备发送:03 03 05 84 00 0F 44 C9
16:14:42.705 设备接收:03 03 1E 1F 78 01 96 01 47 1F B3 01 A1 01 52 1E 92 01 4D 01 04 1F F7 01 54 01 16 18 49 01 04 00 A1 7A 9C
16:14:42.753 设备发送:03 03 05 93 00 0F F4 CD
16:14:44.252 设备接收:03 03 1E 05 3B 00 00 00 00 13 62 01 01 00 7F 1C 2D 00 D4 00 99 1B FC 00 D6 00 99 05 3D 00 00 00 00 1C 7B
16:14:44.267 设备发送:03 03 05 A2 00 0F A5 02
16:14:45.782 设备接收:03 03 1E 00 0F 00 00 00 00 00 00 00 00 00 00 00 00 00 00 00 00 00 00 00 00 00 00 00 00 00 00 00 00 41 71
16:14:45.813 设备发送:03 03 05 B1 00 03 54 C2
16:14:47.316 设备发送:03 03 05 B1 00 03 54 C2
16:14:48.846 设备发送:03 03 05 B1 00 03 54 C2
16:14:50.377 设备发送:03 03 04 2B 00 01 F4 D0
16:14:51.893 设备发送:03 03 04 2B 00 01 F4 D0
16:14:53.413 设备发送:03 03 04 2B 00 01 F4 D0
16:14:54.947 设备发送:03 03 04 20 00 01 85 12
16:14:56.467 设备发送:03 03 04 20 00 01 85 12
16:14:57.985 设备发送:03 03 04 20 00 01 85 12
16:14:59.516 设备发送:03 03 04 05 00 01 94 D9
16:15:01.032 设备发送:03 03 04 05 00 01 94 D9
16:15:02.559 设备发送:03 03 04 05 00 01 94 D9
16:15:04.086 设备发送:01 03 04 84 00 04 05 10
16:15:05.606 设备发送:01 03 04 84 00 04 05 10
16:15:07.527 设备发送:01 03 04 84 00 04 05 10
16:15:09.057 设备发送:01 03 04 8D 00 21 14 C9
16:15:10.539 设备接收:01 03 42 08 DD 05 EB 00 00 00 00 00 00 00 00 00 00 00 00 00 00 00 00 00 00 08 DE 05 FF 00 00 00 00 00 00 00 00 00 00 00 00 00 00 00 00 00 00 08 E7 06 17 00 00 00 00 00 00 00 00 00 00 00 00 00 00 00 00 00 00 DA 8C
16:15:10.554 设备发送:01 03 06 84 00 04 04 A8
16:15:12.090 设备接收:01 03 08 00 00 9B 1E 00 13 2B 1E 4E C3
16:15:12.105 设备发送:01 03 04 04 00 01 C4 FB
16:15:13.636 设备发送:01 03 04 04 00 01 C4 FB
16:15:15.144 设备发送:01 03 04 04 00 01 C4 FB
16:15:16.655 设备发送:01 03 05 84 00 0F 45 2B
16:15:18.160 设备接收:01 03 1E 1E 6B 01 0E 00 D2 21 FF 00 A3 00 8E 20 AB 00 A0 00 86 21 3C 00 B4 00 99 17 EA 00 87 00 53 78 9C
16:15:18.175 设备发送:01 03 05 93 00 0F F5 2F
16:15:19.678 设备接收:01 03 1E 00 00 00 00 00 00 1B 93 01 16 00 C4 1D 46 00 83 00 62 1D 85 00 86 00 65 00 00 00 04 00 00 25 B0
16:15:19.726 设备发送:01 03 05 A2 00 0F A4 E0
16:15:21.211 设备接收:01 03 1E 00 00 00 00 00 00 00 00 00 00 00 00 00 00 00 00 00 00 00 00 00 00 00 00 00 00 00 00 00 00 D8 BA
16:15:21.258 设备发送:01 03 05 B1 00 03 55 20
16:15:22.779 设备发送:01 03 05 B1 00 03 55 20
16:15:24.293 设备发送:01 03 05 B1 00 03 55 20
16:15:25.822 设备发送:01 03 04 2B 00 01 F5 32
16:15:27.360 设备发送:01 03 04 2B 00 01 F5 32
16:15:28.870 设备发送:01 03 04 2B 00 01 F5 32
16:15:30.397 设备发送:01 03 04 20 00 01 84 F0
16:15:31.908 设备发送:01 03 04 20 00 01 84 F0
16:15:33.421 设备发送:01 03 04 20 00 01 84 F0
16:15:34.956 设备发送:01 03 04 05 00 01 95 3B
16:15:36.511 设备发送:01 03 04 05 00 01 95 3B
16:15:38.026 设备发送:01 03 04 05 00 01 95 3B
16:15:39.547 设备发送:02 03 04 84 00 04 05 23
16:15:41.071 设备发送:02 03 04 84 00 04 05 23
16:15:42.585 设备发送:02 03 04 84 00 04 05 23
16:15:44.113 设备发送:02 03 04 8D 00 21 14 FA
16:15:45.628 设备接收:02 03 42 08 DD 05 67 00 00 00 00 00 00 00 00 00 00 00 00 00 00 00 00 00 00 08 DC 05 68 00 00 00 00 00 00 00 00 00 00 00 00 00 00 00 00 00 00 08 E3 05 97 00 00 00 00 00 00 00 00 00 00 00 00 00 00 00 00 00 00 C6 16
16:15:45.676 设备发送:02 03 06 84 00 04 04 9B
16:15:47.169 设备接收:02 03 08 00 00 95 02 00 13 73 8C 2B 06
16:15:47.185 设备发送:02 03 04 04 00 01 C4 C8
16:15:48.700 设备发送:02 03 04 04 00 01 C4 C8
16:15:50.235 设备发送:02 03 04 04 00 01 C4 C8
16:15:51.764 设备发送:02 03 05 84 00 0F 45 18
16:15:53.264 设备接收:02 03 1E 20 6D 00 4E 00 41 20 D3 00 46 00 3B 20 EF 00 4F 00 43 20 18 00 B3 00 93 21 5B 00 59 00 4C 47 67
16:15:53.297 设备发送:02 03 05 93 00 0F F5 1C
16:15:54.794 设备接收:02 03 1E 20 66 00 4C 00 3F 22 02 00 5C 00 50 20 F5 00 F4 00 CE 21 49 00 7D 00 6B 1C F7 00 B7 00 87 74 3B
16:15:54.832 设备发送:02 03 05 A2 00 0F A4 D3
16:15:56.327 设备接收:02 03 1E 00 00 00 02 00 00 00 00 00 00 00 00 00 00 00 00 00 00 00 00 00 00 00 00 00 00 00 00 00 00 93 FF
16:15:56.349 设备发送:02 03 05 B1 00 03 55 13
16:15:57.873 设备发送:02 03 05 B1 00 03 55 13
16:15:59.419 设备发送:02 03 05 B1 00 03 55 13
16:16:00.935 设备发送:02 03 04 2B 00 01 F5 01
16:16:02.481 设备发送:02 03 04 2B 00 01 F5 01
16:16:03.979 设备发送:02 03 04 2B 00 01 F5 01
16:16:05.499 设备发送:02 03 04 20 00 01 84 C3
16:16:07.040 设备发送:02 03 04 20 00 01 84 C3
16:16:08.556 设备发送:02 03 04 20 00 01 84 C3
16:16:10.083 设备发送:02 03 04 05 00 01 95 08
16:16:11.615 设备发送:02 03 04 05 00 01 95 08
16:16:13.138 设备发送:02 03 04 05 00 01 95 08
16:16:14.671 设备发送:03 03 04 84 00 04 04 F2
16:16:16.186 设备发送:03 03 04 84 00 04 04 F2
16:16:17.685 设备发送:03 03 04 84 00 04 04 F2
16:16:19.232 设备发送:03 03 04 8D 00 21 15 2B
16:16:20.734 设备接收:03 03 42 08 DC 08 CD 00 00 00 00 00 00 00 00 00 00 00 00 00 00 00 00 00 00 08 E3 08 D4 00 00 00 00 00 00 00 00 00 00 00 00 00 00 00 00 00 00 08 E6 08 FC 00 00 00 00 00 00 00 00 00 00 00 00 00 00 00 00 00 00 5C 72
16:16:20.750 设备发送:03 03 06 84 00 04 05 4A
16:16:22.267 设备发送:03 03 06 84 00 04 05 4A
16:16:23.802 设备接收:03 03 08 00 00 A3 B5 00 13 FD 33 FA 66
16:16:23.810 设备发送:03 03 04 04 00 01 C5 19
16:16:25.355 设备发送:03 03 04 04 00 01 C5 19
16:16:26.869 设备发送:03 03 04 04 00 01 C5 19
16:16:28.395 设备发送:03 03 05 84 00 0F 44 C9
16:16:29.898 设备接收:03 03 1E 1F 77 01 7D 01 33 1F 63 01 89 01 3C 1E 3E 01 34 00 EE 1F A8 01 3A 00 FE 18 96 00 D4 00 85 85 14
16:16:29.915 设备发送:03 03 05 93 00 0F F4 CD
16:16:31.420 设备接收:03 03 1E 05 36 00 00 00 00 12 C2 00 FD 00 79 1C 2C 00 C8 00 90 1B FA 00 CB 00 91 05 3A 00 00 00 00 E4 66
16:16:31.436 设备发送:03 03 05 A2 00 0F A5 02
16:16:32.953 设备接收:03 03 1E 00 0D 00 00 00 00 00 00 00 00 00 00 00 00 00 00 00 00 00 00 00 00 00 00 00 00 00 00 00 00 C1 72
16:16:32.970 设备发送:03 03 05 B1 00 03 54 C2
16:16:34.515 设备发送:03 03 05 B1 00 03 54 C2
16:16:36.047 设备发送:03 03 05 B1 00 03 54 C2
16:16:37.558 设备发送:03 03 04 2B 00 01 F4 D0
16:16:39.092 设备发送:03 03 04 2B 00 01 F4 D0
16:16:40.620 设备发送:03 03 04 2B 00 01 F4 D0
16:16:42.151 设备发送:03 03 04 20 00 01 85 12
16:16:43.675 设备发送:03 03 04 20 00 01 85 12
16:16:45.179 设备发送:03 03 04 20 00 01 85 12
16:16:46.724 设备发送:03 03 04 05 00 01 94 D9
16:16:48.240 设备发送:03 03 04 05 00 01 94 D9
16:16:49.785 设备发送:03 03 04 05 00 01 94 D9
16:16:51.300 设备发送:01 03 04 84 00 04 05 10
16:16:52.833 设备发送:01 03 04 84 00 04 05 10
16:16:54.377 设备发送:01 03 04 84 00 04 05 10
16:16:55.861 设备接收:01 03 08 13 8B 03 CC FF FF 03 CC FF 64
16:16:55.877 设备发送:01 03 04 8D 00 21 14 C9
16:16:57.402 设备接收:01 03 42 08 DB 05 AD 00 00 00 00 00 00 00 00 00 00 00 00 00 00 00 00 00 00 08 DE 05 BE 00 00 00 00 00 00 00 00 00 00 00 00 00 00 00 00 00 00 08 E4 05 D2 00 00 00 00 00 00 00 00 00 00 00 00 00 00 00 00 00 00 94 5C
16:16:57.408 设备发送:01 03 06 84 00 04 04 A8
16:16:58.946 设备发送:01 03 06 84 00 04 04 A8
16:17:00.484 设备发送:01 03 06 84 00 04 04 A8
16:17:01.983 设备接收:01 03 08 00 00 9B 3D 00 13 2B 21 CB 14
16:17:01.998 设备发送:01 03 04 04 00 01 C4 FB
16:17:03.513 设备发送:01 03 04 04 00 01 C4 FB
16:17:05.040 设备发送:01 03 04 04 00 01 C4 FB
16:17:06.584 设备发送:01 03 05 84 00 0F 45 2B
16:17:08.059 设备接收:01 03 1E 1E 69 00 FF 00 C6 21 AD 00 9F 00 89 20 FE 00 9A 00 82 21 26 00 AB 00 91 17 99 00 80 00 4D F4 ED
16:17:08.107 设备发送:01 03 05 93 00 0F F5 2F
16:17:09.601 设备接收:01 03 1E 00 00 00 00 00 00 1B 43 01 08 00 B8 1D 46 00 79 00 5B 1D 36 00 81 00 60 00 00 00 04 00 00 0C 00
16:17:09.632 设备发送:01 03 05 A2 00 0F A4 E0
16:17:11.152 设备接收:01 03 1E 00 00 00 00 00 00 00 00 00 00 00 00 00 00 00 00 00 00 00 00 00 00 00 00 00 00 00 00 00 00 D8 BA
16:17:11.168 设备发送:01 03 05 B1 00 03 55 20
16:17:12.698 设备发送:01 03 05 B1 00 03 55 20
16:17:14.240 设备发送:01 03 05 B1 00 03 55 20
16:17:15.710 设备接收:01 03 06 00 00 00 00 00 00 21 75
16:17:15.757 设备发送:01 03 04 2B 00 01 F5 32
16:17:17.289 设备发送:01 03 04 2B 00 01 F5 32
16:17:18.796 设备发送:01 03 04 2B 00 01 F5 32
16:17:20.342 设备发送:01 03 04 20 00 01 84 F0
16:17:21.848 设备发送:01 03 04 20 00 01 84 F0
16:17:23.379 设备发送:01 03 04 20 00 01 84 F0
16:17:24.898 设备发送:01 03 04 05 00 01 95 3B
16:17:26.431 设备发送:01 03 04 05 00 01 95 3B
16:17:27.960 设备发送:01 03 04 05 00 01 95 3B
16:17:29.493 设备发送:02 03 04 84 00 04 05 23
16:17:31.022 设备发送:02 03 04 84 00 04 05 23
16:17:32.533 设备发送:02 03 04 84 00 04 05 23
16:17:34.069 设备发送:02 03 04 8D 00 21 14 FA
16:17:35.586 设备接收:02 03 42 08 DC 05 11 00 00 00 00 00 00 00 00 00 00 00 00 00 00 00 00 00 00 08 D9 05 12 00 00 00 00 00 00 00 00 00 00 00 00 00 00 00 00 00 00 08 E2 05 48 00 00 00 00 00 00 00 00 00 00 00 00 00 00 00 00 00 00 5B A8
16:17:35.617 设备发送:02 03 06 84 00 04 04 9B
16:17:37.127 设备发送:02 03 06 84 00 04 04 9B
16:17:38.658 设备发送:02 03 06 84 00 04 04 9B
16:17:40.202 设备发送:02 03 04 04 00 01 C4 C8
16:17:41.709 设备发送:02 03 04 04 00 01 C4 C8
16:17:43.238 设备发送:02 03 04 04 00 01 C4 C8
16:17:44.766 设备发送:02 03 05 84 00 0F 45 18
16:17:46.282 设备发送:02 03 05 93 00 0F F5 1C
16:17:46.301 设备接收:02 03 1E 20 6E 00 4B 00 3E 20 85 00 45 00 39 20 9C 00 4D 00 40 1F C4 00 AD 00 8C 20 CC 00 4C 00 40 2D DE
16:17:47.770 设备接收:02 03 1E 20 B5 00 47 00 3B 22 02 00 58 00 4D 20 A3 00 DF 00 BA 20 F8 00 73 00 61 1C 06 00 B1 00 7F E0 3A
16:17:47.801 设备发送:02 03 05 A2 00 0F A4 D3
16:17:49.332 设备接收:02 03 1E 00 00 00 01 00 00 00 00 00 00 00 00 00 00 00 00 00 00 00 00 00 00 00 00 00 00 00 00 00 00 92 38
16:17:49.348 设备发送:02 03 05 B1 00 03 55 13
16:17:50.863 设备发送:02 03 05 B1 00 03 55 13
16:17:52.382 设备发送:02 03 05 B1 00 03 55 13
16:17:53.922 设备发送:02 03 04 2B 00 01 F5 01
16:17:55.452 设备发送:02 03 04 2B 00 01 F5 01
16:17:56.965 设备发送:02 03 04 2B 00 01 F5 01
16:17:58.513 设备发送:02 03 04 20 00 01 84 C3
16:18:00.011 设备发送:02 03 04 20 00 01 84 C3
16:18:01.544 设备发送:02 03 04 20 00 01 84 C3
16:18:03.073 设备发送:02 03 04 05 00 01 95 08
16:18:04.625 设备发送:02 03 04 05 00 01 95 08
16:18:06.142 设备发送:02 03 04 05 00 01 95 08
16:18:07.691 设备发送:03 03 04 84 00 04 04 F2
16:18:09.205 设备发送:03 03 04 84 00 04 04 F2
16:18:10.712 设备发送:03 03 04 84 00 04 04 F2
16:18:12.256 设备发送:03 03 04 8D 00 21 15 2B
16:18:13.740 设备接收:03 03 42 08 D8 07 EC 00 00 00 00 00 00 00 00 00 00 00 00 00 00 00 00 00 00 08 DB 07 F3 00 00 00 00 00 00 00 00 00 00 00 00 00 00 00 00 00 00 08 E4 08 20 00 00 00 00 00 00 00 00 00 00 00 00 00 00 00 00 00 00 CD 6D
16:18:13.788 设备发送:03 03 06 84 00 04 05 4A
16:18:15.324 设备发送:03 03 06 84 00 04 05 4A
16:18:16.824 设备发送:03 03 06 84 00 04 05 4A
16:18:18.340 设备发送:03 03 04 04 00 01 C5 19
16:18:19.859 设备发送:03 03 04 04 00 01 C5 19
16:18:21.403 设备发送:03 03 04 04 00 01 C5 19
16:18:22.905 设备发送:03 03 05 84 00 0F 44 C9
16:18:24.437 设备接收:03 03 1E 1F 77 01 63 01 1E 1F B1 01 6D 01 28 1D F4 01 0D 00 CE 1F 56 01 19 00 E1 18 49 00 B6 00 71 6A DE
16:18:24.452 设备发送:03 03 05 93 00 0F F4 CD
16:18:25.950 设备接收:03 03 1E 05 39 00 00 00 00 13 62 00 D0 00 67 1B DC 00 BD 00 87 1C 4B 00 BF 00 8A 05 3D 00 00 00 00 C5 52
16:18:25.997 设备发送:03 03 05 A2 00 0F A5 02
16:18:27.497 设备接收:03 03 1E 00 0D 00 00 00 00 00 00 00 00 00 00 00 00 00 00 00 00 00 00 00 00 00 00 00 00 00 00 00 00 C1 72
16:18:27.513 设备发送:03 03 05 B1 00 03 54 C2
16:18:29.043 设备发送:03 03 05 B1 00 03 54 C2
16:18:30.573 设备发送:03 03 05 B1 00 03 54 C2
16:18:32.103 设备发送:03 03 04 2B 00 01 F4 D0
16:18:33.614 设备发送:03 03 04 2B 00 01 F4 D0
16:18:35.155 设备发送:03 03 04 2B 00 01 F4 D0
16:18:36.681 设备发送:03 03 04 20 00 01 85 12
16:18:38.179 设备发送:03 03 04 20 00 01 85 12
16:18:39.693 设备发送:03 03 04 20 00 01 85 12
16:18:41.235 设备发送:03 03 04 05 00 01 94 D9
16:18:42.753 设备发送:03 03 04 05 00 01 94 D9
16:18:44.295 设备发送:03 03 04 05 00 01 94 D9
16:18:45.830 设备发送:01 03 04 84 00 04 05 10
16:18:47.359 设备发送:01 03 04 84 00 04 05 10
16:18:48.873 设备发送:01 03 04 84 00 04 05 10
16:18:50.423 设备发送:01 03 04 8D 00 21 14 C9
16:18:51.909 设备接收:01 03 42 08 D9 05 54 00 00 00 00 00 00 00 00 00 00 00 00 00 00 00 00 00 00 08 D5 05 65 00 00 00 00 00 00 00 00 00 00 00 00 00 00 00 00 00 00 08 E1 05 7D 00 00 00 00 00 00 00 00 00 00 00 00 00 00 00 00 00 00 14 EA
16:18:51.928 设备发送:01 03 06 84 00 04 04 A8
16:18:53.478 设备发送:01 03 06 84 00 04 04 A8
16:18:54.981 设备发送:01 03 06 84 00 04 04 A8
16:18:56.514 设备发送:01 03 04 04 00 01 C4 FB
16:18:58.055 设备发送:01 03 04 04 00 01 C4 FB
16:18:59.568 设备发送:01 03 04 04 00 01 C4 FB
16:19:01.105 设备发送:01 03 05 84 00 0F 45 2B
16:19:02.600 设备接收:01 03 1E 1F FA 00 EB 00 C0 20 E8 00 9E 00 85 20 FC 00 93 00 7C 21 7A 00 A3 00 8C 18 89 00 6E 00 45 D4 FF
16:19:02.647 设备发送:01 03 05 93 00 0F F5 2F
16:19:04.147 设备接收:01 03 1E 00 00 00 00 00 00 1B 92 00 F0 00 A9 1D 45 00 6B 00 50 1D 34 00 73 00 56 00 00 00 04 00 00 2C 28
16:19:04.163 设备发送:01 03 05 A2 00 0F A4 E0
16:19:05.660 设备接收:01 03 1E 00 00 00 00 00 00 00 00 00 00 00 00 00 00 00 00 00 00 00 00 00 00 00 00 00 00 00 00 00 00 D8 BA
16:19:05.709 设备发送:01 03 05 B1 00 03 55 20
16:19:07.211 设备发送:01 03 05 B1 00 03 55 20
16:19:08.745 设备发送:01 03 05 B1 00 03 55 20
16:19:10.271 设备发送:01 03 04 2B 00 01 F5 32
16:19:11.798 设备发送:01 03 04 2B 00 01 F5 32
16:19:13.317 设备发送:01 03 04 2B 00 01 F5 32
16:19:14.846 设备发送:01 03 04 20 00 01 84 F0
16:19:16.390 设备发送:01 03 04 20 00 01 84 F0
16:19:17.920 设备发送:01 03 04 20 00 01 84 F0
16:19:19.436 设备接收:01 03 02 00 23 F9 9D
16:19:19.452 设备发送:01 03 04 05 00 01 95 3B
16:19:20.987 设备发送:01 03 04 05 00 01 95 3B
16:19:22.501 设备发送:01 03 04 05 00 01 95 3B
16:19:24.029 设备发送:02 03 04 84 00 04 05 23
16:19:25.557 设备发送:02 03 04 84 00 04 05 23
16:19:27.093 设备发送:02 03 04 84 00 04 05 23
16:19:28.601 设备发送:02 03 04 8D 00 21 14 FA
16:19:30.107 设备接收:02 03 42 08 D8 04 D4 00 00 00 00 00 00 00 00 00 00 00 00 00 00 00 00 00 00 08 D6 04 D3 00 00 00 00 00 00 00 00 00 00 00 00 00 00 00 00 00 00 08 E0 05 07 00 00 00 00 00 00 00 00 00 00 00 00 00 00 00 00 00 00 E1 E7
16:19:30.138 设备发送:02 03 06 84 00 04 04 9B
16:19:31.652 设备发送:02 03 06 84 00 04 04 9B
16:19:33.197 设备发送:02 03 06 84 00 04 04 9B
16:19:34.712 设备发送:02 03 04 04 00 01 C4 C8
16:19:36.241 设备发送:02 03 04 04 00 01 C4 C8
16:19:37.771 设备发送:02 03 04 04 00 01 C4 C8
16:19:39.287 设备发送:02 03 05 84 00 0F 45 18
16:19:40.801 设备接收:02 03 1E 20 C5 00 45 00 39 20 D3 00 3F 00 35 20 EA 00 4A 00 3E 1D 42 00 E0 00 A8 21 22 00 48 00 3D AA B8
16:19:40.834 设备发送:02 03 05 93 00 0F F5 1C
16:19:42.330 设备接收:02 03 1E 20 67 00 43 00 38 22 02 00 54 00 49 21 42 00 B2 00 97 21 47 00 5E 00 50 1C F7 00 A1 00 77 D3 42
16:19:42.366 设备发送:02 03 05 A2 00 0F A4 D3
16:19:43.859 设备接收:02 03 1E 00 00 00 02 00 00 00 00 00 00 00 00 00 00 00 00 00 00 00 00 00 00 00 00 00 00 00 00 00 00 93 FF
16:19:43.875 设备发送:02 03 05 B1 00 03 55 13
16:19:45.408 设备发送:02 03 05 B1 00 03 55 13
16:19:46.937 设备发送:02 03 05 B1 00 03 55 13
16:19:48.454 设备发送:02 03 04 2B 00 01 F5 01
16:19:49.973 设备发送:02 03 04 2B 00 01 F5 01
16:19:51.485 设备发送:02 03 04 2B 00 01 F5 01
16:19:53.007 设备发送:02 03 04 20 00 01 84 C3
16:19:54.552 设备发送:02 03 04 20 00 01 84 C3
16:19:56.049 设备发送:02 03 04 20 00 01 84 C3
16:19:57.581 设备发送:02 03 04 05 00 01 95 08
16:19:59.094 设备发送:02 03 04 05 00 01 95 08
16:20:00.630 设备发送:02 03 04 05 00 01 95 08
16:20:02.172 设备发送:03 03 04 84 00 04 04 F2
16:20:03.671 设备接收:03 03 08 13 8B 04 E1 00 00 04 E1 9B 64
16:20:03.703 设备发送:03 03 04 8D 00 21 15 2B
16:20:05.205 设备接收:03 03 42 08 D8 07 41 00 00 00 00 00 00 00 00 00 00 00 00 00 00 00 00 00 00 08 DC 07 43 00 00 00 00 00 00 00 00 00 00 00 00 00 00 00 00 00 00 08 E4 07 6F 00 00 00 00 00 00 00 00 00 00 00 00 00 00 00 00 00 00 93 14
16:20:05.237 设备发送:03 03 06 84 00 04 05 4A
16:20:06.768 设备发送:03 03 06 84 00 04 05 4A
16:20:08.304 设备发送:03 03 06 84 00 04 05 4A
16:20:09.836 设备发送:03 03 04 04 00 01 C5 19
16:20:11.355 设备发送:03 03 04 04 00 01 C5 19
16:20:12.864 设备发送:03 03 04 04 00 01 C5 19
16:20:14.408 设备发送:03 03 05 84 00 0F 44 C9
16:20:15.883 设备接收:03 03 1E 1F C7 01 49 01 0C 20 03 01 53 01 16 1D A2 00 F4 00 B9 20 47 00 F9 00 CD 18 48 00 A8 00 69 A9 46
16:20:15.914 设备发送:03 03 05 93 00 0F F4 CD
16:20:17.430 设备接收:03 03 1E 05 3A 00 00 00 00 13 11 00 AE 00 55 1C 2D 00 B2 00 80 1C 9B 00 AF 00 80 05 3F 00 00 00 00 46 60
16:20:17.446 设备发送:03 03 05 A2 00 0F A5 02
16:20:18.934 设备接收:03 03 1E 00 0D 00 00 00 00 00 00 00 00 00 00 00 00 00 00 00 00 00 00 00 00 00 00 00 00 00 00 00 00 C1 72
16:20:18.981 设备发送:03 03 05 B1 00 03 54 C2
16:20:20.501 设备发送:03 03 05 B1 00 03 54 C2
16:20:22.033 设备发送:03 03 05 B1 00 03 54 C2
16:20:23.562 设备发送:03 03 04 2B 00 01 F4 D0
16:20:25.074 设备发送:03 03 04 2B 00 01 F4 D0
16:20:26.604 设备发送:03 03 04 2B 00 01 F4 D0
16:20:28.124 设备发送:03 03 04 20 00 01 85 12
16:20:29.669 设备发送:03 03 04 20 00 01 85 12
16:20:31.199 设备发送:03 03 04 20 00 01 85 12
16:20:32.718 设备发送:03 03 04 05 00 01 94 D9
16:20:34.234 设备发送:03 03 04 05 00 01 94 D9
16:20:35.753 设备发送:03 03 04 05 00 01 94 D9
16:20:37.282 设备发送:01 03 04 84 00 04 05 10
16:20:38.829 设备发送:01 03 04 84 00 04 05 10
16:20:40.329 设备发送:01 03 04 84 00 04 05 10
16:20:41.846 设备发送:01 03 04 8D 00 21 14 C9
16:20:43.357 设备接收:01 03 42 08 DB 04 D2 00 00 00 00 00 00 00 00 00 00 00 00 00 00 00 00 00 00 08 D9 04 E4 00 00 00 00 00 00 00 00 00 00 00 00 00 00 00 00 00 00 08 E2 04 FC 00 00 00 00 00 00 00 00 00 00 00 00 00 00 00 00 00 00 18 2E
16:20:43.373 设备发送:01 03 06 84 00 04 04 A8
16:20:44.923 设备发送:01 03 06 84 00 04 04 A8
16:20:46.439 设备发送:01 03 06 84 00 04 04 A8
16:20:47.989 设备发送:01 03 04 04 00 01 C4 FB
16:20:49.510 设备发送:01 03 04 04 00 01 C4 FB
16:20:51.026 设备发送:01 03 04 04 00 01 C4 FB
16:20:52.559 设备发送:01 03 05 84 00 0F 45 2B
16:20:54.064 设备接收:01 03 1E 20 4B 00 DD 00 B6 20 BD 00 97 00 7E 20 F5 00 8B 00 75 21 2A 00 9C 00 85 17 E9 00 59 00 36 09 4D
16:20:54.096 设备发送:01 03 05 93 00 0F F5 2F
16:20:55.598 设备接收:01 03 1E 00 00 00 00 00 00 1B E3 00 C9 00 8F 1D E6 00 55 00 41 1D 84 00 5D 00 46 00 00 00 03 00 00 04 07
16:20:55.646 设备发送:01 03 05 A2 00 0F A4 E0
16:20:57.144 设备接收:01 03 1E 00 00 00 00 00 00 00 00 00 00 00 00 00 00 00 00 00 00 00 00 00 00 00 00 00 00 00 00 00 00 D8 BA
16:20:57.159 设备发送:01 03 05 B1 00 03 55 20
16:20:58.677 设备发送:01 03 05 B1 00 03 55 20
16:21:00.193 设备发送:01 03 05 B1 00 03 55 20
16:21:01.707 设备发送:01 03 04 2B 00 01 F5 32
16:21:03.270 设备发送:01 03 04 2B 00 01 F5 32
16:21:04.773 设备发送:01 03 04 2B 00 01 F5 32
16:21:06.309 设备发送:01 03 04 20 00 01 84 F0
16:21:07.826 设备发送:01 03 04 20 00 01 84 F0
16:21:09.356 设备发送:01 03 04 20 00 01 84 F0
16:21:10.904 设备发送:01 03 04 05 00 01 95 3B
16:21:12.429 设备发送:01 03 04 05 00 01 95 3B
16:21:13.913 设备发送:01 03 04 05 00 01 95 3B
16:21:15.442 设备发送:02 03 04 84 00 04 05 23
16:21:16.974 设备发送:02 03 04 84 00 04 05 23
16:21:18.473 设备接收:02 03 08 13 85 02 E4 FF FF 02 E4 7F B9
16:21:18.520 设备发送:02 03 04 8D 00 21 14 FA
16:21:20.009 设备接收:02 03 42 08 D7 04 64 00 00 00 00 00 00 00 00 00 00 00 00 00 00 00 00 00 00 08 D4 04 62 00 00 00 00 00 00 00 00 00 00 00 00 00 00 00 00 00 00 08 DD 04 91 00 00 00 00 00 00 00 00 00 00 00 00 00 00 00 00 00 00 9E 5D
16:21:20.041 设备发送:02 03 06 84 00 04 04 9B
16:21:21.559 设备发送:02 03 06 84 00 04 04 9B
16:21:23.087 设备发送:02 03 06 84 00 04 04 9B
16:21:24.583 设备接收:02 03 08 00 00 95 51 00 13 73 94 AF 00
16:21:24.614 设备发送:02 03 04 04 00 01 C4 C8
16:21:26.146 设备发送:02 03 04 04 00 01 C4 C8
16:21:27.678 设备发送:02 03 04 04 00 01 C4 C8
16:21:29.192 设备发送:02 03 05 84 00 0F 45 18
16:21:30.712 设备接收:02 03 1E 21 5C 00 3D 00 34 20 84 00 3D 00 32 20 9D 00 49 00 3D 1D 47 00 D4 00 9F 21 1F 00 46 00 3B A5 08
16:21:30.728 设备发送:02 03 05 93 00 0F F5 1C
16:21:32.237 设备接收:02 03 1E 20 B5 00 42 00 37 21 B1 00 51 00 46 20 F4 00 99 00 81 21 9A 00 50 00 45 1C 56 00 8F 00 68 BC 67
16:21:32.253 设备发送:02 03 05 A2 00 0F A4 D3
16:21:33.769 设备接收:02 03 1E 00 00 00 02 00 00 00 00 00 00 00 00 00 00 00 00 00 00 00 00 00 00 00 00 00 00 00 00 00 00 93 FF
16:21:33.785 设备发送:02 03 05 B1 00 03 55 13
16:21:35.317 设备发送:02 03 05 B1 00 03 55 13
16:21:36.848 设备发送:02 03 05 B1 00 03 55 13
16:21:38.377 设备发送:02 03 04 2B 00 01 F5 01
16:21:39.894 设备发送:02 03 04 2B 00 01 F5 01
16:21:41.431 设备发送:02 03 04 2B 00 01 F5 01
16:21:42.977 设备发送:02 03 04 20 00 01 84 C3
16:21:44.489 设备发送:02 03 04 20 00 01 84 C3
16:21:45.988 设备发送:02 03 04 20 00 01 84 C3
16:21:47.530 设备发送:02 03 04 05 00 01 95 08
16:21:49.061 设备发送:02 03 04 05 00 01 95 08
16:21:50.586 设备发送:02 03 04 05 00 01 95 08
16:21:52.140 设备发送:03 03 04 84 00 04 04 F2
16:21:53.641 设备发送:03 03 04 84 00 04 04 F2
16:21:55.186 设备发送:03 03 04 84 00 04 04 F2
16:21:56.685 设备发送:03 03 04 8D 00 21 15 2B
16:21:58.204 设备接收:03 03 42 08 D5 06 C8 00 00 00 00 00 00 00 00 00 00 00 00 00 00 00 00 00 00 08 DC 06 CF 00 00 00 00 00 00 00 00 00 00 00 00 00 00 00 00 00 00 08 E1 06 FB 00 00 00 00 00 00 00 00 00 00 00 00 00 00 00 00 00 00 1F A3
16:21:58.220 设备发送:03 03 06 84 00 04 05 4A
16:21:59.768 设备发送:03 03 06 84 00 04 05 4A
16:22:01.281 设备发送:03 03 06 84 00 04 05 4A
16:22:02.798 设备发送:03 03 04 04 00 01 C5 19
16:22:04.332 设备发送:03 03 04 04 00 01 C5 19
16:22:05.830 设备发送:03 03 04 04 00 01 C5 19
16:22:07.384 设备发送:03 03 05 84 00 0F 44 C9
16:22:08.882 设备接收:03 03 1E 1F C7 01 35 00 FB 20 03 01 3D 01 04 1E 96 00 DD 00 AD 1F FA 00 ED 00 C2 18 99 00 9B 00 62 33 D7
16:22:08.898 设备发送:03 03 05 93 00 0F F4 CD
16:22:10.435 设备接收:03 03 1E 05 3B 00 00 00 00 13 62 00 9A 00 4C 1B DC 00 A7 00 77 1C 4C 00 A7 00 79 05 3D 00 00 00 00 25 5C
16:22:10.451 设备发送:03 03 05 A2 00 0F A5 02
16:22:11.939 设备接收:03 03 1E 00 0E 00 00 00 00 00 00 00 00 00 00 00 00 00 00 00 00 00 00 00 00 00 00 00 00 00 00 00 00 81 70
16:22:11.956 设备发送:03 03 05 B1 00 03 54 C2
16:22:13.487 设备发送:03 03 05 B1 00 03 54 C2
16:22:15.021 设备发送:03 03 05 B1 00 03 54 C2
16:22:16.527 设备发送:03 03 04 2B 00 01 F4 D0
16:22:18.073 设备发送:03 03 04 2B 00 01 F4 D0
16:22:19.571 设备发送:03 03 04 2B 00 01 F4 D0
16:22:21.116 设备发送:03 03 04 20 00 01 85 12
16:22:22.648 设备发送:03 03 04 20 00 01 85 12
16:22:24.167 设备发送:03 03 04 20 00 01 85 12
16:22:25.705 设备发送:03 03 04 05 00 01 94 D9
16:22:27.216 设备发送:03 03 04 05 00 01 94 D9
16:22:28.751 设备发送:03 03 04 05 00 01 94 D9
16:22:30.260 设备发送:01 03 04 84 00 04 05 10
16:22:31.788 设备发送:01 03 04 84 00 04 05 10
16:22:33.335 设备发送:01 03 04 84 00 04 05 10
16:22:34.853 设备发送:01 03 04 8D 00 21 14 C9
16:22:36.354 设备接收:01 03 42 08 DC 04 69 00 00 00 00 00 00 00 00 00 00 00 00 00 00 00 00 00 00 08 DA 04 78 00 00 00 00 00 00 00 00 00 00 00 00 00 00 00 00 00 00 08 E3 04 93 00 00 00 00 00 00 00 00 00 00 00 00 00 00 00 00 00 00 7C F1
16:22:36.399 设备发送:01 03 06 84 00 04 04 A8
16:22:37.913 设备发送:01 03 06 84 00 04 04 A8
16:22:39.444 设备发送:01 03 06 84 00 04 04 A8
16:22:40.957 设备发送:01 03 04 04 00 01 C4 FB
16:22:42.456 设备接收:01 03 02 00 02 39 85
16:22:42.504 设备发送:01 03 05 84 00 0F 45 2B
16:22:44.001 设备接收:01 03 1E 1F FA 00 D4 00 AE 21 77 00 8B 00 77 20 03 00 8B 00 71 21 7C 00 94 00 7F 18 39 00 4E 00 30 9C D6
16:22:44.022 设备发送:01 03 05 93 00 0F F5 2F
16:22:45.533 设备接收:01 03 1E 00 00 00 00 00 00 1B E2 00 AA 00 79 1C F6 00 4C 00 39 1D 35 00 51 00 3D 00 00 00 04 00 00 30 20
16:22:45.548 设备发送:01 03 05 A2 00 0F A4 E0
16:22:47.050 设备接收:01 03 1E 00 00 00 00 00 00 00 00 00 00 00 00 00 00 00 00 00 00 00 00 00 00 00 00 00 00 00 00 00 00 D8 BA
16:22:47.113 设备发送:01 03 05 B1 00 03 55 20
16:22:48.632 设备发送:01 03 05 B1 00 03 55 20
16:22:50.148 设备发送:01 03 05 B1 00 03 55 20
16:22:51.660 设备发送:01 03 04 2B 00 01 F5 32
16:22:53.194 设备发送:01 03 04 2B 00 01 F5 32
16:22:54.693 设备发送:01 03 04 2B 00 01 F5 32
16:22:56.226 设备发送:01 03 04 20 00 01 84 F0
16:22:57.754 设备发送:01 03 04 20 00 01 84 F0
16:22:59.284 设备发送:01 03 04 20 00 01 84 F0
16:23:00.812 设备发送:01 03 04 05 00 01 95 3B
16:23:02.350 设备发送:01 03 04 05 00 01 95 3B
16:23:03.870 设备发送:01 03 04 05 00 01 95 3B
16:23:05.401 设备发送:02 03 04 84 00 04 05 23
16:23:06.918 设备发送:02 03 04 84 00 04 05 23
16:23:08.438 设备发送:02 03 04 84 00 04 05 23
16:23:09.984 设备发送:02 03 04 8D 00 21 14 FA
16:23:11.486 设备接收:02 03 42 08 D4 04 2F 00 00 00 00 00 00 00 00 00 00 00 00 00 00 00 00 00 00 08 D5 04 30 00 00 00 00 00 00 00 00 00 00 00 00 00 00 00 00 00 00 08 DE 04 62 00 00 00 00 00 00 00 00 00 00 00 00 00 00 00 00 00 00 4F F7
16:23:11.511 设备发送:02 03 06 84 00 04 04 9B
16:23:13.034 设备发送:02 03 06 84 00 04 04 9B
16:23:14.554 设备发送:02 03 06 84 00 04 04 9B
16:23:16.100 设备发送:02 03 04 04 00 01 C4 C8
16:23:17.612 设备发送:02 03 04 04 00 01 C4 C8
16:23:19.130 设备发送:02 03 04 04 00 01 C4 C8
16:23:20.675 设备发送:02 03 05 84 00 0F 45 18
16:23:22.176 设备接收:02 03 1E 21 57 00 42 00 38 20 D4 00 3B 00 31 20 F1 00 44 00 39 1C AD 00 CD 00 97 20 D1 00 44 00 39 FD F6
16:23:22.192 设备发送:02 03 05 93 00 0F F5 1C
16:23:23.694 设备接收:02 03 1E 20 B9 00 3C 00 32 21 B1 00 4C 00 42 20 F2 00 8F 00 78 20 FA 00 4D 00 41 1C 57 00 87 00 62 44 D8
16:23:23.726 设备发送:02 03 05 A2 00 0F A4 D3
16:23:25.212 设备接收:02 03 1E 00 00 00 02 00 00 00 00 00 00 00 00 00 00 00 00 00 00 00 00 00 00 00 00 00 00 00 00 00 00 93 FF
16:23:25.243 设备发送:02 03 05 B1 00 03 55 13
16:23:26.775 设备发送:02 03 05 B1 00 03 55 13
16:23:28.294 设备发送:02 03 05 B1 00 03 55 13
16:23:29.824 设备发送:02 03 04 2B 00 01 F5 01
16:23:31.355 设备发送:02 03 04 2B 00 01 F5 01
16:23:32.884 设备发送:02 03 04 2B 00 01 F5 01
16:23:34.411 设备发送:02 03 04 20 00 01 84 C3
16:23:35.943 设备发送:02 03 04 20 00 01 84 C3
16:23:37.482 设备发送:02 03 04 20 00 01 84 C3
16:23:39.000 设备发送:02 03 04 05 00 01 95 08
16:23:40.511 设备发送:02 03 04 05 00 01 95 08
16:23:42.039 设备发送:02 03 04 05 00 01 95 08
16:23:43.584 设备发送:03 03 04 84 00 04 04 F2
16:23:45.086 设备发送:03 03 04 84 00 04 04 F2
16:23:46.614 设备发送:03 03 04 84 00 04 04 F2
16:23:48.149 设备发送:03 03 04 8D 00 21 15 2B
16:23:49.631 设备接收:03 03 42 08 D0 06 62 00 00 00 00 00 00 00 00 00 00 00 00 00 00 00 00 00 00 08 D8 06 6B 00 00 00 00 00 00 00 00 00 00 00 00 00 00 00 00 00 00 08 E0 06 95 00 00 00 00 00 00 00 00 00 00 00 00 00 00 00 00 00 00 B1 79
16:23:49.678 设备发送:03 03 06 84 00 04 05 4A
16:23:51.174 设备发送:03 03 06 84 00 04 05 4A
16:23:52.735 设备发送:03 03 06 84 00 04 05 4A
16:23:54.218 设备接收:03 03 08 00 00 A4 53 00 13 FD 43 F3 E3
16:23:54.248 设备发送:03 03 04 04 00 01 C5 19
16:23:55.778 设备发送:03 03 04 04 00 01 C5 19
16:23:57.294 设备发送:03 03 04 04 00 01 C5 19
16:23:58.823 设备发送:03 03 05 84 00 0F 44 C9
16:24:00.309 设备接收:03 03 1E 1F C5 01 1F 00 EA 20 01 01 30 00 F9 1D A1 00 D3 00 A0 1F 50 00 E7 00 B9 18 48 00 9A 00 5F 58 F5
16:24:00.357 设备发送:03 03 05 93 00 0F F4 CD
16:24:01.861 设备接收:03 03 1E 05 3B 00 00 00 00 13 11 00 96 00 49 1C 2C 00 9E 00 72 1C 9B 00 9E 00 73 05 41 00 00 00 00 65 E2
16:24:01.883 设备发送:03 03 05 A2 00 0F A5 02
16:24:03.394 设备接收:03 03 1E 00 0F 00 00 00 00 00 00 00 00 00 00 00 00 00 00 00 00 00 00 00 00 00 00 00 00 00 00 00 00 41 71
16:24:03.410 设备发送:03 03 05 B1 00 03 54 C2
16:24:04.930 设备发送:03 03 05 B1 00 03 54 C2
16:24:06.446 设备发送:03 03 05 B1 00 03 54 C2
16:24:07.982 设备发送:03 03 04 2B 00 01 F4 D0
16:24:09.518 设备发送:03 03 04 2B 00 01 F4 D0
16:24:11.038 设备发送:03 03 04 2B 00 01 F4 D0
16:24:12.571 设备发送:03 03 04 20 00 01 85 12
16:24:14.092 设备发送:03 03 04 20 00 01 85 12
16:24:15.590 设备发送:03 03 04 20 00 01 85 12
16:24:17.134 设备发送:03 03 04 05 00 01 94 D9
16:24:18.665 设备发送:03 03 04 05 00 01 94 D9
16:24:20.172 设备发送:03 03 04 05 00 01 94 D9
16:24:21.708 设备发送:01 03 04 84 00 04 05 10
16:24:23.239 设备发送:01 03 04 84 00 04 05 10
16:24:24.753 设备发送:01 03 04 84 00 04 05 10
16:24:26.296 设备发送:01 03 04 8D 00 21 14 C9
16:24:27.801 设备接收:01 03 42 08 D8 04 30 00 00 00 00 00 00 00 00 00 00 00 00 00 00 00 00 00 00 08 D9 04 3E 00 00 00 00 00 00 00 00 00 00 00 00 00 00 00 00 00 00 08 E2 04 5B 00 00 00 00 00 00 00 00 00 00 00 00 00 00 00 00 00 00 92 CB
16:24:27.832 设备发送:01 03 06 84 00 04 04 A8
16:24:29.366 设备发送:01 03 06 84 00 04 04 A8
16:24:30.897 设备发送:01 03 06 84 00 04 04 A8
16:24:32.428 设备发送:01 03 04 04 00 01 C4 FB
16:24:33.927 设备发送:01 03 04 04 00 01 C4 FB
16:24:35.474 设备发送:01 03 04 04 00 01 C4 FB
16:24:36.991 设备发送:01 03 05 84 00 0F 45 2B
16:24:38.491 设备接收:01 03 1E 20 4B 00 C9 00 A6 20 BE 00 8C 00 75 20 5C 00 84 00 6D 21 29 00 90 00 7A 18 89 00 49 00 2D 53 08
16:24:38.523 设备发送:01 03 05 93 00 0F F5 2F
16:24:40.025 设备接收:01 03 1E 00 00 00 00 00 00 1B 41 00 9E 00 6E 1D 96 00 47 00 36 1D 85 00 4C 00 39 00 00 00 02 00 00 D7 C3
16:24:40.056 设备发送:01 03 05 A2 00 0F A4 E0
16:24:41.576 设备接收:01 03 1E 00 00 00 00 00 00 00 00 00 00 00 00 00 00 00 00 00 00 00 00 00 00 00 00 00 00 00 00 00 00 D8 BA
16:24:41.595 设备发送:01 03 05 B1 00 03 55 20
16:24:43.093 设备发送:01 03 05 B1 00 03 55 20
16:24:44.622 设备发送:01 03 05 B1 00 03 55 20
16:24:46.158 设备发送:01 03 04 2B 00 01 F5 32
16:24:47.674 设备发送:01 03 04 2B 00 01 F5 32
