
14:46:07.982 设备发送:01 03 04 84 00 04 05 10
14:46:12.976 设备接收:01 03 08 13 87 16 48 FF 7B 16 4A 0E A4
14:46:12.992 设备发送:01 03 04 8D 00 05 14 D2
14:46:18.009 设备接收:01 03 0A 08 FC 1F FF 00 00 00 00 00 00 BA 1B
14:46:18.025 设备发送:01 03 04 98 00 05 05 16
14:46:23.008 设备接收:01 03 0A 09 13 20 11 00 00 00 00 00 00 2E B0
14:46:23.024 设备发送:01 03 04 A3 00 05 74 DB
14:46:28.054 设备接收:01 03 0A 09 0B 20 42 00 00 00 00 00 00 E7 B5
14:46:28.070 设备发送:01 03 06 84 00 04 04 A8
14:46:33.060 设备接收:01 03 08 00 00 9C 2F 00 13 5B 17 D7 76
14:46:33.075 设备发送:01 03 04 04 00 01 C4 FB
14:46:38.079 设备接收:01 03 02 00 02 39 85
14:46:38.110 设备发送:01 03 05 84 00 0F 45 2B
14:46:43.104 设备接收:01 03 1E 1F 9D 04 B3 03 CE 21 0E 04 45 03 9D 21 12 04 2F 03 8B 1F C9 04 BB 03 D9 17 4C 02 71 01 75 79 11
14:46:43.135 设备发送:01 03 05 93 00 0F F5 2F
14:46:48.124 设备接收:01 03 1E 00 00 00 00 00 00 1A 25 05 0D 03 61 1C 54 02 74 01 C7 1C 73 02 73 01 C9 00 00 00 05 00 00 EA E8
14:46:48.140 设备发送:01 03 05 A2 00 0F A4 E0
14:46:53.148 设备接收:01 03 1E 00 00 00 00 00 00 00 00 00 00 00 00 00 00 00 00 00 00 00 00 00 00 00 00 00 00 00 00 00 00 D8 BA
14:46:53.163 设备发送:01 03 05 B1 00 03 55 20
14:46:58.158 设备接收:01 03 06 00 00 00 00 00 00 21 75
14:46:58.174 设备发送:01 03 04 2B 00 01 F5 32
14:47:03.183 设备接收:01 03 02 02 46 38 D6
14:47:03.198 设备发送:01 03 04 20 00 01 84 F0
14:47:08.184 设备接收:01 03 02 00 35 78 53
14:47:08.232 设备发送:01 03 04 05 00 01 95 3B
14:47:13.223 设备接收:01 03 02 00 00 B8 44
14:47:13.239 设备发送:02 03 04 84 00 04 05 23
14:47:18.221 设备接收:02 03 08 13 8B 15 58 FF D4 15 58 BC CC
14:47:18.253 设备发送:02 03 04 8D 00 05 14 E1
14:47:23.277 设备接收:02 03 0A 08 F8 1E C3 00 00 00 00 00 00 B0 D7
14:47:23.293 设备发送:02 03 04 98 00 05 05 25
14:47:28.268 设备接收:02 03 0A 09 12 1E E3 00 00 00 00 00 00 77 B4
14:47:28.299 设备发送:02 03 04 A3 00 05 74 E8
14:47:33.284 设备接收:02 03 0A 09 07 1E DE 00 00 00 00 00 00 69 E7
14:47:33.316 设备发送:02 03 06 84 00 04 04 9B
14:47:38.315 设备接收:02 03 08 00 00 98 8F 00 13 A1 E3 1A 88
14:47:38.331 设备发送:02 03 04 04 00 01 C4 C8
14:47:43.330 设备接收:02 03 02 00 02 7D 85
14:47:43.362 设备发送:02 03 05 84 00 0F 45 18
14:47:48.378 设备接收:02 03 1E 1F CB 02 3E 01 D3 1F 9E 02 3B 01 CE 1F 79 02 47 01 D5 1F F3 04 7E 03 AC 1F CD 02 39 01 CF AB 9D
14:47:48.393 设备发送:02 03 05 93 00 0F F5 1C
14:47:53.388 设备接收:02 03 1E 1F 4B 02 3A 01 C9 1F 90 02 4C 01 DB 1F 7B 04 A4 03 BD 1F A0 02 50 01 DF 1E FD 02 77 01 F4 4D 6D
14:47:53.404 设备发送:02 03 05 A2 00 0F A4 D3
14:47:58.412 设备接收:02 03 1E 00 00 00 04 00 00 00 00 00 00 00 00 00 00 00 00 00 00 00 00 00 00 00 00 00 00 00 00 00 00 92 31
14:47:58.428 设备发送:02 03 05 B1 00 03 55 13
14:48:03.427 设备接收:02 03 06 00 00 00 00 00 00 35 85
14:48:03.436 设备发送:02 03 04 2B 00 01 F5 01
14:48:08.454 设备接收:02 03 02 02 33 BD 31
14:48:08.470 设备发送:02 03 04 20 00 01 84 C3
14:48:13.462 设备接收:02 03 02 00 3F BC 54
14:48:13.478 设备发送:02 03 04 05 00 01 95 08
14:48:18.487 设备接收:02 03 02 00 00 FC 44
14:48:18.503 设备发送:03 03 04 84 00 04 04 F2
14:48:23.491 设备接收:03 03 08 13 8A 16 BD FF CF 16 BD 54 69
14:48:23.507 设备发送:03 03 04 8D 00 05 15 30
14:48:28.522 设备接收:03 03 0A 08 F7 21 07 00 00 00 00 00 00 35 3E
14:48:28.538 设备发送:03 03 04 98 00 05 04 F4
14:48:33.557 设备接收:03 03 0A 09 15 20 D8 00 00 00 00 00 00 5B 5E
14:48:33.573 设备发送:03 03 04 A3 00 05 75 39
14:48:38.571 设备接收:03 03 0A 09 0D 21 04 00 00 00 00 00 00 2D 5F
14:48:38.587 设备发送:03 03 06 84 00 04 05 4A
14:48:43.594 设备接收:03 03 08 00 00 A1 95 00 14 2F CE 56 A3
14:48:43.610 设备发送:03 03 04 04 00 01 C5 19
14:48:48.605 设备接收:03 03 02 00 02 40 45
14:48:48.636 设备发送:03 03 05 84 00 0F 44 C9
14:48:53.606 设备接收:03 03 1E 1F 4A 04 FE 03 FF 1F 33 05 08 04 05 20 D7 04 67 03 B3 20 D7 04 68 03 B4 17 52 04 F3 02 F4 C8 34
14:48:53.637 设备发送:03 03 05 93 00 0F F4 CD
14:48:58.645 设备接收:03 03 1E 05 42 00 00 00 00 13 B5 03 79 01 C0 1B DE 02 81 01 C9 1B D5 02 86 01 CC 05 45 00 00 00 00 1B F8
14:48:58.660 设备发送:03 03 05 A2 00 0F A5 02
14:49:03.651 设备接收:03 03 1E 00 0D 00 00 00 00 00 00 00 00 00 00 00 00 00 00 00 00 00 00 00 00 00 00 00 00 00 00 00 00 C1 72
14:49:03.666 设备发送:03 03 05 B1 00 03 54 C2
14:49:08.664 设备接收:03 03 06 00 00 00 00 00 00 38 15
14:49:08.679 设备发送:03 03 04 2B 00 01 F4 D0
14:49:13.694 设备接收:03 03 02 02 44 C0 D7
14:49:13.710 设备发送:03 03 04 20 00 01 85 12
14:49:18.719 设备接收:03 03 02 00 34 C0 53
14:49:18.750 设备发送:03 03 04 05 00 01 94 D9
14:49:23.750 设备接收:03 03 02 00 00 C1 84
14:49:23.765 设备发送:04 03 04 84 00 04 05 45
14:49:28.750 设备接收:04 03 08 13 89 13 2C FF 8D 13 2D 23 BD
14:49:28.765 设备发送:04 03 04 8D 00 05 14 87
14:49:33.762 设备接收:04 03 0A 09 00 1B C9 00 00 00 00 00 00 E1 2F
14:49:33.778 设备发送:04 03 04 98 00 05 05 43
14:49:38.784 设备接收:04 03 0A 08 F4 1B BB 00 00 00 00 00 00 D4 29
14:49:38.800 设备发送:04 03 04 A3 00 05 74 8E
14:49:43.814 设备接收:04 03 0A 09 0E 1B BA 00 00 00 00 00 00 EF 88
14:49:43.830 设备发送:04 03 06 84 00 04 04 FD
14:49:48.819 设备接收:04 03 08 00 00 8E 56 00 11 69 6C AC 81
14:49:48.834 设备发送:04 03 04 04 00 01 C4 AE
14:49:53.843 设备接收:04 03 02 00 02 F5 85
14:49:53.874 设备发送:04 03 05 84 00 0F 45 7E
14:49:58.871 设备接收:04 03 1E 1A A5 02 46 01 8D 1C 08 04 8E 03 44 1A A6 02 52 01 95 1C 0D 04 C1 03 6A 1C 49 04 A1 03 5A 29 EC
14:49:58.887 设备发送:04 03 05 93 00 0F F5 7A
14:50:03.902 设备接收:04 03 1E 1C 30 04 CB 03 75 1C 54 04 63 03 2E 04 95 00 02 00 00 04 B2 00 00 00 00 04 A6 00 00 00 00 74 00
14:50:03.917 设备发送:04 03 05 A2 00 0F A4 B5
14:50:08.923 设备接收:04 03 1E 00 00 00 00 00 00 00 00 00 04 00 00 00 00 00 00 00 00 00 00 00 00 00 00 00 00 00 00 00 00 41 3F
14:50:08.939 设备发送:04 03 05 B1 00 03 55 75
14:50:13.975 设备接收:04 03 06 00 00 00 00 00 00 1E 25
14:50:13.990 设备发送:04 03 04 2B 00 01 F5 67
14:50:18.969 设备接收:04 03 02 02 38 74 F6
14:50:19.002 设备发送:04 03 04 20 00 01 84 A5
14:50:23.981 设备接收:04 03 02 00 36 F4 52
14:50:23.996 设备发送:04 03 04 05 00 01 95 6E
14:50:29.005 设备接收:04 03 02 00 00 74 44
14:50:29.020 设备发送:05 03 04 84 00 04 04 94
14:50:34.025 设备接收:05 03 08 13 8B 0F F5 FF DD 0F F5 13 85
14:50:34.056 设备发送:05 03 04 8D 00 05 15 56
14:50:39.053 设备接收:05 03 0A 08 F8 17 18 00 00 00 00 00 00 10 F7
14:50:39.068 设备发送:05 03 04 98 00 05 04 92
14:50:44.049 设备接收:05 03 0A 09 02 16 FC 00 00 00 00 00 00 5E 54
14:50:44.080 设备发送:05 03 04 A3 00 05 75 5F
14:50:49.100 设备接收:05 03 0A 09 03 16 FE 00 00 00 00 00 00 70 04
14:50:49.116 设备发送:05 03 06 84 00 04 05 2C
14:50:54.112 设备接收:05 03 08 00 00 77 37 00 0E B0 FD AA 26
14:50:54.128 设备发送:05 03 04 04 00 01 C5 7F
14:50:59.125 设备接收:05 03 02 00 02 C8 45
14:50:59.141 设备发送:05 03 05 84 00 0F 44 AF
14:51:04.129 设备接收:05 03 1E 04 A0 00 00 00 00 17 2D 04 AD 02 C6 15 EE 04 78 02 82 17 68 04 6D 02 A7 1D D3 02 25 01 A3 B2 0A
14:51:04.161 设备发送:05 03 05 93 00 0F F4 AB
14:51:09.150 设备接收:05 03 1E 1E 01 02 37 01 B4 04 8D 00 01 00 00 18 D8 04 90 02 E7 04 9A 00 01 00 00 15 CA 04 57 02 6C 99 28
14:51:09.180 设备发送:05 03 05 A2 00 0F A5 64
14:51:14.191 设备接收:05 03 1E 00 07 00 00 00 00 00 01 00 03 00 00 00 00 00 00 00 00 00 00 00 00 00 00 00 00 00 00 00 00 D7 D1
14:51:14.206 设备发送:05 03 05 B1 00 03 54 A4
14:51:19.191 设备接收:05 03 06 00 00 00 00 00 00 13 B5
14:51:19.221 设备发送:05 03 04 2B 00 01 F4 B6
14:51:24.242 设备接收:05 03 02 02 5A C8 DF
14:51:24.258 设备发送:05 03 04 20 00 01 85 74
14:51:29.253 设备接收:05 03 02 00 34 48 53
14:51:29.270 设备发送:05 03 04 05 00 01 94 BF
14:51:34.268 设备接收:05 03 02 00 00 49 84
14:51:34.283 设备发送:06 03 04 84 00 04 04 A7
14:51:39.295 设备接收:06 03 08 13 87 0F 77 FF DE 0F 77 D8 BE
14:51:39.309 设备发送:06 03 04 8D 00 05 15 65
14:51:44.325 设备接收:06 03 0A 08 FA 16 68 00 00 00 00 00 00 BC 5F
14:51:44.356 设备发送:06 03 04 98 00 05 04 A1
14:51:49.332 设备接收:06 03 0A 09 04 16 79 00 00 00 00 00 00 A4 FF
14:51:49.348 设备发送:06 03 04 A3 00 05 75 6C
14:51:54.364 设备接收:06 03 0A 09 08 16 92 00 00 00 00 00 00 AA F1
14:51:54.380 设备发送:06 03 06 84 00 04 05 1F
14:51:59.357 设备接收:06 03 08 00 00 74 94 00 0E 9E B6 3C DF
14:51:59.402 设备发送:06 03 04 04 00 01 C5 4C
14:52:04.396 设备接收:06 03 02 00 02 8C 45
14:52:04.411 设备发送:06 03 05 84 00 0F 44 9C
14:52:09.426 设备接收:06 03 1E 04 91 00 07 00 00 1C 96 04 3A 03 18 1C 66 04 4F 03 22 1A DB 02 2D 01 7F 1E 2A 04 6D 03 6B C1 5E
14:52:09.458 设备发送:06 03 05 93 00 0F F4 98
14:52:14.435 设备接收:06 03 1E 04 92 00 01 00 00 04 7F 00 00 00 00 17 4A 04 7C 02 AC 04 81 00 05 00 00 15 6E 04 83 02 7A 02 38
14:52:14.451 设备发送:06 03 05 A2 00 0F A5 57
14:52:19.482 设备接收:06 03 1E 00 07 00 00 00 00 00 00 00 00 00 00 00 00 00 00 00 00 00 00 00 00 00 00 00 00 00 00 00 00 9D 7E
14:52:19.498 设备发送:06 03 05 B1 00 03 54 97
14:52:24.498 设备接收:06 03 06 00 00 00 00 00 00 07 45
14:52:24.514 设备发送:06 03 04 2B 00 01 F4 85
14:52:29.498 设备接收:06 03 02 02 42 8C D5
14:52:29.514 设备发送:06 03 04 20 00 01 85 47
14:52:34.523 设备接收:06 03 02 00 34 0C 53
14:52:34.539 设备发送:06 03 04 05 00 01 94 8C
14:52:39.562 设备接收:06 03 02 00 00 0D 84
14:52:39.577 设备发送:07 03 04 84 00 04 05 76
14:52:44.556 设备接收:07 03 08 13 87 08 4D FF D3 08 53 96 18
14:52:44.572 设备发送:07 03 04 8D 00 05 14 B4
14:52:49.596 设备接收:07 03 0A 08 F9 0C 12 00 00 00 00 00 00 F0 9A
14:52:49.612 设备发送:07 03 04 98 00 05 05 70
14:52:54.598 设备接收:07 03 0A 08 FA 0C 1B 00 00 00 00 00 00 7D 6A
14:52:54.613 设备发送:07 03 04 A3 00 05 74 BD
14:52:59.629 设备接收:07 03 0A 08 FC 0C 13 00 00 00 00 00 00 DF 0A
14:52:59.644 设备发送:07 03 06 84 00 04 04 CE
14:53:04.666 设备接收:07 03 08 00 00 3E 9C 00 07 45 56 5C F2
14:53:04.681 设备发送:07 03 04 04 00 01 C4 9D
14:53:09.665 设备接收:07 03 02 00 02 B1 85
14:53:09.680 设备发送:07 03 05 84 00 0F 45 4D
14:53:14.691 设备接收:07 03 1E 18 F5 04 60 02 CC 1A 53 02 4B 01 8B 1A 8E 02 25 01 75 18 EF 04 5C 02 C9 00 00 00 00 00 00 C5 2B
14:53:14.722 设备发送:07 03 05 93 00 0F F5 49
14:53:19.688 设备接收:07 03 1E 00 00 00 00 00 00 00 00 00 00 00 00 00 00 00 00 00 00 00 00 00 00 00 00 00 00 00 00 00 00 B0 BB
14:53:19.720 设备发送:07 03 05 A2 00 0F A4 86
14:53:24.733 设备接收:07 03 1E 00 00 00 00 00 00 00 00 00 00 00 00 00 00 00 00 00 00 00 00 00 00 00 00 00 00 00 00 00 00 B0 BB
14:53:24.748 设备发送:07 03 05 B1 00 03 55 46
14:53:29.748 设备接收:07 03 06 00 00 00 00 00 00 0A D5
14:53:29.758 设备发送:07 03 04 2B 00 01 F5 54
14:53:34.752 设备接收:07 03 02 01 81 F1 B4
14:53:34.762 设备发送:07 03 04 20 00 01 84 96
14:53:39.784 设备接收:07 03 02 00 1D F0 4D
14:53:39.794 设备发送:07 03 04 05 00 01 95 5D
14:53:44.809 设备接收:07 03 02 00 00 30 44
14:53:44.828 设备发送:08 03 04 84 00 04 05 89
14:53:49.821 设备接收:08 03 08 13 8B 10 93 FF DA 10 93 1B 95
14:53:49.830 设备发送:08 03 04 8D 00 05 14 4B
14:53:54.834 设备接收:08 03 0A 08 EE 18 3A 00 00 00 00 00 00 A7 98
14:53:54.857 设备发送:08 03 04 98 00 05 05 8F
14:53:59.863 设备接收:08 03 0A 08 E3 18 32 00 00 00 00 00 00 76 C8
14:53:59.884 设备发送:08 03 04 A3 00 05 74 42
14:54:04.873 设备接收:08 03 0A 08 F2 18 4B 00 00 00 00 00 00 5E 5F
14:54:04.885 设备发送:08 03 06 84 00 04 04 31
14:54:09.909 设备接收:08 03 08 00 00 85 0D 00 0F D3 87 A4 4E
14:54:09.918 设备发送:08 03 04 04 00 01 C4 62
14:54:14.932 设备接收:08 03 02 00 02 E5 84
14:54:14.942 设备发送:08 03 05 84 00 0F 45 B2
14:54:19.946 设备接收:08 03 1E 17 EB 02 20 01 4D 1B 00 01 7E 01 08 1A D8 01 9E 01 1C 1A 15 02 97 01 BB 19 00 03 75 02 36 C4 9B
14:54:19.957 设备发送:08 03 05 93 00 0F F5 B6
14:54:24.942 设备接收:08 03 1E 1E 29 03 FD 03 14 1E 2B 02 08 01 91 1A BF 01 DF 01 48 19 6B 01 F6 01 47 1A 93 03 EF 02 AD 5D 25
14:54:24.964 设备发送:08 03 05 A2 00 0F A4 79
14:54:29.983 设备接收:08 03 1E 00 00 00 08 00 00 00 00 00 05 00 00 00 00 00 00 00 00 00 00 00 00 00 00 00 00 00 00 00 00 7E BB
14:54:30.005 设备发送:08 03 05 B1 00 03 55 B9
14:54:35.010 设备接收:08 03 06 00 00 00 00 00 00 4B 25
14:54:35.022 设备发送:08 03 04 2B 00 01 F5 AB
14:54:40.018 设备接收:08 03 02 01 75 A4 32
14:54:40.027 设备发送:08 03 04 20 00 01 84 69
14:54:45.042 设备接收:08 03 02 00 23 25 9C
14:54:45.052 设备发送:08 03 04 05 00 01 95 A2
14:54:50.077 设备接收:08 03 02 00 00 64 45
14:54:50.089 设备发送:09 03 04 84 00 04 04 58
14:54:55.082 设备接收:09 03 08 13 8B 0F 2C FF DB 0F 2C 10 9D
14:54:55.104 设备发送:09 03 04 8D 00 05 15 9A
14:55:00.108 设备接收:09 03 0A 08 F4 16 15 00 00 00 00 00 00 49 37
14:55:00.129 设备发送:09 03 04 98 00 05 04 5E
14:55:05.113 设备接收:09 03 0A 08 EA 16 18 00 00 00 00 00 00 14 57
14:55:05.163 设备发送:09 03 04 A3 00 05 75 93
14:55:10.143 设备接收:09 03 0A 08 FB 16 2D 00 00 00 00 00 00 B1 04
14:55:10.190 设备发送:09 03 06 84 00 04 05 E0
14:55:15.191 设备接收:09 03 08 00 00 77 0C 00 0E 65 47 AF 90
14:55:15.199 设备发送:09 03 04 04 00 01 C5 B3
14:55:20.193 设备接收:09 03 02 00 02 D8 44
14:55:20.205 设备发送:09 03 05 84 00 0F 44 63
14:55:25.202 设备接收:09 03 1E 1D A0 01 6C 01 14 1D DD 01 76 01 1E 1E 58 01 92 01 39 1E 99 01 BD 01 5D 1E 0D 01 89 01 2E A2 3B
14:55:25.222 设备发送:09 03 05 93 00 0F F4 67
14:55:30.228 设备接收:09 03 1E 1D E5 03 A2 02 C8 1E 2E 01 BD 01 58 1D D9 03 F4 03 05 1D B4 01 CC 01 5D 1D F5 01 CD 01 61 27 8E
14:55:30.246 设备发送:09 03 05 A2 00 0F A5 A8
14:55:35.264 设备接收:09 03 1E 00 05 00 00 00 00 00 03 00 03 00 00 00 00 00 00 00 00 00 00 00 00 00 00 00 00 00 00 00 00 1E A9
14:55:35.284 设备发送:09 03 05 B1 00 03 54 68
14:55:40.289 设备接收:09 03 06 00 00 00 00 00 00 46 B5
14:55:40.308 设备发送:09 03 04 2B 00 01 F4 7A
14:55:45.316 设备接收:09 03 02 01 9A D8 7E
14:55:45.325 设备发送:09 03 04 20 00 01 85 B8
14:55:50.330 设备接收:09 03 02 00 2A D8 5A
14:55:50.365 设备发送:09 03 04 05 00 01 94 73
14:55:55.341 设备接收:09 03 02 00 00 59 85
14:55:55.359 设备发送:0A 03 04 84 00 04 04 6B
14:56:00.387 设备接收:0A 03 08 13 85 02 EF FF DF 02 F5 31 DE
14:56:00.397 设备发送:0A 03 04 8D 00 05 15 A9
14:56:05.406 设备接收:0A 03 0A 08 F6 04 44 00 00 00 00 00 00 95 84
14:56:05.415 设备发送:0A 03 04 98 00 05 04 6D
14:56:10.400 设备接收:0A 03 0A 08 F1 04 46 00 00 00 00 00 00 90 74
14:56:10.422 设备发送:0A 03 04 A3 00 05 75 A0
14:56:15.426 设备接收:0A 03 0A 08 F9 04 42 00 00 00 00 00 00 B2 74
14:56:15.448 设备发送:0A 03 06 84 00 04 05 D3
14:56:20.454 设备接收:0A 03 08 00 00 1C 42 00 03 3F C2 AA C1
14:56:20.476 设备发送:0A 03 04 04 00 01 C5 80
14:56:25.466 设备接收:0A 03 02 00 02 9C 44
14:56:25.487 设备发送:0A 03 05 84 00 0F 44 50
14:56:30.510 设备接收:0A 03 1E 1A 77 01 2D 00 CC 1A 3C 01 60 00 EC 19 38 01 F9 01 46 0C 8B 00 00 00 00 00 00 00 00 00 00 03 D4
14:56:30.519 设备发送:0A 03 05 93 00 0F F4 54
14:56:35.516 设备接收:0A 03 1E 00 00 00 00 00 00 00 00 00 00 00 00 00 00 00 00 00 00 00 00 00 00 00 00 00 00 00 00 00 00 0D 79
14:56:35.566 设备发送:0A 03 05 A2 00 0F A5 9B
14:56:40.553 设备接收:0A 03 1E 00 00 00 00 00 00 00 00 00 00 00 00 00 00 00 00 00 00 00 00 00 00 00 00 00 00 00 00 00 00 0D 79
14:56:40.573 设备发送:0A 03 05 B1 00 03 54 5B
14:56:45.582 设备接收:0A 03 06 00 00 00 00 00 00 52 45
14:56:45.591 设备发送:0A 03 04 2B 00 01 F4 49
14:56:50.602 设备接收:0A 03 02 01 AD DD A8
14:56:50.622 设备发送:0A 03 04 20 00 01 85 8B
14:56:55.613 设备接收:0A 03 02 00 1E 9D 8D
14:56:55.634 设备发送:0A 03 04 05 00 01 94 40
14:57:00.636 设备发送:01 03 04 84 00 04 05 10
14:57:00.646 设备接收:0A 03 02 00 00 1D 85
14:57:05.674 设备接收:01 03 08 13 8A 14 96 FF D4 14 96 4B 4D
14:57:05.694 设备发送:01 03 04 8D 00 05 14 D2
14:57:10.687 设备接收:01 03 0A 08 F6 1D 88 00 00 00 00 00 00 42 65
14:57:10.708 设备发送:01 03 04 98 00 05 05 16
14:57:15.706 设备接收:01 03 0A 09 0F 1D 90 00 00 00 00 00 00 E5 F5
14:57:15.726 设备发送:01 03 04 A3 00 05 74 DB
14:57:20.727 设备接收:01 03 0A 09 09 1D 9A 00 00 00 00 00 00 64 55
14:57:20.749 设备发送:01 03 06 84 00 04 04 A8
14:57:25.731 设备接收:01 03 08 00 00 A0 0B 00 13 5B 7A 63 A0
14:57:25.746 设备发送:01 03 04 04 00 01 C4 FB
14:57:30.769 设备接收:01 03 02 00 02 39 85
14:57:30.779 设备发送:01 03 05 84 00 0F 45 2B
14:57:35.772 设备接收:01 03 1E 1F 9F 04 52 03 7F 21 0A 03 ED 03 52 21 0F 03 D7 03 40 1F F3 04 55 03 8B 17 74 02 39 01 56 D0 CF
14:57:35.782 设备发送:01 03 05 93 00 0F F5 2F
14:57:40.800 设备发送:01 03 05 A2 00 0F A4 E0
14:57:40.821 设备接收:01 03 1E 00 00 00 00 00 00 1A 74 04 9F 03 21 1C A3 02 38 01 A0 1C 4D 02 44 01 A4 00 00 00 05 00 00 80 3C
14:57:45.835 设备接收:01 03 1E 00 00 00 00 00 00 00 00 00 00 00 00 00 00 00 00 00 00 00 00 00 00 00 00 00 00 00 00 00 00 D8 BA
14:57:45.855 设备发送:01 03 05 B1 00 03 55 20
14:57:50.838 设备接收:01 03 06 00 00 00 00 00 00 21 75
14:57:50.858 设备发送:01 03 04 2B 00 01 F5 32
14:57:55.872 设备接收:01 03 02 02 46 38 D6
14:57:55.881 设备发送:01 03 04 20 00 01 84 F0
14:58:00.864 设备接收:01 03 02 00 27 F8 5E
14:58:00.888 设备发送:01 03 04 05 00 01 95 3B
14:58:05.888 设备接收:01 03 02 00 00 B8 44
14:58:05.909 设备发送:02 03 04 84 00 04 05 23
14:58:10.911 设备接收:02 03 08 13 85 13 BA FF 89 13 BB 78 87
14:58:10.932 设备发送:02 03 04 8D 00 05 14 E1
14:58:15.931 设备接收:02 03 0A 08 F9 1C 74 00 00 00 00 00 00 FB 95
14:58:15.950 设备发送:02 03 04 98 00 05 05 25
14:58:20.950 设备接收:02 03 0A 09 11 1C 82 00 00 00 00 00 00 92 5B
14:58:20.962 设备发送:02 03 04 A3 00 05 74 E8
14:58:25.969 设备接收:02 03 0A 09 08 1C 8D 00 00 00 00 00 00 CA CB
14:58:25.990 设备发送:02 03 06 84 00 04 04 9B
14:58:30.992 设备接收:02 03 08 00 00 9C 48 00 13 A2 42 6F 95
14:58:31.002 设备发送:02 03 04 04 00 01 C4 C8
14:58:36.002 设备接收:02 03 02 00 02 7D 85
14:58:36.052 设备发送:02 03 05 84 00 0F 45 18
14:58:41.060 设备接收:02 03 1E 1F CB 02 10 01 AE 1F C6 02 09 01 A8 1F 77 02 18 01 B0 1F F1 04 22 03 61 1F CB 02 0B 01 AA 97 C2
14:58:41.069 设备发送:02 03 05 93 00 0F F5 1C
14:58:46.048 设备接收:02 03 1E 1F 9F 02 06 01 A3 1F BC 02 1D 01 B7 1F F5 04 33 03 70 1F CB 02 1F 01 BA 1F 28 02 46 01 D0 BC 32
14:58:46.070 设备发送:02 03 05 A2 00 0F A4 D3
14:58:51.091 设备接收:02 03 1E 00 00 00 04 00 00 00 00 00 00 00 00 00 00 00 00 00 00 00 00 00 00 00 00 00 00 00 00 00 00 92 31
14:58:51.113 设备发送:02 03 05 B1 00 03 55 13
14:58:56.121 设备接收:02 03 06 00 00 00 00 00 00 35 85
14:58:56.145 设备发送:02 03 04 2B 00 01 F5 01
14:59:01.121 设备接收:02 03 02 02 33 BD 31
14:59:01.142 设备发送:02 03 04 20 00 01 84 C3
14:59:06.133 设备接收:02 03 02 00 3E 7D 94
14:59:06.186 设备发送:02 03 04 05 00 01 95 08
14:59:11.181 设备接收:02 03 02 00 00 FC 44
14:59:11.199 设备发送:03 03 04 84 00 04 04 F2
14:59:16.206 设备接收:03 03 08 13 85 15 46 FF D3 15 46 CE 3B
14:59:16.218 设备发送:03 03 04 8D 00 05 15 30
14:59:21.193 设备接收:03 03 0A 08 F7 1E AE 00 00 00 00 00 00 4F 60
14:59:21.211 设备发送:03 03 04 98 00 05 04 F4
14:59:26.217 设备接收:03 03 0A 09 14 1E 83 00 00 00 00 00 00 3E 93
14:59:26.239 设备发送:03 03 04 A3 00 05 75 39
14:59:31.261 设备接收:03 03 0A 09 08 1E 81 00 00 00 00 00 00 85 93
14:59:31.280 设备发送:03 03 06 84 00 04 05 4A
14:59:36.285 设备接收:03 03 08 00 00 A5 8A 00 14 30 33 0B 54
14:59:36.307 设备发送:03 03 04 04 00 01 C5 19
14:59:41.300 设备接收:03 03 02 00 02 40 45
14:59:41.322 设备发送:03 03 05 84 00 0F 44 C9
14:59:46.304 设备接收:03 03 1E 1F 70 04 9C 03 B6 1F 83 04 A3 03 BD 20 F2 04 0D 03 6B 20 F3 04 12 03 6F 17 78 04 8D 02 BC B5 66
14:59:46.322 设备发送:03 03 05 93 00 0F F4 CD
14:59:51.337 设备接收:03 03 1E 05 44 00 00 00 00 13 B1 03 53 01 AD 1B DD 02 54 01 A9 1B FD 02 55 01 AC 05 46 00 00 00 00 DC FE
14:59:51.359 设备发送:03 03 05 A2 00 0F A5 02
14:59:56.360 设备接收:03 03 1E 00 0E 00 00 00 00 00 00 00 00 00 00 00 00 00 00 00 00 00 00 00 00 00 00 00 00 00 00 00 00 81 70
14:59:56.374 设备发送:03 03 05 B1 00 03 54 C2
15:00:01.379 设备接收:03 03 06 00 00 00 00 00 00 38 15
15:00:01.391 设备发送:03 03 04 2B 00 01 F4 D0
15:00:06.404 设备接收:03 03 02 02 44 C0 D7
15:00:06.424 设备发送:03 03 04 20 00 01 85 12
15:00:11.415 设备接收:03 03 02 00 29 00 5A
15:00:11.436 设备发送:03 03 04 05 00 01 94 D9
15:00:16.440 设备接收:03 03 02 00 00 C1 84
15:00:16.462 设备发送:04 03 04 84 00 04 05 45
15:00:21.453 设备接收:04 03 08 13 87 11 D6 00 1C 11 D6 34 91
15:00:21.471 设备发送:04 03 04 8D 00 05 14 87
15:00:26.461 设备接收:04 03 0A 09 00 19 DC 00 00 00 00 00 00 24 37
15:00:26.483 设备发送:04 03 04 98 00 05 05 43
15:00:31.492 设备接收:04 03 0A 08 F2 19 C1 00 00 00 00 00 00 A5 97
15:00:31.513 设备发送:04 03 04 A3 00 05 74 8E
15:00:36.508 设备接收:04 03 0A 09 0E 19 D3 00 00 00 00 00 00 97 57
15:00:36.552 设备发送:04 03 06 84 00 04 04 FD
15:00:41.544 设备接收:04 03 08 00 00 91 AC 00 11 69 C2 F7 46
15:00:41.567 设备发送:04 03 04 04 00 01 C4 AE
15:00:46.549 设备接收:04 03 02 00 02 F5 85
15:00:46.559 设备发送:04 03 05 84 00 0F 45 7E
15:00:51.591 设备接收:04 03 1E 1A CD 02 1B 01 72 1B B6 04 3B 03 00 1A 7E 02 2F 01 7B 1C 35 04 69 03 2F 1B FB 04 69 03 29 06 44
15:00:51.612 设备发送:04 03 05 93 00 0F F5 7A
15:00:56.606 设备接收:04 03 1E 1C 34 04 7C 03 3D 1C 56 04 0D 02 F0 04 97 00 04 00 00 04 B4 00 00 00 00 04 A7 00 03 00 00 CE 2A
15:00:56.628 设备发送:04 03 05 A2 00 0F A4 B5
15:01:01.629 设备接收:04 03 1E 00 00 00 00 00 00 00 01 00 05 00 00 00 00 00 00 00 00 00 00 00 00 00 00 00 00 00 00 00 00 9C 72
15:01:01.652 设备发送:04 03 05 B1 00 03 55 75
15:01:06.657 设备接收:04 03 06 00 00 00 00 00 00 1E 25
15:01:06.668 设备发送:04 03 04 2B 00 01 F5 67
15:01:11.662 设备接收:04 03 02 02 38 74 F6
15:01:11.703 设备发送:04 03 04 20 00 01 84 A5
15:01:16.694 设备接收:04 03 02 00 34 75 93
15:01:16.718 设备发送:04 03 04 05 00 01 95 6E
15:01:21.728 设备接收:04 03 02 00 00 74 44
15:01:21.748 设备发送:05 03 04 84 00 04 04 94
15:01:26.735 设备接收:05 03 08 13 8C 0E A2 FF DE 0E A2 A1 36
15:01:26.756 设备发送:05 03 04 8D 00 05 15 56
15:01:31.774 设备接收:05 03 0A 08 FB 15 30 00 00 00 00 00 00 2D DC
15:01:31.785 设备发送:05 03 04 98 00 05 04 92
15:01:36.780 设备接收:05 03 0A 09 05 15 21 00 00 00 00 00 00 35 7C
15:01:36.792 设备发送:05 03 04 A3 00 05 75 5F
15:01:41.783 设备接收:05 03 0A 09 06 15 34 00 00 00 00 00 00 65 4D
15:01:41.803 设备发送:05 03 06 84 00 04 05 2C
15:01:46.826 设备接收:05 03 08 00 00 79 F7 00 0E B1 44 6B 3B
15:01:46.838 设备发送:05 03 04 04 00 01 C5 7F
15:01:51.829 设备接收:05 03 02 00 02 C8 45
15:01:51.839 设备发送:05 03 05 84 00 0F 44 AF
15:01:56.853 设备接收:05 03 1E 04 A1 00 00 00 00 17 04 04 5E 02 93 15 4D 04 28 02 44 17 B6 04 05 02 70 1E 24 01 F6 01 83 A9 6A
15:01:56.872 设备发送:05 03 05 93 00 0F F4 AB
15:02:01.868 设备接收:05 03 1E 1E 29 02 0D 01 95 04 8D 00 00 00 00 18 FF 04 30 02 AE 04 9A 00 01 00 00 15 7B 04 1B 02 42 A2 A5
15:02:01.890 设备发送:05 03 05 A2 00 0F A5 64
15:02:06.907 设备接收:05 03 1E 00 07 00 00 00 00 00 01 00 03 00 00 00 00 00 00 00 00 00 00 00 00 00 00 00 00 00 00 00 00 D7 D1
15:02:06.929 设备发送:05 03 05 B1 00 03 54 A4
15:02:11.909 设备接收:05 03 06 00 00 00 00 00 00 13 B5
15:02:11.926 设备发送:05 03 04 2B 00 01 F4 B6
15:02:16.930 设备接收:05 03 02 02 5A C8 DF
15:02:16.940 设备发送:05 03 04 20 00 01 85 74
15:02:21.939 设备接收:05 03 02 00 35 89 93
15:02:21.991 设备发送:05 03 04 05 00 01 94 BF
15:02:26.979 设备接收:05 03 02 00 00 49 84
15:02:27.001 设备发送:06 03 04 84 00 04 04 A7
15:02:32.014 设备接收:06 03 08 13 8B 0E 4F FF E0 0E 4F D5 24
15:02:32.030 设备发送:06 03 04 8D 00 05 15 65
15:02:37.029 设备接收:06 03 0A 08 FD 14 C6 00 00 00 00 00 00 54 7C
15:02:37.050 设备发送:06 03 04 98 00 05 04 A1
15:02:42.038 设备接收:06 03 0A 09 05 14 B8 00 00 00 00 00 00 F8 7A
15:02:42.058 设备发送:06 03 04 A3 00 05 75 6C
15:02:47.068 设备接收:06 03 0A 09 08 14 D4 00 00 00 00 00 00 0C EC
15:02:47.090 设备发送:06 03 06 84 00 04 05 1F
15:02:52.063 设备接收:06 03 08 00 00 77 46 00 0E 9E FB 44 CB
15:02:52.117 设备发送:06 03 04 04 00 01 C5 4C
15:02:57.112 设备接收:06 03 02 00 02 8C 45
15:02:57.135 设备发送:06 03 05 84 00 0F 44 9C
15:03:02.128 设备接收:06 03 1E 04 92 00 05 00 00 1C 68 03 EB 02 D9 1C 8B 03 F9 02 E7 1A FF 01 FF 01 61 1E 26 04 1A 03 2A 90 77
15:03:02.140 设备发送:06 03 05 93 00 0F F4 98
15:03:07.145 设备接收:06 03 1E 04 91 00 00 00 00 04 7D 00 00 00 00 17 49 04 26 02 79 04 82 00 03 00 00 15 96 04 25 02 4A 59 99
15:03:07.164 设备发送:06 03 05 A2 00 0F A5 57
15:03:12.161 设备接收:06 03 1E 00 09 00 00 00 00 00 00 00 00 00 00 00 00 00 00 00 00 00 00 00 00 00 00 00 00 00 00 00 00 1D 74
15:03:12.213 设备发送:06 03 05 B1 00 03 54 97
15:03:17.214 设备接收:06 03 06 00 00 00 00 00 00 07 45
15:03:17.235 设备发送:06 03 04 2B 00 01 F4 85
15:03:22.220 设备接收:06 03 02 02 42 8C D5
15:03:22.243 设备发送:06 03 04 20 00 01 85 47
15:03:27.229 设备接收:06 03 02 00 34 0C 53
15:03:27.268 设备发送:06 03 04 05 00 01 94 8C
15:03:32.260 设备接收:06 03 02 00 00 0D 84
15:03:32.279 设备发送:07 03 04 84 00 04 05 76
15:03:37.274 设备接收:07 03 08 13 86 07 BC FF D5 07 C2 DF AF
15:03:37.297 设备发送:07 03 04 8D 00 05 14 B4
15:03:42.291 设备接收:07 03 0A 09 00 0B 31 00 00 00 00 00 00 9C 2F
15:03:42.312 设备发送:07 03 04 98 00 05 05 70
15:03:47.312 设备接收:07 03 0A 08 FF 0B 37 00 00 00 00 00 00 EE 1E
15:03:47.353 设备发送:07 03 04 A3 00 05 74 BD
15:03:52.354 设备接收:07 03 0A 09 01 0B 2F 00 00 00 00 00 00 6F BE
15:03:52.374 设备发送:07 03 06 84 00 04 04 CE
15:03:57.383 设备接收:07 03 08 00 00 40 10 00 07 45 7B 87 2E
15:03:57.395 设备发送:07 03 04 04 00 01 C4 9D
15:04:02.374 设备接收:07 03 02 00 02 B1 85
15:04:02.386 设备发送:07 03 05 84 00 0F 45 4D
15:04:07.418 设备接收:07 03 1E 19 1D 04 0A 02 99 1A 52 02 1C 01 6C 1A 8F 02 01 01 5D 18 F0 04 0C 02 95 00 00 00 00 00 00 32 DE
15:04:07.428 设备发送:07 03 05 93 00 0F F5 49
15:04:12.415 设备接收:07 03 1E 00 00 00 00 00 00 00 00 00 00 00 00 00 00 00 00 00 00 00 00 00 00 00 00 00 00 00 00 00 00 B0 BB
15:04:12.424 设备发送:07 03 05 A2 00 0F A4 86
15:04:17.439 设备接收:07 03 1E 00 00 00 00 00 00 00 00 00 00 00 00 00 00 00 00 00 00 00 00 00 00 00 00 00 00 00 00 00 00 B0 BB
15:04:17.453 设备发送:07 03 05 B1 00 03 55 46
15:04:22.475 设备接收:07 03 06 00 00 00 00 00 00 0A D5
15:04:22.496 设备发送:07 03 04 2B 00 01 F5 54
15:04:27.489 设备接收:07 03 02 01 81 F1 B4
15:04:27.499 设备发送:07 03 04 20 00 01 84 96
15:04:32.495 设备接收:07 03 02 00 1C 31 8D
15:04:32.518 设备发送:07 03 04 05 00 01 95 5D
15:04:37.525 设备接收:07 03 02 00 00 30 44
15:04:37.537 设备发送:08 03 04 84 00 04 05 89
15:04:42.543 设备接收:08 03 08 13 84 0F 28 FF DE 0F 28 0B 63
15:04:42.562 设备发送:08 03 04 8D 00 05 14 4B
15:04:47.561 设备接收:08 03 0A 08 F3 16 1B 00 00 00 00 00 00 82 46
15:04:47.581 设备发送:08 03 04 98 00 05 05 8F
15:04:52.568 设备接收:08 03 0A 08 E5 16 1B 00 00 00 00 00 00 64 26
15:04:52.589 设备发送:08 03 04 A3 00 05 74 42
15:04:57.591 设备接收:08 03 0A 08 F5 16 3C 00 00 00 00 00 00 FE E4
15:04:57.611 设备发送:08 03 06 84 00 04 04 31
15:05:02.637 设备接收:08 03 08 00 00 87 E9 00 0F D3 D0 94 44
15:05:02.647 设备发送:08 03 04 04 00 01 C4 62
15:05:07.632 设备接收:08 03 02 00 02 E5 84
15:05:07.644 设备发送:08 03 05 84 00 0F 45 B2
15:05:12.661 设备接收:08 03 1E 1A 42 01 F7 01 52 1B 51 01 55 00 EE 1B 4F 01 7A 01 08 1A 64 02 3E 01 84 18 FF 03 24 02 02 1B EE
15:05:12.681 设备发送:08 03 05 93 00 0F F5 B6
15:05:17.695 设备接收:08 03 1E 1C E8 03 B2 02 BC 1E 52 01 DE 01 73 1A E4 01 BB 01 31 19 42 01 D4 01 2E 1A 91 03 AE 02 81 BF 9A
15:05:17.706 设备发送:08 03 05 A2 00 0F A4 79
15:05:22.703 设备接收:08 03 1E 00 00 00 08 00 00 00 00 00 05 00 00 00 00 00 00 00 00 00 00 00 00 00 00 00 00 00 00 00 00 7E BB
15:05:22.723 设备发送:08 03 05 B1 00 03 55 B9
15:05:27.724 设备接收:08 03 06 00 00 00 00 00 00 4B 25
15:05:27.745 设备发送:08 03 04 2B 00 01 F5 AB
15:05:32.743 设备接收:08 03 02 01 75 A4 32
15:05:32.753 设备发送:08 03 04 20 00 01 84 69
15:05:37.787 设备接收:08 03 02 00 24 64 5E
15:05:37.808 设备发送:08 03 04 05 00 01 95 A2
15:05:42.795 设备接收:08 03 02 00 00 64 45
15:05:42.804 设备发送:09 03 04 84 00 04 04 58
15:05:47.814 设备接收:09 03 08 13 85 0D E2 00 15 0D E2 46 70
15:05:47.824 设备发送:09 03 04 8D 00 05 15 9A
15:05:52.832 设备接收:09 03 0A 08 FB 14 23 00 00 00 00 00 00 DF 1D
15:05:52.843 设备发送:09 03 04 98 00 05 04 5E
15:05:57.870 设备接收:09 03 0A 08 EF 14 24 00 00 00 00 00 00 56 DD
15:05:57.891 设备发送:09 03 04 A3 00 05 75 93
15:06:02.871 设备接收:09 03 0A 09 01 14 26 00 00 00 00 00 00 A1 7C
15:06:02.892 设备发送:09 03 06 84 00 04 05 E0
15:06:07.895 设备接收:09 03 08 00 00 79 AF 00 0E 65 8B 6A F2
15:06:07.915 设备发送:09 03 04 04 00 01 C5 B3
15:06:12.929 设备接收:09 03 02 00 02 D8 44
15:06:12.951 设备发送:09 03 05 84 00 0F 44 63
15:06:17.930 设备接收:09 03 1E 1E 40 01 3F 00 F7 1E 2D 01 4A 00 FE 1E 7F 01 67 01 18 1E 98 01 81 01 2D 1E AE 01 5D 01 12 7A 05
15:06:17.984 设备发送:09 03 05 93 00 0F F4 67
15:06:22.978 设备接收:09 03 1E 1E 0D 03 5A 02 94 1E 2B 01 94 01 38 1E 51 03 96 02 C8 1E 03 01 A2 01 41 1D CC 01 AD 01 47 70 D6
15:06:22.999 设备发送:09 03 05 A2 00 0F A5 A8
15:06:28.001 设备接收:09 03 1E 00 03 00 00 00 00 00 01 00 04 00 00 00 00 00 00 00 00 00 00 00 00 00 00 00 00 00 00 00 00 71 63
15:06:28.023 设备发送:09 03 05 B1 00 03 54 68
15:06:33.013 设备接收:09 03 06 00 00 00 00 00 00 46 B5
15:06:33.023 设备发送:09 03 04 2B 00 01 F4 7A
15:06:38.019 设备接收:09 03 02 01 9A D8 7E
15:06:38.040 设备发送:09 03 04 20 00 01 85 B8
15:06:43.063 设备接收:09 03 02 00 29 98 5B
15:06:43.074 设备发送:09 03 04 05 00 01 94 73
15:06:48.066 设备接收:09 03 02 00 00 59 85
15:06:48.087 设备发送:0A 03 04 84 00 04 04 6B
15:06:53.096 设备接收:0A 03 08 13 86 02 20 FF D7 02 28 17 55
15:06:53.106 设备发送:0A 03 04 8D 00 05 15 A9
15:06:58.094 设备接收:0A 03 0A 08 FD 03 26 00 00 00 00 00 00 E4 94
15:06:58.119 设备发送:0A 03 04 98 00 05 04 6D
15:07:03.143 设备接收:0A 03 0A 08 F4 03 27 00 00 00 00 00 00 9E 04
15:07:03.153 设备发送:0A 03 04 A3 00 05 75 A0
15:07:08.153 设备接收:0A 03 0A 08 FD 03 20 00 00 00 00 00 00 82 94
15:07:08.171 设备发送:0A 03 06 84 00 04 05 D3
15:07:13.171 设备接收:0A 03 08 00 00 1C B3 00 03 3F CD 97 10
15:07:13.191 设备发送:0A 03 04 04 00 01 C5 80
15:07:18.186 设备接收:0A 03 02 00 02 9C 44
15:07:18.195 设备发送:0A 03 05 84 00 0F 44 50
15:07:23.221 设备接收:0A 03 1E 19 DA 01 09 00 AF 1A 3C 01 23 00 C3 1A 7C 01 26 00 C7 0C 92 00 00 00 00 00 00 00 00 00 00 F9 65
15:07:23.241 设备发送:0A 03 05 93 00 0F F4 54
15:07:28.250 设备接收:0A 03 1E 00 00 00 00 00 00 00 00 00 00 00 00 00 00 00 00 00 00 00 00 00 00 00 00 00 00 00 00 00 00 0D 79
15:07:28.269 设备发送:0A 03 05 A2 00 0F A5 9B
15:07:33.242 设备接收:0A 03 1E 00 00 00 00 00 00 00 00 00 00 00 00 00 00 00 00 00 00 00 00 00 00 00 00 00 00 00 00
15:07:33.295 设备发送:0A 03 05 B1 00 03 54 5B
15:07:38.289 设备发送:0A 03 05 B1 00 03 54 5B
15:07:43.311 设备接收:0A 03 06 00 00 00 00 00 00 52 45
15:07:43.322 设备发送:0A 03 04 2B 00 01 F4 49
15:07:48.307 设备接收:0A 03 02 01 AD DD A8
15:07:48.326 设备发送:0A 03 04 20 00 01 85 8B
15:07:53.324 设备接收:0A 03 02 00 23 5C 5C
15:07:53.346 设备发送:0A 03 04 05 00 01 94 40
15:07:58.351 设备接收:0A 03 02 00 00 1D 85
15:07:58.402 设备发送:01 03 04 84 00 04 05 10
15:08:03.377 设备接收:01 03 08 13 89 12 10 00 1E 12 10 63 DD
15:08:03.396 设备发送:01 03 04 8D 00 05 14 D2
15:08:08.412 设备接收:01 03 0A 08 FC 19 FB 00 00 00 00 00 00 7F F1
15:08:08.434 设备发送:01 03 04 98 00 05 05 16
15:08:13.415 设备接收:01 03 0A 09 10 19 EE 00 00 00 00 00 00 F6 31
15:08:13.426 设备发送:01 03 04 A3 00 05 74 DB
15:08:18.463 设备接收:01 03 0A 09 0E 19 E7 00 00 00 00 00 00 EE 91
15:08:18.473 设备发送:01 03 06 84 00 04 04 A8
15:08:23.462 设备接收:01 03 08 00 00 A3 9D 00 13 5B D5 6B F2
15:08:23.474 设备发送:01 03 04 04 00 01 C4 FB
15:08:28.488 设备接收:01 03 02 00 02 39 85
15:08:28.508 设备发送:01 03 05 84 00 0F 45 2B
15:08:33.502 设备接收:01 03 1E 1F C6 03 C0 03 0D 21 30 03 64 02 E2 21 35 03 47 02 C9 20 3F 03 6D 02 D4 17 74 02 08 01 38 FC 8F
15:08:33.525 设备发送:01 03 05 93 00 0F F5 2F
15:08:38.542 设备接收:01 03 1E 00 00 00 00 00 00 1A 9C 04 29 02 D5 1C CA 01 FF 01 78 1C 9B 02 04 01 7A 00 00 00 05 00 00 F2 CC
15:08:38.551 设备发送:01 03 05 A2 00 0F A4 E0
15:08:43.543 设备接收:01 03 1E 00 00 00 00 00 00 00 00 00 00 00 00 00 00 00 00 00 00 00 00 00 00 00 00 00 00 00 00 00 00 D8 BA
15:08:43.564 设备发送:01 03 05 B1 00 03 55 20
15:08:48.578 设备接收:01 03 06 00 00 00 00 00 00 21 75
15:08:48.598 设备发送:01 03 04 2B 00 01 F5 32
15:08:53.595 设备接收:01 03 02 02 46 38 D6
15:08:53.604 设备发送:01 03 04 20 00 01 84 F0
15:08:58.626 设备接收:01 03 02 00 31 79 90
15:08:58.635 设备发送:01 03 04 05 00 01 95 3B
15:09:03.622 设备接收:01 03 02 00 00 B8 44
15:09:03.675 设备发送:02 03 04 84 00 04 05 23
15:09:08.655 设备接收:02 03 08 13 8C 11 A8 FF DA 11 A8 E8 DA
15:09:08.679 设备发送:02 03 04 8D 00 05 14 E1
15:09:13.668 设备接收:02 03 0A 08 FA 19 78 00 00 00 00 00 00 E3 5A
15:09:13.688 设备发送:02 03 04 98 00 05 05 25
15:09:17.36500

