
12:59:06.037 设备接收:01 03 08 13 86 20 7B FF 40 20 7E 78 4C
12:59:06.053 设备发送:01 03 04 8D 00 05 14 D2
12:59:11.078 设备发送:01 03 04 98 00 05 05 16
12:59:16.095 设备接收:01 03 0A 09 34 2E 6A 00 00 00 00 00 00 DB CA
12:59:16.110 设备发送:01 03 04 A3 00 05 74 DB
12:59:21.102 设备接收:01 03 0A 09 24 2E 68 00 00 00 00 00 00 35 CA
12:59:21.150 设备发送:01 03 06 84 00 04 04 A8
12:59:26.157 设备接收:01 03 08 00 00 6E 7E 00 13 36 4F 12 C2
12:59:26.173 设备发送:01 03 04 04 00 01 C4 FB
12:59:31.180 设备接收:01 03 02 00 02 39 85
12:59:31.196 设备发送:01 03 05 84 00 0F 45 2B
12:59:36.220 设备接收:01 03 1E 1E C6 06 EA 05 73 1E 9E 07 01 05 7D 1E 7A 06 F2 05 6B 1E A4 06 FE 05 7C 16 AA 03 8E 02 10 7A 0A
12:59:36.235 设备发送:01 03 05 93 00 0F F5 2F
12:59:41.227 设备接收:01 03 1E 00 00 00 00 00 00 19 5E 07 5B 04 C7 1B 54 03 A0 02 89 1B 99 03 9A 02 8B 00 00 00 05 00 00 44 D9
12:59:41.273 设备发送:01 03 05 A2 00 0F A4 E0
12:59:46.261 设备接收:01 03 1E 00 00 00 00 00 00 00 00 00 00 00 00 00 00 00 00 00 00 00 00 00 00 00 00 00 00 00 00 00 00 D8 BA
12:59:46.277 设备发送:01 03 05 B1 00 03 55 20
12:59:51.295 设备接收:01 03 06 00 00 00 00 00 00 21 75
12:59:51.310 设备发送:01 03 04 2B 00 01 F5 32
12:59:56.313 设备接收:01 03 02 02 CE 38 B0
12:59:56.345 设备发送:01 03 04 20 00 01 84 F0
13:00:01.338 设备接收:01 03 02 00 22 38 5D
13:00:01.369 设备发送:01 03 04 05 00 01 95 3B
13:00:06.364 设备接收:01 03 02 00 00 B8 44
13:00:06.409 设备发送:02 03 04 84 00 04 05 23
13:00:11.396 设备接收:02 03 08 13 87 1F 27 FF BE 1F 27 02 F0
13:00:11.442 设备发送:02 03 04 8D 00 05 14 E1
13:00:16.434 设备接收:02 03 0A 09 10 2C 70 00 00 00 00 00 00 4F 10
13:00:16.480 设备发送:02 03 04 98 00 05 05 25
13:00:21.485 设备接收:02 03 0A 09 32 2C A6 00 00 00 00 00 00 78 7C
13:00:21.500 设备发送:02 03 04 A3 00 05 74 E8
13:00:26.488 设备接收:02 03 0A 09 20 2C 83 00 00 00 00 00 00 D8 1E
13:00:26.535 设备发送:02 03 06 84 00 04 04 9B
13:00:31.507 设备接收:02 03 08 00 00 69 D8 00 13 7E 44 63 EF
13:00:31.552 设备发送:02 03 04 04 00 01 C4 C8
13:00:36.562 设备接收:02 03 02 00 02 7D 85
13:00:36.593 设备发送:02 03 05 84 00 0F 45 18
13:00:41.606 设备接收:02 03 1E 1E A4 03 68 02 AC 1E 9B 03 61 02 A6 1E 63 03 74 02 AF 1E C2 06 C3 05 53 1E 72 03 63 02 A4 AB D7
13:00:41.620 设备发送:02 03 05 93 00 0F F5 1C
13:00:46.650 设备接收:02 03 1E 1E 6B 03 5D 02 9E 1E 4B 03 73 02 AD 1E BF 06 DF 05 69 1E 3C 03 7D 02 B3 1E 76 03 90 02 C7 B9 CF
13:00:46.682 设备发送:02 03 05 A2 00 0F A4 D3
13:00:51.682 设备接收:02 03 1E 00 00 00 04 00 00 00 00 00 00 00 00 00 00 00 00 00 00 00 00 00 00 00 00 00 00 00 00 00 00 92 31
13:00:51.729 设备发送:02 03 05 B1 00 03 55 13
13:00:56.704 设备接收:02 03 06 00 00 00 00 00 00 35 85
13:00:56.720 设备发送:02 03 04 2B 00 01 F5 01
13:01:01.729 设备接收:02 03 02 02 C9 3D 72
13:01:01.790 设备发送:02 03 04 20 00 01 84 C3
13:01:06.786 设备接收:02 03 02 00 47 BC 76
13:01:06.860 设备发送:02 03 04 05 00 01 95 08
13:01:11.841 设备接收:02 03 02 00 00 FC 44
13:01:11.857 设备发送:03 03 04 84 00 04 04 F2
13:01:16.837 设备接收:03 03 08 13 89 21 14 FF BE 21 14 B9 63
13:01:16.885 设备发送:03 03 04 8D 00 05 15 30
13:01:21.902 设备接收:03 03 0A 09 09 2F 24 00 00 00 00 00 00 BF D1
13:01:21.917 设备发送:03 03 04 98 00 05 04 F4
13:01:26.938 设备接收:03 03 0A 09 37 2F 14 00 00 00 00 00 00 97 B3
13:01:26.952 设备发送:03 03 04 A3 00 05 75 39
13:01:31.970 设备接收:03 03 0A 09 20 2F 1C 00 00 00 00 00 00 F5 83
13:01:31.986 设备发送:03 03 06 84 00 04 05 4A
13:01:36.975 设备接收:03 03 08 00 00 75 C7 00 14 09 2A E7 50
13:01:36.991 设备发送:03 03 04 04 00 01 C5 19
13:01:41.997 设备接收:03 03 02 00 02 40 45
13:01:42.028 设备发送:03 03 05 84 00 0F 44 C9
13:01:47.020 设备接收:03 03 1E 1E 9E 07 41 05 AF 1E 81 07 3E 05 A8 1E 71 07 2A 05 95 1E A0 07 21 05 96 16 37 07 5A 04 2E F8 9E
13:01:47.043 设备发送:03 03 05 93 00 0F F4 CD
13:01:52.053 设备接收:03 03 1E 05 08 00 00 00 00 13 68 04 C1 02 5C 1B 25 03 A4 02 88 1B 38 03 A4 02 89 05 0B 00 00 00 00 54 E3
13:01:52.099 设备发送:03 03 05 A2 00 0F A5 02

