
11:34:14.750 设备接收:FF FF FF FF FF FF FF
11:34:14.760 设备发送:01 03 04 04 00 01 C4 FB
11:34:16.785 设备接收:FF FF FF FF FF FF FF
11:34:16.800 设备发送:02 03 04 84 00 04 05 23
11:34:18.796 设备接收:FF FF FF FF FF FF FF
11:34:18.811 设备发送:02 03 04 8D 00 21 14 FA
11:34:20.799 设备接收:FF FF FF FF FF FF 02 03 42 09 1A 22 10 00 00 00 00 00 00 00 00 00 00 00 00 00 00 00 00 00 00 09 38 22 15 00 00 00 00 00 00 00 00 00 00 00 00 00 00 00 00 00 00 09 2C 22 19 00 00 00 00 00 00 00 00 00 00 00 00 00 00 00 00 00 00 1E 15
11:34:20.815 设备发送:02 03 06 84 00 04 04 9B
11:34:22.817 设备接收:FF FF FF FF FF FF
11:34:22.832 设备发送:02 03 04 04 00 01 C4 C8
11:34:24.861 设备接收:FF FF FF FF FF FF FF
11:34:24.877 设备发送:03 03 04 84 00 04 04 F2
11:34:26.872 设备接收:FF FF FF FF FF FF FF
11:34:26.888 设备发送:03 03 04 8D 00 21 15 2B
11:34:28.889 设备接收:FF FF FF FF FF FF FF FF 03 03 42 09 15 23 22 00 00 00 00 00 00 00 00 00 00 00 00 00 00 00 00 00 00 09 38 23 0A 00 00 00 00 00 00 00 00 00 00 00 00 00 00 00 00 00 00 09 2B 23 1F 00 00 00 00 00 00 00 00 00 00 00 00 00 00 00 00 00 00 07 AE
11:34:28.905 设备发送:03 03 06 84 00 04 05 4A
11:34:30.888 设备接收:FF FF FF FF FF FF FF FF
11:34:30.920 设备发送:03 03 04 04 00 01 C5 19
11:34:32.912 设备接收:FF FF FF FF FF FF FF
11:34:32.924 设备发送:04 03 04 84 00 04 05 45
11:34:34.933 设备接收:FF FF FF FF FF FF FF
11:34:34.954 设备发送:04 03 04 8D 00 21 14 9C
11:34:36.956 设备接收:FF FF FF FF FF FF 04 03 42 09 1D 1D C5 00 00 00 00 00 00 00 00 00 00 00 00 00 00 00 00 00 00 09 0C 1D BA 00 00 00 00 00 00 00 00 00 00 00 00 00 00 00 00 00 00 09 2A 1D BD 00 00 00 00 00 00 00 00 00 00 00 00 00 00 00 00 00 00 E6 C3
11:34:36.980 设备发送:04 03 06 84 00 04 04 FD
11:34:38.982 设备接收:FF FF FF FF FF FF
11:34:38.991 设备发送:04 03 04 04 00 01 C4 AE
11:34:40.998 设备接收:FF FF FF FF FF FF FF
11:34:41.009 设备发送:05 03 04 84 00 04 04 94
11:34:42.998 设备接收:FF FF FF FF FF FF FF
11:34:43.050 设备发送:05 03 04 8D 00 21 15 4D
11:34:45.039 设备接收:FF FF FF FF FF FF FF FF 05 03 42 09 0F 13 B5 00 00 00 00 00 00 00 00 00 00 00 00 00 00 00 00 00 00 09 18 13 A3 00 00 00 00 00 00 00 00 00 00 00 00 00 00 00 00 00 00 09 1B 13 B5 00 00 00 00 00 00 00 00 00 00 00 00 00 00 00 00 00 00 42 A2
11:34:45.051 设备发送:05 03 06 84 00 04 05 2C
11:34:47.062 设备接收:FF FF FF FF FF FF BF E9
11:34:47.081 设备发送:05 03 04 04 00 01 C5 7F
11:34:49.087 设备发送:05 03 04 04 00 01 C5 7F
11:34:51.127 设备发送:05 03 04 04 00 01 C5 7F
11:34:53.123 设备发送:06 03 04 84 00 04 04 A7
11:34:55.140 设备接收:FF FF FF
11:34:55.158 设备发送:06 03 04 8D 00 21 15 7E
11:34:57.169 设备接收:FF FF FF FF FF FF FF 06 03 42 09 15 14 14 00 00 00 00 00 00 00 00 00 00 00 00 00 00 00 00 00 00 09 1C 14 0C 00 00 00 00 00 00 00 00 00 00 00 00 00 00 00 00 00 00 09 21 14 2A 00 00 00 00 00 00 00 00 00 00 00 00 00 00 00 00 00 00 D6 9C
11:34:57.181 设备发送:06 03 06 84 00 04 05 1F
11:34:59.164 设备接收:FF FF FF 06 03 08 00 00 1F C3 00 0E 2C F9 74 9C
11:34:59.186 设备发送:06 03 04 04 00 01 C5 4C
11:35:01.223 设备发送:06 03 04 04 00 01 C5 4C
11:35:03.207 设备接收:BA FF B1 24 FF F4 29
11:35:03.228 设备发送:07 03 04 84 00 04 05 76
11:35:05.236 设备接收:FF FF FF FF FF FF FF FF 07 03 08 13 86 08 64 FF EA 08 64 4A C5
11:35:05.256 设备发送:07 03 04 8D 00 21 14 AF
11:35:07.246 设备接收:FF FF FF FF FF FF FF 07 03 42 09 16 0C 17 00 00 00 00 00 00 00 00 00 00 00 00 00 00 00 00 00 00 09 14 0C 20 00 00 00 00 00 00 00 00 00 00 00 00 00 00 00 00 00 00 09 14 0C 17 00 00 00 00 00 00 00 00 00 00 00 00 00 00 00 00 00 00 BA 28
11:35:07.267 设备发送:07 03 06 84 00 04 04 CE
11:35:09.280 设备接收:FF FF FF FF FF FF FF 07 03 08 00 00 11 3A 00 07 08 01 27 DA
11:35:09.312 设备发送:07 03 04 04 00 01 C4 9D
11:35:11.305 设备接收:FF FF FF FF FF FF FF 07 03 02 00 02 B1 85
11:35:11.321 设备发送:08 03 04 84 00 04 05 89
11:35:13.308 设备接收:FF FF FF FF FF FF 08 03 08 13 87 10 E6 FF 96 10 E7 9B AE
11:35:13.354 设备发送:08 03 04 8D 00 21 14 50
11:35:15.340 设备接收:FF FF FF FF FF FF FF 08 03 42 09 07 17 C4 00 00 00 00 00 00 00 00 00 00 00 00 00 00 00 00 00 00 08 FE 17 B8 00 00 00 00 00 00 00 00 00 00 00 00 00 00 00 00 00 00 09 0E 17 D8 00 00 00 00 00 00 00 00 00 00 00 00 00 00 00 00 00 00 C9 0C
11:35:15.355 设备发送:08 03 06 84 00 04 04 31
11:35:17.352 设备接收:FF FF FF FF FF FF FF 08 03 08 00 00 23 AC 00 0F 51 8A A0 34
11:35:17.398 设备发送:08 03 04 04 00 01 C4 62
11:35:19.395 设备接收:FF FF FF FF FF FF FF 08 03 02 00 02 E5 84
11:35:19.410 设备发送:09 03 04 84 00 04 04 58
11:35:21.390 设备接收:FF FF FF FF FF FF FF FF 09 03 08 13 86 0B 15 FF EC 0B 15 22 C0
11:35:21.421 设备发送:09 03 04 8D 00 21 15 81
11:35:23.433 设备接收:FF FF FF FF FF FF FF 09 03 42 09 05 0F DD 00 00 00 00 00 00 00 00 00 00 00 00 00 00 00 00 00 00 08 FD 0F ED 00 00 00 00 00 00 00 00 00 00 00 00 00 00 00 00 00 00 09 0D 0F F7 00 00 00 00 00 00 00 00 00 00 00 00 00 00 00 00 00 00 96 28
11:35:23.448 设备发送:09 03 06 84 00 04 05 E0
11:35:25.453 设备接收:FF FF FF FF FF FF FF 09 03 08 00 00 1F EA 00 0D F0 71 B1 E8
11:35:25.469 设备发送:09 03 04 04 00 01 C5 B3
11:35:27.453 设备接收:FF FF FF FF FF FF FF 09 03 02 00 02 D8 44
11:35:27.468 设备发送:0A 03 04 84 00 04 04 6B
11:35:29.498 设备接收:FF FF FF FF FF FF FF
11:35:29.513 设备发送:0A 03 04 8D 00 21 15 B2
11:35:31.526 设备接收:FF FF FF FF FF FF 0A 03 42 09 12 03 BA 00 00 00 00 00 00 00 00 00 00 00 00 00 00 00 00 00 00 09 0C 03 BC 00 00 00 00 00 00 00 00 00 00 00 00 00 00 00 00 00 00 09 12 03 B7 00 00 00 00 00 00 00 00 00 00 00 00 00 00 00 00 00 00 3D CD
11:35:31.542 设备发送:0A 03 06 84 00 04 05 D3
11:35:33.526 设备接收:FF FF FF FF FF FF
11:35:33.541 设备发送:0A 03 04 04 00 01 C5 80
11:35:35.543 设备接收:FF FF FF FF FF FF FF
11:35:35.560 设备发送:01 03 04 84 00 04 05 10
11:35:37.563 设备接收:FF FF FF FF FF FF FF FF
11:35:37.578 设备发送:01 03 04 8D 00 21 14 C9
11:35:39.566 设备接收:FF FF FF FF FF FF FF 01 03 42 09 12 1D 3C 00 00 00 00 00 00 00 00 00 00 00 00 00 00 00 00 00 00 09 2B 1D 41 00 00 00 00 00 00 00 00 00 00 00 00 00 00 00 00 00 00 09 26 1D 4C 00 00 00 00 00 00 00 00 00 00 00 00 00 00 00 00 00 00 95 DC
11:35:39.614 设备发送:01 03 06 84 00 04 04 A8
11:35:41.605 设备接收:FF FF FF FF FF FF FF
11:35:41.621 设备发送:01 03 04 04 00 01 C4 FB
11:35:43.636 设备接收:FF FF FF FF FF FF FF
11:35:43.652 设备发送:02 03 04 84 00 04 05 23
11:35:45.652 设备接收:FF FF FF FF FF FF FF
11:35:45.668 设备发送:02 03 04 8D 00 21 14 FA
11:35:47.667 设备接收:FF FF FF FF FF FF 02 03 42 09 19 20 BF 00 00 00 00 00 00 00 00 00 00 00 00 00 00 00 00 00 00 09 34 20 C9 00 00 00 00 00 00 00 00 00 00 00 00 00 00 00 00 00 00 09 27 20 C1 00 00 00 00 00 00 00 00 00 00 00 00 00 00 00 00 00 00 27 47
11:35:47.683 设备发送:02 03 06 84 00 04 04 9B
11:35:49.686 设备接收:FF FF FF FF FF FF
11:35:49.717 设备发送:02 03 04 04 00 01 C4 C8
11:35:51.702 设备接收:FF FF FF FF FF FF FF
11:35:51.718 设备发送:03 03 04 84 00 04 04 F2
11:35:53.714 设备接收:FF FF FF FF FF FF FF
11:35:53.762 设备发送:03 03 04 8D 00 21 15 2B
11:35:55.758 设备接收:FF FF FF FF FF FF FF FF 03 03 42 09 17 25 B2 00 00 00 00 00 00 00 00 00 00 00 00 00 00 00 00 00 00 09 3C 25 99 00 00 00 00 00 00 00 00 00 00 00 00 00 00 00 00 00 00 09 2E 25 AA 00 00 00 00 00 00 00 00 00 00 00 00 00 00 00 00 00 00 32 F0
11:35:55.773 设备发送:03 03 06 84 00 04 05 4A
11:35:57.760 设备接收:FF FF FF FF FF FF FF FF
11:35:57.790 设备发送:03 03 04 04 00 01 C5 19
11:35:59.789 设备接收:FF FF FF FF FF FF FF
11:35:59.805 设备发送:04 03 04 84 00 04 05 45
11:36:01.788 设备接收:FF FF FF FF FF FF FF
11:36:01.819 设备发送:04 03 04 8D 00 21 14 9C
11:36:03.819 设备接收:FF FF FF FF FF FF 04 03 42 09 23 20 97 00 00 00 00 00 00 00 00 00 00 00 00 00 00 00 00 00 00 09 12 20 89 00 00 00 00 00 00 00 00 00 00 00 00 00 00 00 00 00 00 09 33 20 84 00 00 00 00 00 00 00 00 00 00 00 00 00 00 00 00 00 00 2A 24
11:36:03.835 设备发送:04 03 06 84 00 04 04 FD
11:36:05.849 设备接收:FF FF FF FF FF FF
11:36:05.865 设备发送:04 03 04 04 00 01 C4 AE
11:36:07.837 设备接收:FF FF FF FF FF FF FF
11:36:07.883 设备发送:05 03 04 84 00 04 04 94
11:36:09.877 设备接收:FF FF FF FF FF FF FF
11:36:09.909 设备发送:05 03 04 8D 00 21 15 4D
11:36:11.909 设备接收:FF FF FF FF FF FF FF FF 05 03 42 09 18 19 75 00 00 00 00 00 00 00 00 00 00 00 00 00 00 00 00 00 00 09 27 19 5E 00 00 00 00 00 00 00 00 00 00 00 00 00 00 00 00 00 00 09 27 19 69 00 00 00 00 00 00 00 00 00 00 00 00 00 00 00 00 00 00 46 FF
11:36:11.924 设备发送:05 03 06 84 00 04 05 2C
11:36:13.905 设备接收:FF FF FF 7F FF FF F7 FF
11:36:13.936 设备发送:05 03 04 04 00 01 C5 7F
11:36:15.950 设备发送:05 03 04 04 00 01 C5 7F
11:36:17.977 设备接收:FF FF FF FF FF FF FF
11:36:17.993 设备发送:06 03 04 84 00 04 04 A7
11:36:19.986 设备接收:FF FF FF FF FF FF
11:36:20.002 设备发送:06 03 04 8D 00 21 15 7E
11:36:21.987 设备接收:FF FF FF FF FF FF FF 06 03 42 09 15 14 BF 00 00 00 00 00 00 00 00 00 00 00 00 00 00 00 00 00 00 09 1E 14 BC 00 00 00 00 00 00 00 00 00 00 00 00 00 00 00 00 00 00 09 23 14 D7 00 00 00 00 00 00 00 00 00 00 00 00 00 00 00 00 00 00 AF 9C
11:36:22.019 设备发送:06 03 06 84 00 04 05 1F
11:36:24.004 设备接收:FF FF FF FF FF FF FF
11:36:24.035 设备发送:06 03 04 04 00 01 C5 4C
11:36:26.027 设备接收:FF FF FF FF FF FF FF
11:36:26.073 设备发送:07 03 04 84 00 04 05 76
11:36:28.071 设备接收:FF FF FF FF FF FF FF FF 07 03 08 13 88 08 16 FF E9 08 16 ED 2B
11:36:28.086 设备发送:07 03 04 8D 00 21 14 AF
11:36:30.074 设备接收:FF FF FF FF FF FF FF 07 03 42 09 14 0A BD 00 00 00 00 00 00 00 00 00 00 00 00 00 00 00 00 00 00 09 0F 0A C3 00 00 00 00 00 00 00 00 00 00 00 00 00 00 00 00 00 00 09 12 0A BB 00 00 00 00 00 00 00 00 00 00 00 00 00 00 00 00 00 00 7D 73
11:36:30.121 设备发送:07 03 06 84 00 04 04 CE
11:36:32.106 设备接收:FF FF FF FF FF FF FF 07 03 08 00 00 11 67 00 07 08 06 8B D5
11:36:32.122 设备发送:07 03 04 04 00 01 C4 9D
11:36:34.116 设备接收:FF FF FF FF FF FF FF 07 03 02 00 02 B1 85
11:36:34.147 设备发送:08 03 04 84 00 04 05 89
11:36:36.133 设备接收:FF FF FF FF FF FF 08 03 08 13 89 0C 0A FF E7 0C 0A 7F 73
11:36:36.179 设备发送:08 03 04 8D 00 21 14 50
11:36:38.154 设备接收:FF FF FF FF FF FF FF 08 03 42 09 03 11 18 00 00 00 00 00 00 00 00 00 00 00 00 00 00 00 00 00 00 08 FA 11 0C 00 00 00 00 00 00 00 00 00 00 00 00 00 00 00 00 00 00 09 0A 11 3A 00 00 00 00 00 00 00 00 00 00 00 00 00 00 00 00 00 00 A3 1B
11:36:38.169 设备发送:08 03 06 84 00 04 04 31
11:36:40.177 设备接收:FF FF FF FF FF FF FF 08 03 08 00 00 24 09 00 0F 51 93 2C 50
11:36:40.193 设备发送:08 03 04 04 00 01 C4 62
11:36:42.226 设备接收:FF FF FF FF FF FF FF 08 03 02 00 02 E5 84
11:36:42.242 设备发送:09 03 04 84 00 04 04 58
11:36:44.202 设备接收:FF FF FF FF FF FF FF FF 09 03 08 13 8A 0D 16 FF BA 0D 17 C8 D7
11:36:44.222 设备发送:09 03 04 8D 00 21 15 81
11:36:46.237 设备接收:FF FF FF FF FF FF FF 09 03 42 09 0C 13 78 00 00 00 00 00 00 00 00 00 00 00 00 00 00 00 00 00 00 09 03 13 87 00 00 00 00 00 00 00 00 00 00 00 00 00 00 00 00 00 00 09 16 13 88 00 00 00 00 00 00 00 00 00 00 00 00 00 00 00 00 00 00 D7 DD
11:36:46.247 设备发送:09 03 06 84 00 04 05 E0
11:36:48.260 设备接收:FF FF FF FF FF FF FF 09 03 08 00 00 20 3F 00 0D F0 79 B8 F3
11:36:48.270 设备发送:09 03 04 04 00 01 C5 B3

