
16:06:54.283 设备发送:03 03 04 84 00 04 04 F2
16:06:55.104 设备发送:03 03 04 84 00 04 04 F2
16:06:55.921 设备发送:03 03 04 84 00 04 04 F2
16:06:56.747 设备发送:03 03 04 8D 00 21 15 2B
16:06:57.563 设备发送:03 03 04 8D 00 21 15 2B
16:06:58.375 设备发送:03 03 04 8D 00 21 15 2B
16:06:59.188 设备发送:03 03 06 84 00 04 05 4A
16:07:00.014 设备发送:03 03 06 84 00 04 05 4A
16:07:00.826 设备发送:03 03 06 84 00 04 05 4A
16:07:01.653 设备发送:03 03 04 04 00 01 C5 19
16:07:02.469 设备发送:03 03 04 04 00 01 C5 19
16:07:03.278 设备发送:03 03 04 04 00 01 C5 19
16:07:04.119 设备发送:04 03 04 84 00 04 05 45
16:07:04.929 设备接收:04 03 08 13 88 04 DE FF ED 04 DF 87 E4
16:07:04.945 设备发送:04 03 04 8D 00 21 14 9C
16:07:05.728 设备接收:04 03 42 08 E2 07 37 00 00 00 00 00 00 00 00 00 00 00 00 00 00 00 00 00 00 08 DA 07 31 00 00 00 00 00 00 00 00 00 00 00 00 00 00 00 00 00 00 08 E9 07 4F 00 00 00 00 00 00 00 00 00 00 00 00 00 00 00 00 00 00 7B CF
16:07:05.774 设备发送:04 03 06 84 00 04 04 FD
16:07:06.561 设备接收:04 03 08 00 00 93 BB 00 10 A0 D6 85 38
16:07:06.592 设备发送:04 03 04 04 00 01 C4 AE
16:07:07.405 设备接收:04 03 02 00 02 F5 85
16:07:07.421 设备发送:05 03 04 84 00 04 04 94
16:07:08.204 设备接收:05 03 08 13 88 03 F9 FF FA 03 F9 85 46
16:07:08.219 设备发送:05 03 04 8D 00 21 15 4D
16:07:09.030 设备接收:05 03 42 08 DF 05 E8 00 00 00 00 00 00 00 00 00 00 00 00 00 00 00 00 00 00 08 DF 05 DE 00 00 00 00 00 00 00 00 00 00 00 00 00 00 00 00 00 00 08 E8 06 08 00 00 00 00 00 00 00 00 00 00 00 00 00 00 00 00 00 00 39 DD
16:07:09.061 设备发送:05 03 06 84 00 04 05 2C
16:07:09.876 设备接收:05 03 08 00 00 7B 53 00 0E 0A 0A E9 C4
16:07:09.891 设备发送:05 03 04 04 00 01 C5 7F
16:07:10.670 设备接收:05 03 02 00 02 C8 45
16:07:10.688 设备发送:06 03 04 84 00 04 04 A7
16:07:11.508 设备接收:06 03 08 13 88 02 7C 00 01 02 7C C7 DB
16:07:11.524 设备发送:06 03 04 8D 00 21 15 7E
16:07:12.337 设备接收:06 03 42 08 E0 03 D1 00 00 00 00 00 00 00 00 00 00 00 00 00 00 00 00 00 00 08 DC 03 D9 00 00 00 00 00 00 00 00 00 00 00 00 00 00 00 00 00 00 08 E6 04 0D 00 00 00 00 00 00 00 00 00 00 00 00 00 00 00 00 00 00 D2 89
16:07:12.353 设备发送:06 03 06 84 00 04 05 1F
16:07:13.132 设备接收:06 03 08 00 00 75 F1 00 0D FE D8 28 EA
16:07:13.147 设备发送:06 03 04 04 00 01 C5 4C
16:07:13.976 设备接收:06 03 02 00 02 8C 45
16:07:13.992 设备发送:07 03 04 84 00 04 05 76
16:07:14.803 设备发送:07 03 04 84 00 04 05 76
16:07:15.612 设备发送:07 03 04 84 00 04 05 76
16:07:16.439 设备发送:07 03 04 8D 00 21 14 AF
16:07:17.253 设备发送:07 03 04 8D 00 21 14 AF
16:07:18.095 设备发送:07 03 04 8D 00 21 14 AF
16:07:18.904 设备发送:07 03 06 84 00 04 04 CE
16:07:19.722 设备发送:07 03 06 84 00 04 04 CE
16:07:20.544 设备发送:07 03 06 84 00 04 04 CE
16:07:21.357 设备发送:07 03 04 04 00 01 C4 9D
16:07:22.183 设备发送:07 03 04 04 00 01 C4 9D
16:07:22.994 设备发送:07 03 04 04 00 01 C4 9D
16:07:23.804 设备发送:08 03 04 84 00 04 05 89
16:07:24.632 设备发送:08 03 04 84 00 04 05 89
16:07:25.458 设备发送:08 03 04 84 00 04 05 89
16:07:26.265 设备发送:08 03 04 8D 00 21 14 50
16:07:27.108 设备发送:08 03 04 8D 00 21 14 50
16:07:27.918 设备发送:08 03 04 8D 00 21 14 50
16:07:28.746 设备发送:08 03 06 84 00 04 04 31
16:07:29.559 设备发送:08 03 06 84 00 04 04 31
16:07:30.371 设备发送:08 03 06 84 00 04 04 31
16:07:31.180 设备发送:08 03 04 04 00 01 C4 62
16:07:32.021 设备发送:08 03 04 04 00 01 C4 62
16:07:32.833 设备发送:08 03 04 04 00 01 C4 62
16:07:33.662 设备发送:09 03 04 84 00 04 04 58
16:07:34.472 设备发送:09 03 04 84 00 04 04 58
16:07:35.281 设备发送:09 03 04 84 00 04 04 58
16:07:36.108 设备发送:09 03 04 8D 00 21 15 81
16:07:36.919 设备发送:09 03 04 8D 00 21 15 81
16:07:37.749 设备发送:09 03 04 8D 00 21 15 81
16:07:38.575 设备发送:09 03 06 84 00 04 05 E0
16:07:39.400 设备发送:09 03 06 84 00 04 05 E0
16:07:40.210 设备发送:09 03 06 84 00 04 05 E0
16:07:41.024 设备发送:09 03 04 04 00 01 C5 B3
16:07:41.849 设备发送:09 03 04 04 00 01 C5 B3
16:07:42.675 设备发送:09 03 04 04 00 01 C5 B3
16:07:43.487 设备发送:0A 03 04 84 00 04 04 6B
16:07:44.312 设备发送:0A 03 04 84 00 04 04 6B
16:07:45.136 设备发送:0A 03 04 84 00 04 04 6B
16:07:45.962 设备发送:0A 03 04 8D 00 21 15 B2
16:07:46.773 设备发送:0A 03 04 8D 00 21 15 B2
16:07:47.614 设备发送:0A 03 04 8D 00 21 15 B2
16:07:48.423 设备发送:0A 03 06 84 00 04 05 D3
16:07:49.235 设备发送:0A 03 06 84 00 04 05 D3
16:07:50.045 设备发送:0A 03 06 84 00 04 05 D3
16:07:50.871 设备发送:0A 03 04 04 00 01 C5 80
16:07:51.700 设备发送:0A 03 04 04 00 01 C5 80
16:07:52.530 设备发送:0A 03 04 04 00 01 C5 80
16:07:53.341 设备发送:01 03 04 84 00 04 05 10
16:07:54.153 设备发送:01 03 04 84 00 04 05 10
16:07:54.981 设备发送:01 03 04 84 00 04 05 10
16:07:55.792 设备发送:01 03 04 8D 00 21 14 C9
16:07:56.620 设备发送:01 03 04 8D 00 21 14 C9
16:07:57.430 设备发送:01 03 04 8D 00 21 14 C9
16:07:58.243 设备发送:01 03 06 84 00 04 04 A8
16:07:59.081 设备发送:01 03 06 84 00 04 04 A8
16:07:59.909 设备发送:01 03 06 84 00 04 04 A8
16:08:00.721 设备发送:01 03 04 04 00 01 C4 FB
16:08:01.534 设备发送:01 03 04 04 00 01 C4 FB
16:08:02.350 设备发送:01 03 04 04 00 01 C4 FB
16:08:03.162 设备发送:02 03 04 84 00 04 05 23
16:08:03.990 设备发送:02 03 04 84 00 04 05 23
16:08:04.815 设备发送:02 03 04 84 00 04 05 23
16:08:05.628 设备发送:02 03 04 8D 00 21 14 FA
16:08:06.454 设备发送:02 03 04 8D 00 21 14 FA
16:08:07.284 设备发送:02 03 04 8D 00 21 14 FA
16:08:08.096 设备发送:02 03 06 84 00 04 04 9B
16:08:08.909 设备发送:02 03 06 84 00 04 04 9B
16:08:09.718 设备发送:02 03 06 84 00 04 04 9B
16:08:10.546 设备发送:02 03 04 04 00 01 C4 C8
16:08:11.376 设备发送:02 03 04 04 00 01 C4 C8
16:08:12.189 设备发送:02 03 04 04 00 01 C4 C8
16:08:13.017 设备发送:03 03 04 84 00 04 04 F2
16:08:13.828 设备发送:03 03 04 84 00 04 04 F2
16:08:14.671 设备发送:03 03 04 84 00 04 04 F2
16:08:15.486 设备发送:03 03 04 8D 00 21 15 2B
16:08:16.298 设备发送:03 03 04 8D 00 21 15 2B
16:08:17.112 设备发送:03 03 04 8D 00 21 15 2B
16:08:17.925 设备发送:03 03 06 84 00 04 05 4A
16:08:18.765 设备发送:03 03 06 84 00 04 05 4A
16:08:19.576 设备发送:03 03 06 84 00 04 05 4A
16:08:20.386 设备发送:03 03 04 04 00 01 C5 19
16:08:21.243 设备发送:03 03 04 04 00 01 C5 19
16:08:22.054 设备发送:03 03 04 04 00 01 C5 19
16:08:22.837 设备发送:04 03 04 84 00 04 05 45
16:08:23.646 设备接收:04 03 08 13 87 04 B0 00 08 04 B0 F0 E2
16:08:23.678 设备发送:04 03 04 8D 00 21 14 9C
16:08:24.475 设备接收:04 03 42 08 E0 06 FE 00 00 00 00 00 00 00 00 00 00 00 00 00 00 00 00 00 00 08 DA 06 F2 00 00 00 00 00 00 00 00 00 00 00 00 00 00 00 00 00 00 08 EA 07 16 00 00 00 00 00 00 00 00 00 00 00 00 00 00 00 00 00 00 64 88
16:08:24.490 设备发送:04 03 06 84 00 04 04 FD
16:08:25.317 设备发送:04 03 06 84 00 04 04 FD
16:08:26.125 设备发送:04 03 06 84 00 04 04 FD
16:08:26.936 设备接收:04 03 08 00 00 93 D7 00 10 A0 D9 55 35
16:08:26.951 设备发送:04 03 04 04 00 01 C4 AE
16:08:27.777 设备发送:04 03 04 04 00 01 C4 AE
16:08:28.593 设备发送:04 03 04 04 00 01 C4 AE
16:08:29.407 设备发送:05 03 04 84 00 04 04 94
16:08:30.218 设备接收:05 03 08 13 87 03 DE FF F8 03 DE AF 9B
16:08:30.234 设备发送:05 03 04 8D 00 21 15 4D
16:08:31.061 设备接收:05 03 42 08 DD 05 CC 00 00 00 00 00 00 00 00 00 00 00 00 00 00 00 00 00 00 08 DE 05 BF 00 00 00 00 00 00 00 00 00 00 00 00 00 00 00 00 00 00 08 E8 05 E8 00 00 00 00 00 00 00 00 00 00 00 00 00 00 00 00 00 00 35 0C
16:08:31.077 设备发送:05 03 06 84 00 04 05 2C
16:08:31.828 设备接收:05 03 08 00 00 7B 6A 00 0E 0A 0C F5 C3
16:08:31.874 设备发送:05 03 04 04 00 01 C5 7F
16:08:32.684 设备接收:05 03 02 00 02 C8 45
16:08:32.699 设备发送:06 03 04 84 00 04 04 A7
16:08:33.478 设备接收:06 03 08 13 88 02 6F FF E7 02 70 93 FE
16:08:33.494 设备发送:06 03 04 8D 00 21 15 7E
16:08:34.322 设备接收:06 03 42 08 DD 03 C3 00 00 00 00 00 00 00 00 00 00 00 00 00 00 00 00 00 00 08 D9 03 CB 00 00 00 00 00 00 00 00 00 00 00 00 00 00 00 00 00 00 08 E3 03 F7 00 00 00 00 00 00 00 00 00 00 00 00 00 00 00 00 00 00 87 9B
16:08:34.337 设备发送:06 03 06 84 00 04 05 1F
16:08:35.134 设备接收:06 03 08 00 00 76 00 00 0D FE D9 94 CC
16:08:35.149 设备发送:06 03 04 04 00 01 C5 4C
16:08:35.953 设备接收:06 03 02 00 02 8C 45
16:08:36.027 设备发送:07 03 04 84 00 04 05 76
16:08:36.790 设备发送:07 03 04 84 00 04 05 76
16:08:37.616 设备发送:07 03 04 84 00 04 05 76
16:08:38.432 设备发送:07 03 04 8D 00 21 14 AF
16:08:39.256 设备发送:07 03 04 8D 00 21 14 AF
16:08:40.067 设备发送:07 03 04 8D 00 21 14 AF
16:08:40.877 设备发送:07 03 06 84 00 04 04 CE
16:08:41.706 设备发送:07 03 06 84 00 04 04 CE
16:08:42.517 设备发送:07 03 06 84 00 04 04 CE
16:08:43.346 设备发送:07 03 04 04 00 01 C4 9D
16:08:44.176 设备发送:07 03 04 04 00 01 C4 9D
16:08:44.987 设备发送:07 03 04 04 00 01 C4 9D
16:08:45.811 设备发送:08 03 04 84 00 04 05 89
16:08:46.621 设备发送:08 03 04 84 00 04 05 89
16:08:47.453 设备发送:08 03 04 84 00 04 05 89
16:08:48.264 设备发送:08 03 04 8D 00 21 14 50
16:08:49.107 设备发送:08 03 04 8D 00 21 14 50
16:08:49.920 设备发送:08 03 04 8D 00 21 14 50
16:08:50.727 设备发送:08 03 06 84 00 04 04 31
16:08:51.552 设备发送:08 03 06 84 00 04 04 31
16:08:52.380 设备发送:08 03 06 84 00 04 04 31
16:08:53.203 设备发送:08 03 04 04 00 01 C4 62
16:08:54.010 设备发送:08 03 04 04 00 01 C4 62
16:08:54.838 设备发送:08 03 04 04 00 01 C4 62
16:08:55.650 设备发送:09 03 04 84 00 04 04 58
16:08:56.478 设备发送:09 03 04 84 00 04 04 58
16:08:57.289 设备发送:09 03 04 84 00 04 04 58
16:08:58.118 设备发送:09 03 04 8D 00 21 15 81
16:08:58.929 设备发送:09 03 04 8D 00 21 15 81
16:08:59.770 设备发送:09 03 04 8D 00 21 15 81
16:09:00.554 设备发送:09 03 06 84 00 04 05 E0
16:09:01.398 设备发送:09 03 06 84 00 04 05 E0
16:09:02.208 设备发送:09 03 06 84 00 04 05 E0
16:09:03.018 设备发送:09 03 04 04 00 01 C5 B3
16:09:03.860 设备发送:09 03 04 04 00 01 C5 B3
16:09:04.690 设备发送:09 03 04 04 00 01 C5 B3
16:09:05.502 设备发送:0A 03 04 84 00 04 04 6B
16:09:06.313 设备发送:0A 03 04 84 00 04 04 6B
16:09:07.124 设备发送:0A 03 04 84 00 04 04 6B
16:09:07.954 设备发送:0A 03 04 8D 00 21 15 B2
16:09:08.768 设备发送:0A 03 04 8D 00 21 15 B2
16:09:09.599 设备发送:0A 03 04 8D 00 21 15 B2
16:09:10.413 设备发送:0A 03 06 84 00 04 05 D3
16:09:11.227 设备发送:0A 03 06 84 00 04 05 D3
16:09:12.037 设备发送:0A 03 06 84 00 04 05 D3
16:09:12.878 设备发送:0A 03 04 04 00 01 C5 80
16:09:13.688 设备发送:0A 03 04 04 00 01 C5 80
16:09:14.501 设备发送:0A 03 04 04 00 01 C5 80
16:09:15.342 设备发送:01 03 04 84 00 04 05 10
16:09:16.165 设备发送:01 03 04 84 00 04 05 10
16:09:16.977 设备发送:01 03 04 84 00 04 05 10
16:09:17.789 设备发送:01 03 04 8D 00 21 14 C9
16:09:18.616 设备发送:01 03 04 8D 00 21 14 C9
16:09:19.427 设备发送:01 03 04 8D 00 21 14 C9
16:09:20.254 设备发送:01 03 06 84 00 04 04 A8
16:09:21.064 设备发送:01 03 06 84 00 04 04 A8
16:09:21.910 设备发送:01 03 06 84 00 04 04 A8
16:09:22.723 设备发送:01 03 04 04 00 01 C4 FB
16:09:23.532 设备发送:01 03 04 04 00 01 C4 FB
16:09:24.358 设备发送:01 03 04 04 00 01 C4 FB
16:09:25.184 设备发送:02 03 04 84 00 04 05 23
16:09:25.994 设备发送:02 03 04 84 00 04 05 23
16:09:26.821 设备发送:02 03 04 84 00 04 05 23
16:09:27.631 设备发送:02 03 04 8D 00 21 14 FA
16:09:28.441 设备发送:02 03 04 8D 00 21 14 FA
16:09:29.286 设备发送:02 03 04 8D 00 21 14 FA
16:09:30.101 设备发送:02 03 06 84 00 04 04 9B
16:09:30.912 设备发送:02 03 06 84 00 04 04 9B
16:09:31.739 设备发送:02 03 06 84 00 04 04 9B
16:09:32.568 设备发送:02 03 04 04 00 01 C4 C8
16:09:33.380 设备发送:02 03 04 04 00 01 C4 C8
16:09:34.212 设备发送:02 03 04 04 00 01 C4 C8
16:09:35.025 设备发送:03 03 04 84 00 04 04 F2
16:09:35.838 设备发送:03 03 04 84 00 04 04 F2
16:09:36.649 设备发送:03 03 04 84 00 04 04 F2
16:09:37.460 设备发送:03 03 04 8D 00 21 15 2B
16:09:38.286 设备发送:03 03 04 8D 00 21 15 2B
16:09:39.112 设备发送:03 03 04 8D 00 21 15 2B
16:09:39.925 设备发送:03 03 06 84 00 04 05 4A
16:09:40.733 设备发送:03 03 06 84 00 04 05 4A
16:09:41.579 设备发送:03 03 06 84 00 04 05 4A
16:09:42.392 设备发送:03 03 04 04 00 01 C5 19
16:09:43.202 设备发送:03 03 04 04 00 01 C5 19
16:09:44.029 设备发送:03 03 04 04 00 01 C5 19
16:09:44.842 设备发送:04 03 04 84 00 04 05 45
16:09:45.670 设备接收:04 03 08 13 89 04 80 00 04 04 80 9F 31
16:09:45.685 设备发送:04 03 04 8D 00 21 14 9C
16:09:46.478 设备接收:04 03 42 08 DD 06 B7 00 00 00 00 00 00 00 00 00 00 00 00 00 00 00 00 00 00 08 D5 06 AB 00 00 00 00 00 00 00 00 00 00 00 00 00 00 00 00 00 00 08 E7 06 CC 00 00 00 00 00 00 00 00 00 00 00 00 00 00 00 00 00 00 27 06
16:09:46.494 设备发送:04 03 06 84 00 04 04 FD
16:09:47.311 设备接收:04 03 08 00 00 93 F1 00 10 A0 DC 9C F1
16:09:47.326 设备发送:04 03 04 04 00 01 C4 AE
16:09:48.122 设备发送:04 03 04 04 00 01 C4 AE
16:09:48.946 设备发送:05 03 04 84 00 04 04 94
16:09:48.962 设备接收:04 03 02 00 02 F5 85
16:09:49.743 设备接收:05 03 08 13 8A 03 B5 FF F8 03 B5 17 7D
16:09:49.760 设备发送:05 03 04 8D 00 21 15 4D
16:09:50.588 设备接收:05 03 42 08 DE 05 92 00 00 00 00 00 00 00 00 00 00 00 00 00 00 00 00 00 00 08 DE 05 83 00 00 00 00 00 00 00 00 00 00 00 00 00 00 00 00 00 00 08 E9 05 AE 00 00 00 00 00 00 00 00 00 00 00 00 00 00 00 00 00 00 A7 D1
16:09:50.605 设备发送:05 03 06 84 00 04 05 2C
16:09:51.411 设备接收:05 03 08 00 00 7B 7F 00 0E 0A 0E 79 C1
16:09:51.430 设备发送:05 03 04 04 00 01 C5 7F
16:09:52.226 设备接收:05 03 02 00 02 C8 45
16:09:52.257 设备发送:06 03 04 84 00 04 04 A7
16:09:53.025 设备接收:06 03 08 13 8B 02 5A 00 1A 02 5B CD 01
16:09:53.055 设备发送:06 03 04 8D 00 21 15 7E
16:09:53.897 设备接收:06 03 42 08 E2 03 9E 00 00 00 00 00 00 00 00 00 00 00 00 00 00 00 00 00 00 08 D8 03 AC 00 00 00 00 00 00 00 00 00 00 00 00 00 00 00 00 00 00 08 E6 03 D8 00 00 00 00 00 00 00 00 00 00 00 00 00 00 00 00 00 00 BE 2C
16:09:53.913 设备发送:06 03 06 84 00 04 05 1F
16:09:54.676 设备接收:06 03 08 00 00 76 0D 00 0D FE DB 38 CC
16:09:54.754 设备发送:06 03 04 04 00 01 C5 4C
16:09:55.503 设备接收:06 03 02 00 02 8C 45
16:09:55.518 设备发送:07 03 04 84 00 04 05 76
16:09:56.361 设备发送:07 03 04 84 00 04 05 76
16:09:57.172 设备发送:07 03 04 84 00 04 05 76
16:09:57.983 设备发送:07 03 04 8D 00 21 14 AF
16:09:58.797 设备发送:07 03 04 8D 00 21 14 AF
16:09:59.637 设备发送:07 03 04 8D 00 21 14 AF
16:10:00.444 设备发送:07 03 06 84 00 04 04 CE
16:10:01.256 设备发送:07 03 06 84 00 04 04 CE
16:10:02.083 设备发送:07 03 06 84 00 04 04 CE
16:10:02.896 设备发送:07 03 04 04 00 01 C4 9D
16:10:03.718 设备发送:07 03 04 04 00 01 C4 9D
16:10:04.545 设备发送:07 03 04 04 00 01 C4 9D
16:10:05.371 设备发送:08 03 04 84 00 04 05 89
16:10:06.186 设备发送:08 03 04 84 00 04 05 89
16:10:07.009 设备发送:08 03 04 84 00 04 05 89
16:10:07.834 设备发送:08 03 04 8D 00 21 14 50
16:10:08.660 设备发送:08 03 04 8D 00 21 14 50
16:10:09.475 设备发送:08 03 04 8D 00 21 14 50
16:10:10.283 设备发送:08 03 06 84 00 04 04 31
16:10:11.096 设备发送:08 03 06 84 00 04 04 31
16:10:11.922 设备发送:08 03 06 84 00 04 04 31
16:10:12.733 设备发送:08 03 04 04 00 01 C4 62
16:10:13.547 设备发送:08 03 04 04 00 01 C4 62
16:10:14.375 设备发送:08 03 04 04 00 01 C4 62
16:10:15.207 设备发送:09 03 04 84 00 04 04 58
16:10:16.035 设备发送:09 03 04 84 00 04 04 58
16:10:16.847 设备发送:09 03 04 84 00 04 04 58
16:10:17.653 设备发送:09 03 04 8D 00 21 15 81
16:10:18.479 设备发送:09 03 04 8D 00 21 15 81
16:10:19.291 设备发送:09 03 04 8D 00 21 15 81
16:10:20.102 设备发送:09 03 06 84 00 04 05 E0
16:10:20.931 设备发送:09 03 06 84 00 04 05 E0
16:10:21.757 设备发送:09 03 06 84 00 04 05 E0
16:10:22.584 设备发送:09 03 04 04 00 01 C5 B3
16:10:23.395 设备发送:09 03 04 04 00 01 C5 B3
16:10:24.222 设备发送:09 03 04 04 00 01 C5 B3
16:10:25.034 设备发送:0A 03 04 84 00 04 04 6B
16:10:25.850 设备发送:0A 03 04 84 00 04 04 6B
16:10:26.692 设备发送:0A 03 04 84 00 04 04 6B
16:10:27.503 设备发送:0A 03 04 8D 00 21 15 B2
16:10:28.314 设备发送:0A 03 04 8D 00 21 15 B2
16:10:29.140 设备发送:0A 03 04 8D 00 21 15 B2
16:10:29.969 设备发送:0A 03 06 84 00 04 05 D3
16:10:30.794 设备发送:0A 03 06 84 00 04 05 D3
16:10:31.606 设备发送:0A 03 06 84 00 04 05 D3
16:10:32.418 设备发送:0A 03 04 04 00 01 C5 80
16:10:33.229 设备发送:0A 03 04 04 00 01 C5 80
16:10:34.057 设备发送:0A 03 04 04 00 01 C5 80
16:10:34.868 设备发送:01 03 04 84 00 04 05 10
16:10:35.696 设备发送:01 03 04 84 00 04 05 10
16:10:36.507 设备发送:01 03 04 84 00 04 05 10
16:10:37.337 设备发送:01 03 04 8D 00 21 14 C9
16:10:38.149 设备发送:01 03 04 8D 00 21 14 C9
16:10:38.991 设备发送:01 03 04 8D 00 21 14 C9
16:10:39.804 设备发送:01 03 06 84 00 04 04 A8
16:10:40.628 设备发送:01 03 06 84 00 04 04 A8
16:10:41.441 设备发送:01 03 06 84 00 04 04 A8
16:10:42.268 设备发送:01 03 04 04 00 01 C4 FB
16:10:43.079 设备发送:01 03 04 04 00 01 C4 FB
16:10:43.905 设备发送:01 03 04 04 00 01 C4 FB
16:10:44.716 设备发送:02 03 04 84 00 04 05 23
16:10:45.543 设备发送:02 03 04 84 00 04 05 23
16:10:46.368 设备发送:02 03 04 84 00 04 05 23
16:10:47.183 设备发送:02 03 04 8D 00 21 14 FA
16:10:48.001 设备发送:02 03 04 8D 00 21 14 FA
16:10:48.830 设备发送:02 03 04 8D 00 21 14 FA
16:10:49.642 设备发送:02 03 06 84 00 04 04 9B
16:10:50.453 设备发送:02 03 06 84 00 04 04 9B
16:10:51.284 设备发送:02 03 06 84 00 04 04 9B
16:10:52.094 设备发送:02 03 04 04 00 01 C4 C8
16:10:52.906 设备发送:02 03 04 04 00 01 C4 C8
16:10:53.722 设备发送:02 03 04 04 00 01 C4 C8
16:10:54.561 设备发送:03 03 04 84 00 04 04 F2
16:10:55.371 设备发送:03 03 04 84 00 04 04 F2
16:10:56.182 设备发送:03 03 04 84 00 04 04 F2
16:10:57.008 设备发送:03 03 04 8D 00 21 15 2B
16:10:57.817 设备发送:03 03 04 8D 00 21 15 2B
16:10:58.659 设备发送:03 03 04 8D 00 21 15 2B
16:10:59.486 设备发送:03 03 06 84 00 04 05 4A
16:11:00.294 设备发送:03 03 06 84 00 04 05 4A
16:11:01.106 设备发送:03 03 06 84 00 04 05 4A
16:11:01.918 设备发送:03 03 04 04 00 01 C5 19
16:11:02.760 设备发送:03 03 04 04 00 01 C5 19
16:11:03.572 设备发送:03 03 04 04 00 01 C5 19
16:11:04.384 设备发送:04 03 04 84 00 04 05 45
16:11:05.187 设备接收:04 03 08 13 8A 04 39 FF F0 04 39 81 BE
16:11:05.248 设备发送:04 03 04 8D 00 21 14 9C
16:11:06.031 设备接收:04 03 42 08 E0 06 50 00 00 00 00 00 00 00 00 00 00 00 00 00 00 00 00 00 00 08 D6 06 41 00 00 00 00 00 00 00 00 00 00 00 00 00 00 00 00 00 00 08 E8 06 63 00 00 00 00 00 00 00 00 00 00 00 00 00 00 00 00 00 00 3D 2A
16:11:06.047 设备发送:04 03 06 84 00 04 04 FD
16:11:06.824 设备接收:04 03 08 00 00 94 09 00 10 A0 DE BD 53
16:11:06.874 设备发送:04 03 04 04 00 01 C4 AE
16:11:07.647 设备接收:04 03 02 00 02 F5 85
16:11:07.665 设备发送:05 03 04 84 00 04 04 94
16:11:08.475 设备接收:05 03 08 13 8A 03 7D FF FC 03 7D B6 FA
16:11:08.490 设备发送:05 03 04 8D 00 21 15 4D
16:11:09.303 设备接收:05 03 42 08 DC 05 3F 00 00 00 00 00 00 00 00 00 00 00 00 00 00 00 00 00 00 08 DC 05 3D 00 00 00 00 00 00 00 00 00 00 00 00 00 00 00 00 00 00 08 E7 05 68 00 00 00 00 00 00 00 00 00 00 00 00 00 00 00 00 00 00 3F FB
16:11:09.334 设备发送:05 03 06 84 00 04 05 2C
16:11:10.115 设备接收:05 03 08 00 00 7B 93 00 0E 0A 10 68 1E
16:11:10.146 设备发送:05 03 04 04 00 01 C5 7F
16:11:10.973 设备接收:05 03 02 00 02 C8 45
16:11:10.989 设备发送:06 03 04 84 00 04 04 A7
16:11:11.754 设备接收:06 03 08 13 89 02 43 00 1A 02 44 B2 CB
16:11:11.770 设备发送:06 03 04 8D 00 21 15 7E
16:11:12.566 设备接收:06 03 42 08 DD 03 76 00 00 00 00 00 00 00 00 00 00 00 00 00 00 00 00 00 00 08 D9 03 84 00 00 00 00 00 00 00 00 00 00 00 00 00 00 00 00 00 00 08 E6 03 B0 00 00 00 00 00 00 00 00 00 00 00 00 00 00 00 00 00 00 08 42
16:11:12.629 设备发送:06 03 06 84 00 04 05 1F
16:11:13.439 设备接收:06 03 08 00 00 76 1A 00 0D FE DC 0D 0D
16:11:13.453 设备发送:06 03 04 04 00 01 C5 4C
16:11:14.233 设备接收:06 03 02 00 02 8C 45
16:11:14.264 设备发送:07 03 04 84 00 04 05 76
16:11:15.056 设备发送:07 03 04 84 00 04 05 76
16:11:15.896 设备发送:07 03 04 84 00 04 05 76
16:11:16.710 设备发送:07 03 04 8D 00 21 14 AF
16:11:17.537 设备发送:07 03 04 8D 00 21 14 AF
16:11:18.350 设备发送:07 03 04 8D 00 21 14 AF
16:11:19.160 设备发送:07 03 06 84 00 04 04 CE
16:11:19.988 设备发送:07 03 06 84 00 04 04 CE
16:11:20.802 设备发送:07 03 06 84 00 04 04 CE
16:11:21.616 设备发送:07 03 04 04 00 01 C4 9D
16:11:22.463 设备发送:07 03 04 04 00 01 C4 9D
16:11:23.270 设备发送:07 03 04 04 00 01 C4 9D
16:11:24.097 设备发送:08 03 04 84 00 04 05 89
16:11:24.910 设备发送:08 03 04 84 00 04 05 89
16:11:25.719 设备发送:08 03 04 84 00 04 05 89
16:11:26.547 设备发送:08 03 04 8D 00 21 14 50
16:11:27.354 设备发送:08 03 04 8D 00 21 14 50
16:11:28.183 设备发送:08 03 04 8D 00 21 14 50
16:11:29.010 设备发送:08 03 06 84 00 04 04 31
16:11:29.821 设备发送:08 03 06 84 00 04 04 31
16:11:30.648 设备发送:08 03 06 84 00 04 04 31
16:11:31.461 设备发送:08 03 04 04 00 01 C4 62
16:11:32.286 设备发送:08 03 04 04 00 01 C4 62
16:11:33.095 设备发送:08 03 04 04 00 01 C4 62
16:11:33.936 设备发送:09 03 04 84 00 04 04 58
16:11:34.763 设备发送:09 03 04 84 00 04 04 58
16:11:35.572 设备发送:09 03 04 84 00 04 04 58
16:11:36.383 设备发送:09 03 04 8D 00 21 15 81
16:11:37.197 设备发送:09 03 04 8D 00 21 15 81
16:11:38.039 设备发送:09 03 04 8D 00 21 15 81
16:11:38.854 设备发送:09 03 06 84 00 04 05 E0
16:11:39.667 设备发送:09 03 06 84 00 04 05 E0
16:11:40.494 设备发送:09 03 06 84 00 04 05 E0
16:11:41.304 设备发送:09 03 04 04 00 01 C5 B3
16:11:42.147 设备发送:09 03 04 04 00 01 C5 B3
16:11:42.959 设备发送:09 03 04 04 00 01 C5 B3
16:11:43.768 设备发送:0A 03 04 84 00 04 04 6B
16:11:44.595 设备发送:0A 03 04 84 00 04 04 6B
16:11:45.420 设备发送:0A 03 04 84 00 04 04 6B
16:11:46.232 设备发送:0A 03 04 8D 00 21 15 B2
16:11:47.044 设备发送:0A 03 04 8D 00 21 15 B2
16:11:47.869 设备发送:0A 03 04 8D 00 21 15 B2
16:11:48.693 设备发送:0A 03 06 84 00 04 05 D3
16:11:49.522 设备发送:0A 03 06 84 00 04 05 D3
16:11:50.334 设备发送:0A 03 06 84 00 04 05 D3
16:11:51.145 设备发送:0A 03 04 04 00 01 C5 80
16:11:51.956 设备发送:0A 03 04 04 00 01 C5 80
16:11:52.787 设备发送:0A 03 04 04 00 01 C5 80
16:11:53.612 设备发送:01 03 04 84 00 04 05 10
16:11:54.424 设备发送:01 03 04 84 00 04 05 10
16:11:55.251 设备发送:01 03 04 84 00 04 05 10
16:11:56.076 设备发送:01 03 04 8D 00 21 14 C9
16:11:56.889 设备发送:01 03 04 8D 00 21 14 C9
16:11:57.715 设备发送:01 03 04 8D 00 21 14 C9
16:11:58.521 设备发送:01 03 06 84 00 04 04 A8
16:11:59.350 设备发送:01 03 06 84 00 04 04 A8
16:12:00.159 设备发送:01 03 06 84 00 04 04 A8
16:12:00.990 设备发送:01 03 04 04 00 01 C4 FB
16:12:01.801 设备发送:01 03 04 04 00 01 C4 FB
16:12:02.627 设备发送:01 03 04 04 00 01 C4 FB
16:12:03.452 设备发送:02 03 04 84 00 04 05 23
16:12:04.263 设备发送:02 03 04 84 00 04 05 23
16:12:05.089 设备发送:02 03 04 84 00 04 05 23
16:12:05.901 设备发送:02 03 04 8D 00 21 14 FA
16:12:06.728 设备发送:02 03 04 8D 00 21 14 FA
16:12:07.537 设备发送:02 03 04 8D 00 21 14 FA
16:12:08.349 设备发送:02 03 06 84 00 04 04 9B
16:12:09.193 设备发送:02 03 06 84 00 04 04 9B
16:12:10.008 设备发送:02 03 06 84 00 04 04 9B
16:12:10.820 设备发送:02 03 04 04 00 01 C4 C8
16:12:11.645 设备发送:02 03 04 04 00 01 C4 C8
16:12:12.459 设备发送:02 03 04 04 00 01 C4 C8
16:12:13.300 设备发送:03 03 04 84 00 04 04 F2
16:12:14.110 设备发送:03 03 04 84 00 04 04 F2
16:12:14.920 设备发送:03 03 04 84 00 04 04 F2
16:12:15.763 设备发送:03 03 04 8D 00 21 15 2B
16:12:16.579 设备发送:03 03 04 8D 00 21 15 2B
16:12:17.390 设备发送:03 03 04 8D 00 21 15 2B
16:12:18.203 设备发送:03 03 06 84 00 04 05 4A
16:12:19.027 设备发送:03 03 06 84 00 04 05 4A
16:12:19.854 设备发送:03 03 06 84 00 04 05 4A
16:12:20.664 设备发送:03 03 04 04 00 01 C5 19
16:12:21.505 设备发送:03 03 04 04 00 01 C5 19
16:12:22.316 设备发送:03 03 04 04 00 01 C5 19
16:12:23.130 设备发送:04 03 04 84 00 04 05 45
16:12:23.940 设备接收:04 03 08 13 88 04 02 00 06 04 02 D6 4E
16:12:23.956 设备发送:04 03 04 8D 00 21 14 9C
16:12:24.735 设备接收:04 03 42 08 DD 05 FA 00 00 00 00 00 00 00 00 00 00 00 00 00 00 00 00 00 00 08 DA 05 F9 00 00 00 00 00 00 00 00 00 00 00 00 00 00 00 00 00 00 08 E8 06 17 00 00 00 00 00 00 00 00 00 00 00 00 00 00 00 00 00 00 5B 2B
16:12:24.782 设备发送:04 03 06 84 00 04 04 FD
16:12:25.577 设备接收:04 03 08 00 00 94 21 00 10 A0 E1 9D 45
16:12:25.610 设备发送:04 03 04 04 00 01 C4 AE
16:12:26.409 设备接收:04 03 02 00 02 F5 85
16:12:26.425 设备发送:05 03 04 84 00 04 04 94
16:12:27.224 设备接收:05 03 08 13 89 03 52 00 00 03 52 E1 C4
16:12:27.240 设备发送:05 03 04 8D 00 21 15 4D
16:12:28.052 设备接收:05 03 42 08 DC 05 02 00 00 00 00 00 00 00 00 00 00 00 00 00 00 00 00 00 00 08 DE 04 FA 00 00 00 00 00 00 00 00 00 00 00 00 00 00 00 00 00 00 08 E8 05 27 00 00 00 00 00 00 00 00 00 00 00 00 00 00 00 00 00 00 6B A1
16:12:28.074 设备发送:05 03 06 84 00 04 05 2C
16:12:28.881 设备接收:05 03 08 00 00 7B A6 00 0E 0A 12 65 DB
16:12:28.896 设备发送:05 03 04 04 00 01 C5 7F
16:12:29.691 设备接收:05 03 02 00 02 C8 45
16:12:29.707 设备发送:06 03 04 84 00 04 04 A7
16:12:30.502 设备接收:06 03 08 13 88 02 30 00 18 02 30 06 27
16:12:30.517 设备发送:06 03 04 8D 00 21 15 7E
16:12:31.329 设备接收:06 03 42 08 DF 03 64 00 00 00 00 00 00 00 00 00 00 00 00 00 00 00 00 00 00 08 DC 03 6E 00 00 00 00 00 00 00 00 00 00 00 00 00 00 00 00 00 00 08 E8 03 98 00 00 00 00 00 00 00 00 00 00 00 00 00 00 00 00 00 00 A5 18
16:12:31.344 设备发送:06 03 06 84 00 04 05 1F
16:12:32.155 设备接收:06 03 08 00 00 76 27 00 0D FE DD A1 08
16:12:32.186 设备发送:06 03 04 04 00 01 C5 4C
16:12:32.982 设备接收:06 03 02 00 02 8C 45
16:12:33.001 设备发送:07 03 04 84 00 04 05 76
16:12:33.824 设备发送:07 03 04 84 00 04 05 76
16:12:34.642 设备发送:07 03 04 84 00 04 05 76
16:12:35.454 设备发送:07 03 04 8D 00 21 14 AF
16:12:36.263 设备发送:07 03 04 8D 00 21 14 AF
16:12:37.075 设备发送:07 03 04 8D 00 21 14 AF
16:12:37.902 设备发送:07 03 06 84 00 04 04 CE
16:12:38.712 设备发送:07 03 06 84 00 04 04 CE
16:12:39.542 设备发送:07 03 06 84 00 04 04 CE
16:12:40.353 设备发送:07 03 04 04 00 01 C4 9D
16:12:41.177 设备发送:07 03 04 04 00 01 C4 9D
16:12:42.005 设备发送:07 03 04 04 00 01 C4 9D
16:12:42.818 设备发送:08 03 04 84 00 04 05 89
16:12:43.659 设备发送:08 03 04 84 00 04 05 89
16:12:44.471 设备发送:08 03 04 84 00 04 05 89
16:12:45.286 设备发送:08 03 04 8D 00 21 14 50
16:12:46.095 设备发送:08 03 04 8D 00 21 14 50
16:12:46.932 设备发送:08 03 04 8D 00 21 14 50
16:12:47.742 设备发送:08 03 06 84 00 04 04 31
16:12:48.567 设备发送:08 03 06 84 00 04 04 31
16:12:49.379 设备发送:08 03 06 84 00 04 04 31
16:12:50.204 设备发送:08 03 04 04 00 01 C4 62
16:12:51.030 设备发送:08 03 04 04 00 01 C4 62
16:12:51.869 设备发送:08 03 04 04 00 01 C4 62
16:12:52.678 设备发送:09 03 04 84 00 04 04 58
16:12:53.490 设备发送:09 03 04 84 00 04 04 58
16:12:54.300 设备发送:09 03 04 84 00 04 04 58
16:12:55.128 设备发送:09 03 04 8D 00 21 15 81
16:12:55.940 设备发送:09 03 04 8D 00 21 15 81
16:12:56.767 设备发送:09 03 04 8D 00 21 15 81
16:12:57.578 设备发送:09 03 06 84 00 04 05 E0
16:12:58.406 设备发送:09 03 06 84 00 04 05 E0
16:12:59.215 设备发送:09 03 06 84 00 04 05 E0
16:13:00.044 设备发送:09 03 04 04 00 01 C5 B3
16:13:00.871 设备发送:09 03 04 04 00 01 C5 B3
16:13:01.693 设备发送:09 03 04 04 00 01 C5 B3
16:13:02.505 设备发送:0A 03 04 84 00 04 04 6B
16:13:03.331 设备发送:0A 03 04 84 00 04 04 6B
16:13:04.143 设备发送:0A 03 04 84 00 04 04 6B
16:13:04.953 设备发送:0A 03 04 8D 00 21 15 B2
16:13:05.799 设备发送:0A 03 04 8D 00 21 15 B2
16:13:06.608 设备发送:0A 03 04 8D 00 21 15 B2
16:13:07.420 设备发送:0A 03 06 84 00 04 05 D3
16:13:08.250 设备发送:0A 03 06 84 00 04 05 D3
16:13:09.062 设备发送:0A 03 06 84 00 04 05 D3
16:13:09.891 设备发送:0A 03 04 04 00 01 C5 80
16:13:10.703 设备发送:0A 03 04 04 00 01 C5 80
16:13:11.531 设备发送:0A 03 04 04 00 01 C5 80
16:13:12.359 设备发送:01 03 04 84 00 04 05 10
16:13:13.163 设备发送:01 03 04 84 00 04 05 10
16:13:13.990 设备发送:01 03 04 84 00 04 05 10
16:13:14.800 设备发送:01 03 04 8D 00 21 14 C9
16:13:15.643 设备发送:01 03 04 8D 00 21 14 C9
16:13:16.456 设备发送:01 03 04 8D 00 21 14 C9
16:13:17.269 设备发送:01 03 06 84 00 04 04 A8
16:13:18.079 设备发送:01 03 06 84 00 04 04 A8
16:13:18.919 设备发送:01 03 06 84 00 04 04 A8
16:13:19.732 设备发送:01 03 04 04 00 01 C4 FB
16:13:20.544 设备发送:01 03 04 04 00 01 C4 FB
16:13:21.355 设备发送:01 03 04 04 00 01 C4 FB
16:13:22.184 设备发送:02 03 04 84 00 04 05 23
16:13:23.013 设备发送:02 03 04 84 00 04 05 23
16:13:23.826 设备发送:02 03 04 84 00 04 05 23
16:13:24.641 设备发送:02 03 04 8D 00 21 14 FA
16:13:25.482 设备发送:02 03 04 8D 00 21 14 FA
16:13:26.293 设备发送:02 03 04 8D 00 21 14 FA
16:13:27.106 设备发送:02 03 06 84 00 04 04 9B
16:13:27.916 设备发送:02 03 06 84 00 04 04 9B
16:13:28.761 设备发送:02 03 06 84 00 04 04 9B
16:13:29.575 设备发送:02 03 04 04 00 01 C4 C8
16:13:30.399 设备发送:02 03 04 04 00 01 C4 C8
16:13:31.226 设备发送:02 03 04 04 00 01 C4 C8
16:13:32.039 设备发送:03 03 04 84 00 04 04 F2
16:13:32.852 设备发送:03 03 04 84 00 04 04 F2
16:13:33.663 设备发送:03 03 04 84 00 04 04 F2
16:13:34.489 设备发送:03 03 04 8D 00 21 15 2B
16:13:35.300 设备发送:03 03 04 8D 00 21 15 2B
16:13:36.126 设备发送:03 03 04 8D 00 21 15 2B
16:13:36.938 设备发送:03 03 06 84 00 04 05 4A
16:13:37.766 设备发送:03 03 06 84 00 04 05 4A
16:13:38.596 设备发送:03 03 06 84 00 04 05 4A
16:13:39.407 设备发送:03 03 04 04 00 01 C5 19
16:13:40.235 设备发送:03 03 04 04 00 01 C5 19
16:13:41.044 设备发送:03 03 04 04 00 01 C5 19
16:13:41.869 设备发送:04 03 04 84 00 04 05 45
16:13:42.679 设备接收:04 03 08 13 85 03 B0 00 00 03 B0 51 67
16:13:42.695 设备发送:04 03 04 8D 00 21 14 9C
16:13:43.506 设备发送:04 03 04 8D 00 21 14 9C
16:13:44.331 设备发送:04 03 04 8D 00 21 14 9C
16:13:45.140 设备接收:04 03 42 08 DF 05 85 00 00 00 00 00 00 00 00 00 00 00 00 00 00 00 00 00 00 08 D8 05 75 00 00 00 00 00 00 00 00 00 00 00 00 00 00 00 00 00 00 08 E7 05 97 00 00 00 00 00 00 00 00 00 00 00 00 00 00 00 00 00 00 EB 5A
16:13:45.156 设备发送:04 03 06 84 00 04 04 FD
16:13:45.966 设备接收:04 03 08 00 00 94 36 00 10 A0 E3 68 87
16:13:45.982 设备发送:04 03 04 04 00 01 C4 AE
16:13:46.765 设备接收:04 03 02 00 02 F5 85
16:13:46.812 设备发送:05 03 04 84 00 04 04 94
16:13:47.603 设备接收:05 03 08 13 85 03 01 00 00 03 01 E9 F5
16:13:47.618 设备发送:05 03 04 8D 00 21 15 4D
16:13:48.414 设备接收:05 03 42 08 DC 04 92 00 00 00 00 00 00 00 00 00 00 00 00 00 00 00 00 00 00 08 DC 04 84 00 00 00 00 00 00 00 00 00 00 00 00 00 00 00 00 00 00 08 E5 04 B2 00 00 00 00 00 00 00 00 00 00 00 00 00 00 00 00 00 00 49 7C
16:13:48.430 设备发送:05 03 06 84 00 04 05 2C
16:13:49.226 设备接收:05 03 08 00 00 7B B8 00 0E 0A 14 4D DB
16:13:49.273 设备发送:05 03 04 04 00 01 C5 7F
16:13:50.052 设备接收:05 03 02 00 02 C8 45
16:13:50.083 设备发送:06 03 04 84 00 04 04 A7
16:13:50.881 设备接收:06 03 08 13 85 02 18 00 1A 02 18 1B 3F
16:13:50.897 设备发送:06 03 04 8D 00 21 15 7E
16:13:51.693 设备接收:06 03 42 08 D9 03 50 00 00 00 00 00 00 00 00 00 00 00 00 00 00 00 00 00 00 08 DA 03 50 00 00 00 00 00 00 00 00 00 00 00 00 00 00 00 00 00 00 08 E5 03 74 00 00 00 00 00 00 00 00 00 00 00 00 00 00 00 00 00 00 59 7D
16:13:51.709 设备发送:06 03 06 84 00 04 05 1F
16:13:52.520 设备接收:06 03 08 00 00 76 33 00 0D FE DE D1 0A
16:13:52.535 设备发送:06 03 04 04 00 01 C5 4C
16:13:53.345 设备接收:06 03 02 00 02 8C 45
16:13:53.360 设备发送:07 03 04 84 00 04 05 76
16:13:54.161 设备接收:07 03 08 13 85 01 59 FF D8 01 66 32 C7
16:13:54.176 设备发送:07 03 04 8D 00 21 14 AF
16:13:54.972 设备接收:07 03 42 08 E8 02 09 00 00 00 00 00 00 00 00 00 00 00 00 00 00 00 00 00 00 08 E0 02 16 00 00 00 00 00 00 00 00 00 00 00 00 00 00 00 00 00 00 08 E4 02 08 00 00 00 00 00 00 00 00 00 00 00 00 00 00 00 00 00 00 6C E1
16:13:54.988 设备发送:07 03 06 84 00 04 04 CE
16:13:55.803 设备接收:07 03 08 00 00 41 2A 00 06 EE D5 F1 B6
16:13:55.818 设备发送:07 03 04 04 00 01 C4 9D
16:13:56.610 设备接收:07 03 02 00 02 B1 85
16:13:56.641 设备发送:08 03 04 84 00 04 05 89
16:13:57.454 设备接收:08 03 08 13 85 03 1A 00 00 03 1A F6 50
16:13:57.470 设备发送:08 03 04 8D 00 21 14 50
16:13:58.254 设备接收:08 03 42 08 D6 04 B9 00 00 00 00 00 00 00 00 00 00 00 00 00 00 00 00 00 00 08 D6 04 AC 00 00 00 00 00 00 00 00 00 00 00 00 00 00 00 00 00 00 08 E2 04 FD 00 00 00 00 00 00 00 00 00 00 00 00 00 00 00 00 00 00 49 22
16:13:58.330 设备发送:08 03 06 84 00 04 04 31
16:13:59.060 设备接收:08 03 08 00 00 89 AD 00 0F 1C 3D F0 D8
16:13:59.093 设备发送:08 03 04 04 00 01 C4 62
16:13:59.889 设备接收:08 03 02 00 02 E5 84
16:13:59.900 设备发送:09 03 04 84 00 04 04 58
16:14:00.710 设备接收:09 03 08 13 85 02 F2 00 01 02 F2 C3 74
16:14:00.742 设备发送:09 03 04 8D 00 21 15 81
16:14:01.552 设备接收:09 03 42 08 DC 04 69 00 00 00 00 00 00 00 00 00 00 00 00 00 00 00 00 00 00 08 D8 04 83 00 00 00 00 00 00 00 00 00 00 00 00 00 00 00 00 00 00 08 E4 04 99 00 00 00 00 00 00 00 00 00 00 00 00 00 00 00 00 00 00 11 C9
16:14:01.575 设备发送:09 03 06 84 00 04 05 E0
16:14:02.352 设备接收:09 03 08 00 00 7C 93 00 0D C0 21 31 8D
16:14:02.368 设备发送:09 03 04 04 00 01 C5 B3
16:14:03.182 设备接收:09 03 02 00 02 D8 44
16:14:03.200 设备发送:0A 03 04 84 00 04 04 6B
16:14:04.019 设备发送:0A 03 04 84 00 04 04 6B
16:14:04.847 设备发送:0A 03 04 84 00 04 04 6B
16:14:05.675 设备发送:0A 03 04 8D 00 21 15 B2
16:14:06.487 设备发送:0A 03 04 8D 00 21 15 B2
16:14:07.299 设备发送:0A 03 04 8D 00 21 15 B2
16:14:08.109 设备发送:0A 03 06 84 00 04 05 D3
16:14:08.933 设备发送:0A 03 06 84 00 04 05 D3
16:14:09.777 设备发送:0A 03 06 84 00 04 05 D3
16:14:10.587 设备发送:0A 03 04 04 00 01 C5 80
16:14:11.413 设备发送:0A 03 04 04 00 01 C5 80
16:14:12.227 设备发送:0A 03 04 04 00 01 C5 80
16:14:13.054 设备发送:01 03 04 84 00 04 05 10
16:14:13.866 设备发送:01 03 04 84 00 04 05 10
16:14:14.679 设备发送:01 03 04 84 00 04 05 10
16:14:15.488 设备发送:01 03 04 8D 00 21 14 C9
16:14:16.332 设备发送:01 03 04 8D 00 21 14 C9
16:14:17.141 设备发送:01 03 04 8D 00 21 14 C9
16:14:17.972 设备发送:01 03 06 84 00 04 04 A8
16:14:18.781 设备发送:01 03 06 84 00 04 04 A8
16:14:19.593 设备发送:01 03 06 84 00 04 04 A8
16:14:20.422 设备发送:01 03 04 04 00 01 C4 FB
16:14:21.264 设备发送:01 03 04 04 00 01 C4 FB
16:14:22.059 设备发送:01 03 04 04 00 01 C4 FB
16:14:22.885 设备发送:02 03 04 84 00 04 05 23
16:14:23.712 设备发送:02 03 04 84 00 04 05 23
16:14:24.539 设备发送:02 03 04 84 00 04 05 23
16:14:25.351 设备发送:02 03 04 8D 00 21 14 FA
16:14:26.163 设备发送:02 03 04 8D 00 21 14 FA
16:14:26.971 设备发送:02 03 04 8D 00 21 14 FA
16:14:27.817 设备发送:02 03 06 84 00 04 04 9B
16:14:28.629 设备发送:02 03 06 84 00 04 04 9B
16:14:29.458 设备发送:02 03 06 84 00 04 04 9B
16:14:30.269 设备发送:02 03 04 04 00 01 C4 C8
16:14:31.081 设备发送:02 03 04 04 00 01 C4 C8
16:14:31.910 设备发送:02 03 04 04 00 01 C4 C8
16:14:32.721 设备发送:03 03 04 84 00 04 04 F2
16:14:33.549 设备发送:03 03 04 84 00 04 04 F2
16:14:34.361 设备发送:03 03 04 84 00 04 04 F2
16:14:35.167 设备发送:03 03 04 8D 00 21 15 2B
16:14:36.023 设备发送:03 03 04 8D 00 21 15 2B
16:14:36.832 设备发送:03 03 04 8D 00 21 15 2B
16:14:37.647 设备发送:03 03 06 84 00 04 05 4A
16:14:38.460 设备发送:03 03 06 84 00 04 05 4A
16:14:39.274 设备发送:03 03 06 84 00 04 05 4A
16:14:40.114 设备发送:03 03 04 04 00 01 C5 19
16:14:40.929 设备发送:03 03 04 04 00 01 C5 19
16:14:41.740 设备发送:03 03 04 04 00 01 C5 19
16:14:42.568 设备发送:04 03 04 84 00 04 05 45
16:14:43.350 设备接收:04 03 08 13 88 03 7B FF E2 03 7B F9 C2
16:14:43.384 设备发送:04 03 04 8D 00 21 14 9C
16:14:44.194 设备发送:04 03 04 8D 00 21 14 9C
16:14:45.006 设备接收:04 03 42 08 D7 05 3C 00 00 00 00 00 00 00 00 00 00 00 00 00 00 00 00 00 00 08 D0 05 33 00 00 00 00 00 00 00 00 00 00 00 00 00 00 00 00 00 00 08 DF 05 55 00 00 00 00 00 00 00 00 00 00 00 00 00 00 00 00 00 00 C6 66
16:14:45.022 设备发送:04 03 06 84 00 04 04 FD
16:14:45.865 设备发送:04 03 06 84 00 04 04 FD
16:14:46.645 设备接收:04 03 08 00 00 94 45 00 10 A0 E4 2C 8E
16:14:46.661 设备发送:04 03 04 04 00 01 C4 AE
16:14:47.451 设备接收:04 03 02 00 02 F5 85
16:14:47.498 设备发送:05 03 04 84 00 04 04 94
16:14:48.292 设备接收:05 03 08 13 88 02 BE 00 18 02 BF 20 D8
16:14:48.323 设备发送:05 03 04 8D 00 21 15 4D
16:14:49.104 设备接收:05 03 42 08 D6 04 30 00 00 00 00 00 00 00 00 00 00 00 00 00 00 00 00 00 00 08 D5 04 2B 00 00 00 00 00 00 00 00 00 00 00 00 00 00 00 00 00 00 08 E0 04 5A 00 00 00 00 00 00 00 00 00 00 00 00 00 00 00 00 00 00 FE A0
16:14:49.151 设备发送:05 03 06 84 00 04 05 2C
16:14:49.917 设备接收:05 03 08 00 00 7B C5 00 0E 0A 15 E0 11
16:14:49.964 设备发送:05 03 04 04 00 01 C5 7F
16:14:50.759 设备接收:05 03 02 00 02 C8 45
16:14:50.775 设备发送:06 03 04 84 00 04 04 A7
16:14:51.570 设备接收:06 03 08 13 88 02 06 FF FC 02 06 3E 16
16:14:51.586 设备发送:06 03 04 8D 00 21 15 7E
16:14:52.398 设备接收:06 03 42 08 DC 03 1F 00 00 00 00 00 00 00 00 00 00 00 00 00 00 00 00 00 00 08 D7 03 2C 00 00 00 00 00 00 00 00 00 00 00 00 00 00 00 00 00 00 08 E3 03 59 00 00 00 00 00 00 00 00 00 00 00 00 00 00 00 00 00 00 02 D7
16:14:52.413 设备发送:06 03 06 84 00 04 05 1F
16:14:53.210 设备接收:06 03 08 00 00 76 3C 00 0D FE DF 44 CB
16:14:53.226 设备发送:06 03 04 04 00 01 C5 4C
16:14:54.054 设备接收:06 03 02 00 02 8C 45
16:14:54.070 设备发送:07 03 04 84 00 04 05 76
16:14:54.852 设备接收:07 03 08 13 88 01 4D FF D8 01 5A DE 15
16:14:54.867 设备发送:07 03 04 8D 00 21 14 AF
16:14:55.680 设备接收:07 03 42 08 E6 01 F5 00 00 00 00 00 00 00 00 00 00 00 00 00 00 00 00 00 00 08 DD 02 00 00 00 00 00 00 00 00 00 00 00 00 00 00 00 00 00 00 00 08 E5 01 F4 00 00 00 00 00 00 00 00 00 00 00 00 00 00 00 00 00 00 12 FA
16:14:55.695 设备发送:07 03 06 84 00 04 04 CE
16:14:56.493 设备接收:07 03 08 00 00 41 30 00 06 EE D6 E8 75
16:14:56.509 设备发送:07 03 04 04 00 01 C4 9D
16:14:57.340 设备接收:07 03 02 00 02 B1 85
16:14:57.356 设备发送:08 03 04 84 00 04 05 89
16:14:58.152 设备接收:08 03 08 13 89 02 ED FF E5 02 EE EF A0
16:14:58.167 设备发送:08 03 04 8D 00 21 14 50
16:14:58.965 设备接收:08 03 42 08 D9 04 79 00 00 00 00 00 00 00 00 00 00 00 00 00 00 00 00 00 00 08 D4 04 67 00 00 00 00 00 00 00 00 00 00 00 00 00 00 00 00 00 00 08 E0 04 BB 00 00 00 00 00 00 00 00 00 00 00 00 00 00 00 00 00 00 65 A8
16:14:58.981 设备发送:08 03 06 84 00 04 04 31
16:14:59.789 设备接收:08 03 08 00 00 89 BA 00 0F 1C 3E C4 DA
16:14:59.805 设备发送:08 03 04 04 00 01 C4 62
16:15:00.632 设备发送:08 03 04 04 00 01 C4 62
16:15:01.442 设备发送:08 03 04 04 00 01 C4 62
16:15:02.272 设备发送:09 03 04 84 00 04 04 58
16:15:03.084 设备发送:09 03 04 84 00 04 04 58
16:15:03.896 设备发送:09 03 04 84 00 04 04 58
16:15:04.724 设备发送:09 03 04 8D 00 21 15 81
16:15:05.540 设备发送:09 03 04 8D 00 21 15 81
16:15:06.351 设备发送:09 03 04 8D 00 21 15 81
16:15:07.191 设备发送:09 03 06 84 00 04 05 E0
16:15:08.018 设备发送:09 03 06 84 00 04 05 E0
16:15:08.828 设备发送:09 03 06 84 00 04 05 E0
16:15:09.655 设备发送:09 03 04 04 00 01 C5 B3
16:15:10.469 设备发送:09 03 04 04 00 01 C5 B3
16:15:11.282 设备发送:09 03 04 04 00 01 C5 B3
16:15:12.109 设备发送:0A 03 04 84 00 04 04 6B
16:15:12.920 设备发送:0A 03 04 84 00 04 04 6B
16:15:13.762 设备发送:0A 03 04 84 00 04 04 6B
16:15:14.571 设备发送:0A 03 04 8D 00 21 15 B2
16:15:15.382 设备发送:0A 03 04 8D 00 21 15 B2
16:15:16.195 设备发送:0A 03 04 8D 00 21 15 B2
16:15:17.020 设备发送:0A 03 06 84 00 04 05 D3
16:15:17.828 设备发送:0A 03 06 84 00 04 05 D3
16:15:18.670 设备发送:0A 03 06 84 00 04 05 D3
16:15:19.472 设备发送:0A 03 04 04 00 01 C5 80
16:15:20.288 设备发送:0A 03 04 04 00 01 C5 80
16:15:21.126 设备发送:0A 03 04 04 00 01 C5 80
16:15:21.950 设备发送:01 03 04 84 00 04 05 10

