
10:20:34.852 设备发送:07 03 04 04 00 01 C4 9D
10:20:36.862 设备发送:07 03 04 04 00 01 C4 9D
10:20:38.885 设备发送:07 03 04 04 00 01 C4 9D
10:20:40.922 设备发送:08 03 04 84 00 04 05 89
10:20:42.934 设备发送:08 03 04 84 00 04 05 89
10:20:44.952 设备发送:08 03 04 84 00 04 05 89
10:20:46.966 设备发送:08 03 04 8D 00 21 14 50
10:20:49.000 设备发送:08 03 04 8D 00 21 14 50
10:20:51.002 设备发送:08 03 04 8D 00 21 14 50
10:20:53.025 设备发送:08 03 06 84 00 04 04 31
10:20:55.061 设备发送:08 03 06 84 00 04 04 31
10:20:57.056 设备发送:08 03 06 84 00 04 04 31
10:20:59.083 设备发送:08 03 04 04 00 01 C4 62
10:21:01.101 设备发送:08 03 04 04 00 01 C4 62
10:21:03.127 设备发送:08 03 04 04 00 01 C4 62
10:21:05.145 设备发送:09 03 04 84 00 04 04 58
10:21:07.188 设备发送:09 03 04 84 00 04 04 58
10:21:09.169 设备发送:09 03 04 84 00 04 04 58
10:21:11.201 设备发送:09 03 04 8D 00 21 15 81
10:21:13.243 设备发送:09 03 04 8D 00 21 15 81
10:21:15.264 设备发送:09 03 04 8D 00 21 15 81
10:21:17.276 设备发送:09 03 06 84 00 04 05 E0
10:21:19.305 设备发送:09 03 06 84 00 04 05 E0
10:21:21.319 设备发送:09 03 06 84 00 04 05 E0
10:21:23.346 设备发送:09 03 04 04 00 01 C5 B3
10:21:25.342 设备发送:09 03 04 04 00 01 C5 B3
10:21:27.370 设备发送:09 03 04 04 00 01 C5 B3
10:21:29.416 设备发送:0A 03 04 84 00 04 04 6B
10:21:31.410 设备发送:0A 03 04 84 00 04 04 6B
10:21:33.445 设备发送:0A 03 04 84 00 04 04 6B
10:21:35.455 设备发送:0A 03 04 8D 00 21 15 B2
10:21:37.470 设备发送:0A 03 04 8D 00 21 15 B2
10:21:39.471 设备发送:0A 03 04 8D 00 21 15 B2
10:21:41.503 设备发送:0A 03 06 84 00 04 05 D3
10:21:43.529 设备发送:0A 03 06 84 00 04 05 D3
10:21:45.563 设备发送:0A 03 06 84 00 04 05 D3
10:21:47.581 设备发送:0A 03 04 04 00 01 C5 80
10:21:49.579 设备发送:0A 03 04 04 00 01 C5 80
10:21:51.620 设备发送:0A 03 04 04 00 01 C5 80
10:21:53.628 设备发送:01 03 04 84 00 04 05 10
10:21:55.659 设备发送:01 03 04 84 00 04 05 10
10:21:57.669 设备发送:01 03 04 84 00 04 05 10
10:21:59.697 设备发送:01 03 04 8D 00 21 14 C9
10:22:01.697 设备接收:01 03 42 09 06 0F 84 00 00 00 00 00 00 00 00 00 00 00 00 00 00 00 00 00 00 09 0D 0F 93 00 00 00 00 00 00 00 00 00 00 00 00 00 00 00 00 00 00 09 10 0F A5 00 00 00 00 00 00 00 00 00 00 00 00 00 00 00 00 00 00 87 0D
10:22:01.712 设备发送:01 03 06 84 00 04 04 A8
10:22:03.738 设备发送:01 03 06 84 00 04 04 A8
10:22:05.767 设备发送:01 03 06 84 00 04 04 A8
10:22:07.779 设备发送:01 03 04 04 00 01 C4 FB
10:22:09.793 设备发送:01 03 04 04 00 01 C4 FB
10:22:11.810 设备发送:01 03 04 04 00 01 C4 FB

