11:35:39.257 设备接收:01 03 0A 09 2A 2D CE 00 00 00 00 00 00 FF B5
11:35:39.273 设备发送:01 03 06 84 00 04 04 A8
11:35:44.300 设备接收:01 03 08 00 00 40 6C 00 13 31 B4 EF 3C
11:35:44.339 设备发送:01 03 04 04 00 01 C4 FB
11:35:49.332 设备接收:01 03 02 00 02 39 85
11:35:49.348 设备发送:01 03 05 84 00 0F 45 2B
11:35:54.388 设备接收:01 03 1E 1F 39 06 BE 05 64 1E C4 06 E3 05 6C 1E EE 06 CB 05 61 1E F0 06 DB 05 6E 16 CF 03 7F 02 0B D2 3F
11:35:54.403 设备发送:01 03 05 93 00 0F F5 2F
11:35:59.410 设备接收:01 03 1E 00 00 00 00 00 00 19 D2 07 2B 04 BD 1B CA 03 84 02 80 1B C1 03 8E 02 86 00 00 00 04 00 00 AB 32
11:35:59.425 设备发送:01 03 05 A2 00 0F A4 E0
11:36:04.409 设备接收:01 03 1E 00 00 00 00 00 00 00 00 00 00 00 00 00 00 00 00 00 00 00 00 00 00 00 00 00 00 00 00 00 00 D8 BA
11:36:04.424 设备发送:01 03 05 B1 00 03 55 20
11:36:09.450 设备接收:01 03 06 00 00 00 00 00 00 21 75
11:36:09.466 设备发送:01 03 04 2B 00 01 F5 32
11:36:14.487 设备接收:01 03 02 02 CE 38 B0
11:36:14.503 设备发送:01 03 04 20 00 01 84 F0
11:36:19.502 设备接收:01 03 02 00 21 78 5C
11:36:19.523 设备发送:01 03 04 05 00 01 95 3B
11:36:24.518 设备接收:01 03 02 00 00 B8 44
11:36:24.533 设备发送:02 03 04 84 00 04 05 23
11:36:29.569 设备接收:02 03 08 13 89 1E CA FF C0 1E CB 20 F3
11:36:29.601 设备发送:02 03 04 8D 00 05 14 E1
11:36:34.595 设备接收:02 03 0A 09 10 2B EB 00 00 00 00 00 00 24 3F
11:36:34.627 设备发送:02 03 04 98 00 05 05 25
11:36:39.625 设备接收:02 03 0A 09 3B 2B F8 00 00 00 00 00 00 EC 0F
11:36:39.640 设备发送:02 03 04 A3 00 05 74 E8
11:36:44.643 设备接收:02 03 0A 09 24 2B E5 00 00 00 00 00 00 AD 3E
11:36:44.674 设备发送:02 03 06 84 00 04 04 9B
11:36:49.683 设备接收:02 03 08 00 00 3D CD 00 13 79 DD A1 A2
11:36:49.715 设备发送:02 03 04 04 00 01 C4 C8
11:36:54.713 设备接收:02 03 02 00 02 7D 85
11:36:54.743 设备发送:02 03 05 84 00 0F 45 18
11:36:59.742 设备接收:02 03 1E 1E CB 03 5D 02 A6 1E 74 03 5F 02 A1 1E B2 03 61 02 A7 1E E8 06 A9 05 45 1E 98 03 55 02 9C 56 DE
11:36:59.757 设备发送:02 03 05 93 00 0F F5 1C
11:37:04.771 设备接收:02 03 1E 1E 6B 03 55 02 98 1E C4 03 5C 02 A5 1E BE 06 D3 05 5F 1E 8C 03 6C 02 AD 1E C6 03 7C 02 BF 16 18
11:37:04.800 设备发送:02 03 05 A2 00 0F A4 D3
11:37:09.806 设备接收:02 03 1E 00 00 00 04 00 00 00 00 00 00 00 00 00 00 00 00 00 00 00 00 00 00 00 00 00 00 00 00 00 00 92 31
11:37:09.821 设备发送:02 03 05 B1 00 03 55 13
11:37:14.802 设备接收:02 03 06 00 00 00 00 00 00 35 85
11:37:14.831 设备发送:02 03 04 2B 00 01 F5 01
11:37:19.824 设备接收:02 03 02 02 C9 3D 72
11:37:19.869 设备发送:02 03 04 20 00 01 84 C3
11:37:24.873 设备接收:02 03 02 00 47 BC 76
11:37:24.889 设备发送:02 03 04 05 00 01 95 08
11:37:29.914 设备接收:02 03 02 00 00 FC 44
11:37:29.930 设备发送:03 03 04 84 00 04 04 F2
11:37:34.910 设备接收:03 03 08 13 8A 21 09 FF B8 21 09 46 69
11:37:34.989 设备发送:03 03 04 8D 00 05 15 30
11:37:39.977 设备接收:03 03 0A 09 12 2E CA 00 00 00 00 00 00 CE E3
11:37:40.017 设备发送:03 03 04 98 00 05 04 F4
11:37:45.040 设备接收:03 03 0A 09 42 2E C1 00 00 00 00 00 00 88 20
11:37:45.052 设备发送:03 03 04 A3 00 05 75 39
11:37:50.051 设备接收:03 03 0A 09 29 2E CC 00 00 00 00 00 00 8F D2
11:37:50.083 设备发送:03 03 06 84 00 04 05 4A
11:37:55.111 设备接收:03 03 08 00 00 46 E1 00 14 04 79 AF F9
11:37:55.126 设备发送:03 03 04 04 00 01 C5 19
11:38:00.119 设备接收:03 03 02 00 02 40 45
11:38:00.134 设备发送:03 03 05 84 00 0F 44 C9
11:38:05.137 设备接收:03 03 1E 1E EC 07 2E 05 AF 1E A5 07 38 05 AA 1E 6F 07 22 05 8F 1E C5 07 13 05 93 16 A8 07 3B 04 32 BA 5B
11:38:05.147 设备发送:03 03 05 93 00 0F F4 CD
11:38:10.173 设备接收:03 03 1E 05 10 00 00 00 00 13 88 04 94 02 4A 1B 76 03 9E 02 8B 1B 38 03 A5 02 8A 05 16 00 00 00 00 76 55
11:38:10.181 设备发送:03 03 05 A2 00 0F A5 02
11:38:15.194 设备接收:03 03 1E 00 0D 00 00 00 00 00 00 00 00 00 00 00 00 00 00 00 00 00 00 00 00 00 00 00 00 00 00 00 00 C1 72
11:38:15.246 设备发送:03 03 05 B1 00 03 54 C2
11:38:20.253 设备接收:03 03 06 00 00 00 00 00 00 38 15
11:38:20.272 设备发送:03 03 04 2B 00 01 F4 D0
11:38:25.298 设备接收:03 03 02 02 D1 00 B8
11:38:25.307 设备发送:03 03 04 20 00 01 85 12
11:38:30.323 设备接收:03 03 02 00 23 80 5D
11:38:30.334 设备发送:03 03 04 05 00 01 94 D9
11:38:35.318 设备接收:03 03 02 00 00 C1 84
11:38:35.363 设备发送:01 03 04 84 00 04 05 10
11:38:40.354 设备接收:01 03 08 13 8B 20 73 FF BE 20 73 E5 78
11:38:40.397 设备发送:01 03 04 8D 00 05 14 D2
11:38:45.378 设备接收:01 03 0A 09 15 2E 1D 00 00 00 00 00 00 48 9C
11:38:45.431 设备发送:01 03 04 98 00 05 05 16
11:38:50.436 设备接收:01 03 0A 09 3E 2E 18 00 00 00 00 00 00 F7 6D
11:38:50.448 设备发送:01 03 04 A3 00 05 74 DB
11:38:55.460 设备接收:01 03 0A 09 2F 2E 02 00 00 00 00 00 00 8C FC
11:38:55.473 设备发送:01 03 06 84 00 04 04 A8
11:39:00.501 设备接收:01 03 08 00 00 42 2F 00 13 31 E1 6B 2E
11:39:00.511 设备发送:01 03 04 04 00 01 C4 FB
11:39:05.536 设备接收:01 03 02 00 02 39 85
11:39:05.552 设备发送:01 03 05 84 00 0F 45 2B
11:39:10.528 设备接收:01 03 1E 1E C5 06 E4 05 6D 1E EF 06 E2 05 73 1E F1 06 D3 05 68 1E CB 06 E9 05 73 16 D2 03 85 02 0E 6C 3F
11:39:10.569 设备发送:01 03 05 93 00 0F F5 2F
11:39:15.570 设备接收:01 03 1E 00 00 00 00 00 00 19 D3 07 2F 04 C0 1B 53 03 97 02 83 1B 9A 03 99 02 8B 00 00 00 06 00 00 09 28
11:39:15.583 设备发送:01 03 05 A2 00 0F A4 E0
11:39:20.593 设备接收:01 03 1E 00 00 00 00 00 00 00 00 00 00 00 00 00 00 00 00 00 00 00 00 00 00 00 00 00 00 00 00 00 00 D8 BA
11:39:20.614 设备发送:01 03 05 B1 00 03 55 20
11:39:25.630 设备接收:01 03 06 00 00 00 00 00 00 21 75
11:39:25.650 设备发送:01 03 04 2B 00 01 F5 32
11:39:30.638 设备接收:01 03 02 02 CE 38 B0
11:39:30.657 设备发送:01 03 04 20 00 01 84 F0
11:39:35.676 设备接收:01 03 02 00 21 78 5C
11:39:35.686 设备发送:01 03 04 05 00 01 95 3B
11:39:40.718 设备接收:01 03 02 00 00 B8 44
11:39:40.730 设备发送:02 03 04 84 00 04 05 23
11:39:45.736 设备接收:02 03 08 13 88 1E DE FF C0 1E DE C1 FF
11:39:45.748 设备发送:02 03 04 8D 00 05 14 E1
11:39:50.748 设备接收:02 03 0A 09 15 2B CD 00 00 00 00 00 00 5C AD
11:39:50.788 设备发送:02 03 04 98 00 05 05 25
11:39:55.787 设备接收:02 03 0A 09 3E 2B D6 00 00 00 00 00 00 1D 5D
11:39:55.840 设备发送:02 03 04 A3 00 05 74 E8
11:40:00.831 设备接收:02 03 0A 09 27 2B C6 00 00 00 00 00 00 AB 0C
11:40:00.876 设备发送:02 03 06 84 00 04 04 9B
11:40:05.886 设备接收:02 03 08 00 00 3F 7C 00 13 7A 08 1D 35
11:40:05.906 设备发送:02 03 04 04 00 01 C4 C8
11:40:10.902 设备接收:02 03 02 00 02 7D 85
11:40:10.912 设备发送:02 03 05 84 00 0F 45 18
11:40:15.908 设备接收:02 03 1E 1E CC 03 5C 02 A6 1E 74 03 5D 02 9F 1E 8A 03 63 02 A5 1E E9 06 A0 05 3E 1E C2 03 4E 02 9A F5 7B
11:40:15.953 设备发送:02 03 05 93 00 0F F5 1C
11:40:20.951 设备接收:02 03 1E 1E 94 03 4F 02 97 1E 74 03 63 02 A4 1E BF 06 CB 05 59 1E 65 03 6C 02 AA 1E 9E 03 7E 02 BC EF 72
11:40:20.975 设备发送:02 03 05 A2 00 0F A4 D3
11:40:25.976 设备接收:02 03 1E 00 00 00 04 00 00 00 00 00 00 00 00 00 00 00 00 00 00 00 00 00 00 00 00 00 00 00 00 00 00 92 31
11:40:26.017 设备发送:02 03 05 B1 00 03 55 13
11:40:31.007 设备接收:02 03 06 00 00 00 00 00 00 35 85
11:40:31.046 设备发送:02 03 04 2B 00 01 F5 01
11:40:36.055 设备接收:02 03 02 02 C9 3D 72
11:40:36.064 设备发送:02 03 04 20 00 01 84 C3
11:40:41.046 设备接收:02 03 02 00 47 BC 76
11:40:41.098 设备发送:02 03 04 05 00 01 95 08
11:40:46.096 设备接收:02 03 02 00 00 FC 44
11:40:46.105 设备发送:03 03 04 84 00 04 04 F2
11:40:51.099 设备接收:03 03 08 13 8B 20 D1 FF 3F 20 D3 47 49
11:40:51.152 设备发送:03 03 04 8D 00 05 15 30
11:40:56.154 设备接收:03 03 0A 09 12 2E A4 00 00 00 00 00 00 41 25
11:40:56.176 设备发送:03 03 04 98 00 05 04 F4
11:41:01.176 设备接收:03 03 0A 09 44 2E 9A 00 00 00 00 00 00 49 45
11:41:01.217 设备发送:03 03 04 A3 00 05 75 39
11:41:06.224 设备接收:03 03 0A 09 2C 2E 99 00 00 00 00 00 00 B5 87
11:41:06.236 设备发送:03 03 06 84 00 04 05 4A
11:41:11.243 设备接收:03 03 08 00 00 48 AD 00 14 04 A7 3F 41
11:41:11.262 设备发送:03 03 04 04 00 01 C5 19
11:41:16.271 设备接收:03 03 02 00 02 40 45
11:41:16.283 设备发送:03 03 05 84 00 0F 44 C9
11:41:21.294 设备接收:03 03 1E 1E C7 07 30 05 AA 1E A7 07 33 05 A6 1E 9A 07 1E 05 93 1E 78 07 28 05 95 16 AE 07 31 04 2D 4A 6C
11:41:21.313 设备发送:03 03 05 93 00 0F F4 CD
11:41:26.334 设备接收:03 03 1E 05 0D 00 00 00 00 13 7D 04 A2 02 4F 1B 4E 03 A3 02 8A 1B 38 03 A4 02 8A 05 10 00 00 00 00 34 FA
11:41:26.356 设备发送:03 03 05 A2 00 0F A5 02
11:41:31.407 设备接收:03 03 1E 00 0C 00 00 00 00 00 00 00 00 00 00 00 00 00 00 00 00 00 00 00 00 00 00 00 00 00 00 00 00 01 73
11:41:31.413 设备发送:03 03 05 B1 00 03 54 C2
11:41:36.415 设备接收:03 03 06 00 00 00 00 00 00 38 15
11:41:36.425 设备发送:03 03 04 2B 00 01 F4 D0
11:41:41.457 设备接收:03 03 02 02 D1 00 B8
11:41:41.478 设备发送:03 03 04 20 00 01 85 12
11:41:46.490 设备接收:03 03 02 00 23 80 5D
11:41:46.501 设备发送:03 03 04 05 00 01 94 D9
11:41:51.485 设备接收:03 03 02 00 00 C1 84
11:41:51.507 设备发送:01 03 04 84 00 04 05 10
11:41:56.510 设备接收:01 03 08 13 8C 20 5A FF BF 20 5A 5E 60
11:41:56.551 设备发送:01 03 04 8D 00 05 14 D2
11:42:01.564 设备接收:01 03 0A 09 17 2D EB 00 00 00 00 00 00 87 E6
11:42:01.579 设备发送:01 03 04 98 00 05 05 16
11:42:06.586 设备接收:01 03 0A 09 3F 2E 0B 00 00 00 00 00 00 D8 3C
11:42:06.599 设备发送:01 03 04 A3 00 05 74 DB
11:42:11.614 设备接收:01 03 0A 09 31 2E 13 00 00 00 00 00 00 0C 5D
11:42:11.637 设备发送:01 03 06 84 00 04 04 A8
11:42:16.644 设备接收:01 03 08 00 00 43 F1 00 13 32 0E 83 90
11:42:16.663 设备发送:01 03 04 04 00 01 C4 FB
11:42:21.679 设备接收:01 03 02 00 02 39 85
11:42:21.700 设备发送:01 03 05 84 00 0F 45 2B
11:42:26.711 设备接收:01 03 1E 1E EA 06 E5 05 75 1E C6 06 FD 05 82 1E 9F 06 F6 05 75 1E C9 06 FF 05 83 16 80 03 95 02 10 1E 98
11:42:26.733 设备发送:01 03 05 93 00 0F F5 2F
11:42:31.728 设备接收:01 03 1E 00 00 00 00 00 00 19 D5 07 48 04 D0 1B 7B 03 9C 02 8A 1B 9A 03 A2 02 91 00 00 00 04 00 00 8C 86
11:42:31.768 设备发送:01 03 05 A2 00 0F A4 E0
11:42:36.783 设备接收:01 03 1E 00 00 00 00 00 00 00 00 00 00 00 00 00 00 00 00 00 00 00 00 00 00 00 00 00 00 00 00 00 00 D8 BA
11:42:36.804 设备发送:01 03 05 B1 00 03 55 20
11:42:41.800 设备接收:01 03 06 00 00 00 00 00 00 21 75
11:42:41.850 设备发送:01 03 04 2B 00 01 F5 32
11:42:46.869 设备接收:01 03 02 02 CE 38 B0
11:42:46.881 设备发送:01 03 04 20 00 01 84 F0
11:42:51.888 设备接收:01 03 02 00 21 78 5C
11:42:51.905 设备发送:01 03 04 05 00 01 95 3B
11:42:56.931 设备接收:01 03 02 00 00 B8 44
11:42:56.940 设备发送:02 03 04 84 00 04 05 23
11:43:01.924 设备接收:02 03 08 13 8B 1F 45 00 33 1F 45 16 EE
11:43:01.976 设备发送:02 03 04 8D 00 05 14 E1
11:43:06.966 设备接收:02 03 0A 09 17 2C 67 00 00 00 00 00 00 0E 21
11:43:06.976 设备发送:02 03 04 98 00 05 05 25
11:43:12.006 设备接收:02 03 0A 09 3F 2C 75 00 00 00 00 00 00 C2 21
11:43:12.029 设备发送:02 03 04 A3 00 05 74 E8
11:43:17.014 设备接收:02 03 0A 09 2A 2C 5A 00 00 00 00 00 00 EE 73
11:43:17.053 设备发送:02 03 06 84 00 04 04 9B
11:43:22.070 设备接收:02 03 08 00 00 41 2E 00 13 7A 33 EF 34
11:43:22.091 设备发送:02 03 04 04 00 01 C4 C8
11:43:27.125 设备接收:02 03 02 00 02 7D 85
11:43:27.147 设备发送:02 03 05 84 00 0F 45 18
11:43:32.132 设备接收:02 03 1E 1F 19 03 5F 02 AF 1E C4 03 60 02 A8 1E 5F 03 73 02 AF 1E E6 06 B7 05 50 1E 6F 03 63 02 A3 08 77
11:43:32.153 设备发送:02 03 05 93 00 0F F5 1C
11:43:37.157 设备接收:02 03 1E 1E 95 03 59 02 9F 1E C5 03 61 02 A9 1E 99 06 ED 05 6D 1E 65 03 76 02 B1 1E 9E 03 86 02 C3 4E 8D
11:43:37.200 设备发送:02 03 05 A2 00 0F A4 D3
11:43:42.215 设备接收:02 03 1E 00 00 00 03 00 00 00 00 00 00 00 00 00 00 00 00 00 00 00 00 00 00 00 00 00 00 00 00 00 00 6D 7D
11:43:42.233 设备发送:02 03 05 B1 00 03 55 13
11:43:47.221 设备接收:02 03 06 00 00 00 00 00 00 35 85
11:43:47.275 设备发送:02 03 04 2B 00 01 F5 01
11:43:52.256 设备接收:02 03 02 02 C9 3D 72
11:43:52.276 设备发送:02 03 04 20 00 01 84 C3
11:43:57.273 设备接收:02 03 02 00 47 BC 76
11:43:57.345 设备发送:02 03 04 05 00 01 95 08
11:44:02.344 设备接收:02 03 02 00 00 FC 44
11:44:02.365 设备发送:03 03 04 84 00 04 04 F2
11:44:07.385 设备接收:03 03 08 13 8C 21 1F 00 3D 21 1F C9 99
11:44:07.428 设备发送:03 03 04 8D 00 05 15 30
11:44:12.414 设备接收:03 03 0A 09 15 2E F0 00 00 00 00 00 00 72 D0
11:44:12.423 设备发送:03 03 04 98 00 05 04 F4
11:44:17.439 设备接收:03 03 0A 09 43 2E E5 00 00 00 00 00 00 E1 B2
11:44:17.461 设备发送:03 03 04 A3 00 05 75 39
11:44:22.490 设备接收:03 03 0A 09 2F 2E F9 00 00 00 00 00 00 C1 71
11:44:22.499 设备发送:03 03 06 84 00 04 05 4A
11:44:27.519 设备接收:03 03 08 00 00 4A 7D 00 14 04 D5 7F 54
11:44:27.532 设备发送:03 03 04 04 00 01 C5 19
11:44:32.548 设备接收:03 03 02 00 02 40 45
11:44:32.556 设备发送:03 03 05 84 00 0F 44 C9
11:44:37.550 设备接收:03 03 1E 1E EC 07 3B 05 B9 1E A6 07 4A 05 B8 1E 70 07 31 05 9A 1E C6 07 24 05 A0 16 85 07 56 04 3A 44 71
11:44:37.624 设备发送:03 03 05 93 00 0F F4 CD
11:44:42.612 设备接收:03 03 1E 05 11 00 00 00 00 13 81 04 A7 02 53 1B 75 03 A7 02 91 1B 37 03 AC 02 8F 05 16 00 00 00 00 21 CC
11:44:42.654 设备发送:03 03 05 A2 00 0F A5 02
11:44:47.650 设备接收:03 03 1E 00 0D 00 00 00 00 00 00 00 00 00 00 00 00 00 00 00 00 00 00 00 00 00 00 00 00 00 00 00 00 C1 72
11:44:47.691 设备发送:03 03 05 B1 00 03 54 C2
11:44:52.706 设备接收:03 03 06 00 00 00 00 00 00 38 15
11:44:53.074 设备发送:03 03 04 2B 00 01 F4 D0
11:44:58.098 设备接收:03 03 02 02 D1 00 B8
11:44:58.110 设备发送:03 03 04 20 00 01 85 12
11:45:03.097 设备接收:03 03 02 00 23 80 5D
11:45:03.106 设备发送:03 03 04 05 00 01 94 D9
11:45:08.122 设备接收:03 03 02 00 00 C1 84
11:45:08.144 设备发送:01 03 04 84 00 04 05 10
11:45:13.140 设备接收:01 03 08 13 8A 20 94 FF BE 20 94 81 E4
11:45:13.191 设备发送:01 03 04 8D 00 05 14 D2
11:45:18.178 设备接收:01 03 0A 09 16 2E 3E 00 00 00 00 00 00 4E AE
11:45:18.198 设备发送:01 03 04 98 00 05 05 16
11:45:23.234 设备接收:01 03 0A 09 3F 2E 31 00 00 00 00 00 00 42 3F
11:45:23.245 设备发送:01 03 04 A3 00 05 74 DB
11:45:28.238 设备接收:01 03 0A 09 2E 2E 13 00 00 00 00 00 00 80 6D
11:45:28.278 设备发送:01 03 06 84 00 04 04 A8
11:45:33.288 设备接收:01 03 08 00 00 45 BA 00 13 32 3C A6 2D
11:45:33.309 设备发送:01 03 04 04 00 01 C4 FB
11:45:38.312 设备接收:01 03 02 00 02 39 85
11:45:38.334 设备发送:01 03 05 84 00 0F 45 2B
11:45:43.354 设备接收:01 03 1E 1F 12 06 CF 05 6B 1E ED 06 E1 05 72 1E EE 06 D1 05 65 1E CB 06 F1 05 79 16 CF 03 80 02 0B D0 32
11:45:43.375 设备发送:01 03 05 93 00 0F F5 2F
11:45:48.376 设备接收:01 03 1E 00 00 00 00 00 00 19 D4 07 31 04 C1 1B 7B 03 91 02 82 1B C2 03 92 02 89 00 00 00 05 00 00 3E 67
11:45:48.385 设备发送:01 03 05 A2 00 0F A4 E0
11:45:53.379 设备接收:01 03 1E 00 00 00 00 00 00 00 00 00 00 00 00 00 00 00 00 00 00 00 00 00 00 00 00 00 00 00 00 00 00 D8 BA
11:45:53.431 设备发送:01 03 05 B1 00 03 55 20
11:45:58.442 设备接收:01 03 06 00 00 00 00 00 00 21 75
11:45:58.462 设备发送:01 03 04 2B 00 01 F5 32
11:46:03.450 设备接收:01 03 02 02 CE 38 B0
11:46:03.470 设备发送:01 03 04 20 00 01 84 F0
11:46:08.482 设备接收:01 03 02 00 21 78 5C
11:46:08.500 设备发送:01 03 04 05 00 01 95 3B
11:46:13.484 设备接收:01 03 02 00 00 B8 44
11:46:13.504 设备发送:02 03 04 84 00 04 05 23
11:46:18.531 设备接收:02 03 08 13 85 1F 04 FF 4D 1F 06 D4 DC
11:46:18.541 设备发送:02 03 04 8D 00 05 14 E1
11:46:23.554 设备接收:02 03 0A 09 18 2C 13 00 00 00 00 00 00 7B D6
11:46:23.565 设备发送:02 03 04 98 00 05 05 25
11:46:28.580 设备接收:02 03 0A 09 42 2C 4F 00 00 00 00 00 00 65 70
11:46:28.601 设备发送:02 03 04 A3 00 05 74 E8
11:46:33.627 设备接收:02 03 0A 09 25 2C 57 00 00 00 00 00 00 73 43
11:46:33.648 设备发送:02 03 06 84 00 04 04 9B
11:46:38.658 设备接收:02 03 08 00 00 42 E0 00 13 7A 5F 86 FA
11:46:38.667 设备发送:02 03 04 04 00 01 C4 C8
11:46:43.681 设备接收:02 03 02 00 02 7D 85
11:46:43.692 设备发送:02 03 05 84 00 0F 45 18
11:46:48.702 设备接收:02 03 1E 1E CD 03 68 02 AF 1E C5 03 62 02 AA 1E 64 03 75 02 B0 1E C3 06 C3 05 53 1E C4 03 5A 02 A4 C5 2F
11:46:48.722 设备发送:02 03 05 93 00 0F F5 1C
11:46:53.721 设备接收:02 03 1E 1E 94 03 5B 02 A0 1E 74 03 6E 02 AC 1E 98 06 F3 05 71 1E B5 03 73 02 B6 1E ED 03 7D 02 C3 3A 63
11:46:53.742 设备发送:02 03 05 A2 00 0F A4 D3
11:46:58.759 设备接收:02 03 1E 00 00 00 04 00 00 00 00 00 00 00 00 00 00 00 00 00 00 00 00 00 00 00 00 00 00 00 00 00 00 92 31
11:46:58.769 设备发送:02 03 05 B1 00 03 55 13
11:47:03.784 设备接收:02 03 06 00 00 00 00 00 00 35 85
11:47:03.793 设备发送:02 03 04 2B 00 01 F5 01
11:47:08.798 设备接收:02 03 02 02 C9 3D 72
11:47:08.817 设备发送:02 03 04 20 00 01 84 C3
11:47:13.839 设备接收:02 03 02 00 48 FC 72
11:47:13.859 设备发送:02 03 04 05 00 01 95 08
11:47:18.866 设备接收:02 03 02 00 00 FC 44
11:47:18.875 设备发送:03 03 04 84 00 04 04 F2
11:47:23.887 设备接收:03 03 08 13 84 21 6E 00 36 21 6E 8D B4
11:47:23.907 设备发送:03 03 04 8D 00 05 15 30
11:47:28.919 设备接收:03 03 0A 09 15 2F 97 00 00 00 00 00 00 A5 DA
11:47:28.939 设备发送:03 03 04 98 00 05 04 F4
11:47:33.947 设备接收:03 03 0A 09 44 2F 57 00 00 00 00 00 00 94 45
11:47:33.967 设备发送:03 03 04 A3 00 05 75 39
11:47:38.985 设备接收:03 03 0A 09 2C 2F 84 00 00 00 00 00 00 B9 4A
11:47:38.995 设备发送:03 03 06 84 00 04 05 4A
11:47:43.998 设备接收:03 03 08 00 00 4C 4E 00 14 05 04 BA FA
11:47:44.043 设备发送:03 03 04 04 00 01 C5 19
11:47:49.028 设备接收:03 03 02 00 02 40 45
11:47:49.050 设备发送:03 03 05 84 00 0F 44 C9
11:47:54.071 设备接收:03 03 1E 1E 9E 07 59 05 C2 1E CD 07 4A 05 BF 1E 6F 07 3A 05 A2 1E 77 07 42 05 A9 16 86 07 61 04 41 3E 8D
11:47:54.081 设备发送:03 03 05 93 00 0F F4 CD
11:47:59.088 设备接收:03 03 1E 05 0E 00 00 00 00 13 77 04 B4 02 58 1B 4C 03 B1 02 94 1B 37 03 B3 02 94 05 11 00 00 00 00 8C 31
11:47:59.099 设备发送:03 03 05 A2 00 0F A5 02
11:48:04.107 设备接收:03 03 1E 00 0D 00 00 00 00 00 00 00 00 00 00 00 00 00 00 00 00 00 00 00 00 00 00 00 00 00 00 00 00 C1 72
11:48:04.148 设备发送:03 03 05 B1 00 03 54 C2
11:48:09.169 设备接收:03 03 06 00 00 00 00 00 00 38 15
11:48:09.180 设备发送:03 03 04 2B 00 01 F4 D0
11:48:14.191 设备接收:03 03 02 02 D1 00 B8
11:48:14.202 设备发送:03 03 04 20 00 01 85 12
11:48:19.199 设备接收:03 03 02 00 23 80 5D
11:48:19.240 设备发送:03 03 04 05 00 01 94 D9
11:48:24.238 设备接收:03 03 02 00 00 C1 84
11:48:24.250 设备发送:01 03 04 84 00 04 05 10
11:48:29.251 设备接收:01 03 08 13 86 20 C6 FF BD 20 C7 44 15
11:48:29.305 设备发送:01 03 04 8D 00 05 14 D2
11:48:34.284 设备接收:01 03 0A 09 18 2E 7F 00 00 00 00 00 00 53 CA
11:48:34.307 设备发送:01 03 04 98 00 05 05 16
11:48:39.336 设备接收:01 03 0A 09 40 2E 8B 00 00 00 00 00 00 7D C6
11:48:39.356 设备发送:01 03 04 A3 00 05 74 DB
11:48:44.335 设备接收:01 03 0A 09 30 2E 73 00 00 00 00 00 00 61 CB
11:48:44.390 设备发送:01 03 06 84 00 04 04 A8
11:48:49.374 设备接收:01 03 08 00 00 47 81 00 13 32 69 82 35
11:48:49.416 设备发送:01 03 04 04 00 01 C4 FB
11:48:54.397 设备接收:01 03 02 00 02 39 85
11:48:54.440 设备发送:01 03 05 84 00 0F 45 2B
11:48:59.448 设备接收:01 03 1E 1E C3 06 F5 05 7A 1E C6 07 04 05 86 1E C8 06 F5 05 7B 1E CC 07 08 05 8B 16 A9 03 93 02 13 B1 2A
11:48:59.469 设备发送:01 03 05 93 00 0F F5 2F
11:49:04.454 设备接收:01 03 1E 00 00 00 00 00 00 19 D6 07 4F 04 D6 1B 54 03 A6 02 8D 1B 72 03 A8 02 92 00 00 00 05 00 00 DA F2
11:49:04.475 设备发送:01 03 05 A2 00 0F A4 E0
11:49:09.485 设备接收:01 03 1E 00 00 00 00 00 00 00 00 00 00 00 00 00 00 00 00 00 00 00 00 00 00 00 00 00 00 00 00 00 00 D8 BA
11:49:09.505 设备发送:01 03 05 B1 00 03 55 20
11:49:14.527 设备接收:01 03 06 00 00 00 00 00 00 21 75
11:49:14.546 设备发送:01 03 04 2B 00 01 F5 32
11:49:19.524 设备接收:01 03 02 02 CE 38 B0
11:49:19.574 设备发送:01 03 04 20 00 01 84 F0
11:49:24.576 设备接收:01 03 02 00 21 78 5C
11:49:24.585 设备发送:01 03 04 05 00 01 95 3B
11:49:29.578 设备接收:01 03 02 00 00 B8 44
11:49:29.618 设备发送:02 03 04 84 00 04 05 23
11:49:34.612 设备接收:02 03 08 13 8B 1F 60 FF BF 1F 60 6B 0D
11:49:34.653 设备发送:02 03 04 8D 00 05 14 E1
11:49:39.667 设备接收:02 03 0A 09 17 2C 7E 00 00 00 00 00 00 86 E0
11:49:39.679 设备发送:02 03 04 98 00 05 05 25
11:49:44.689 设备接收:02 03 0A 09 43 2C AB 00 00 00 00 00 00 CC EE
11:49:44.712 设备发送:02 03 04 A3 00 05 74 E8
11:49:49.719 设备接收:02 03 0A 09 28 2C AD 00 00 00 00 00 00 71 DC
11:49:49.727 设备发送:02 03 06 84 00 04 04 9B
11:49:54.733 设备接收:02 03 08 00 00 44 93 00 13 7A 8A 42 C8
11:49:54.754 设备发送:02 03 04 04 00 01 C4 C8
11:49:59.766 设备接收:02 03 02 00 02 7D 85
11:49:59.785 设备发送:02 03 05 84 00 0F 45 18
11:50:04.783 设备接收:02 03 1E 1E A6 03 76 02 B7 1E C6 03 6A 02 B0 1E 8C 03 76 02 B5 1E EA 06 CA 05 5F 1E EA 03 5D 02 AA 83 0A
11:50:04.802 设备发送:02 03 05 93 00 0F F5 1C
11:50:09.828 设备接收:02 03 1E 1E 44 03 6A 02 A5 1E 9C 03 6F 02 B1 1E 70 07 08 05 7B 1E 8B 03 7C 02 B9 1E 9D 03 8D 02 C9 87 5E
11:50:09.839 设备发送:02 03 05 A2 00 0F A4 D3
11:50:14.839 设备接收:02 03 1E 00 00 00 04 00 00 00 00 00 00 00 00 00 00 00 00 00 00 00 00 00 00 00 00 00 00 00 00 00 00 92 31
11:50:14.881 设备发送:02 03 05 B1 00 03 55 13
11:50:19.867 设备接收:02 03 06 00 00 00 00 00 00 35 85
11:50:19.920 设备发送:02 03 04 2B 00 01 F5 01
11:50:24.911 设备接收:02 03 02 02 C9 3D 72
11:50:24.922 设备发送:02 03 04 20 00 01 84 C3
11:50:29.931 设备接收:02 03 02 00 48 FC 72
11:50:29.970 设备发送:02 03 04 05 00 01 95 08
11:50:34.961 设备接收:02 03 02 00 00 FC 44
11:50:35.003 设备发送:03 03 04 84 00 04 04 F2
11:50:40.000 设备接收:03 03 08 13 8B 21 9A 00 3A 21 9B C3 25
11:50:40.022 设备发送:03 03 04 8D 00 05 15 30
11:50:45.029 设备接收:03 03 0A 09 17 2F BD 00 00 00 00 00 00 37 78
11:50:45.078 设备发送:03 03 04 98 00 05 04 F4
11:50:50.088 设备接收:03 03 0A 09 4A 2F 98 00 00 00 00 00 00 E7 29
11:50:50.100 设备发送:03 03 04 A3 00 05 75 39
11:50:55.105 设备接收:03 03 0A 09 34 2F B1 00 00 00 00 00 00 76 49
11:50:55.114 设备发送:03 03 06 84 00 04 05 4A
11:51:00.137 设备接收:03 03 08 00 00 4E 1E 00 14 05 32 FB 02
11:51:00.150 设备发送:03 03 04 04 00 01 C5 19
11:51:05.168 设备接收:03 03 02 00 02 40 45
11:51:05.188 设备发送:03 03 05 84 00 0F 44 C9
11:51:10.205 设备接收:03 03 1E 1E 9B 07 66 05 CC 1E A7 07 62 05 CB 1E 6F 07 4B 05 AF 1E C7 07 3F 05 B6 16 AA 07 61 04 48 88 21
11:51:10.216 设备发送:03 03 05 93 00 0F F4 CD
11:51:15.208 设备接收:03 03 1E 05 0C 00 00 00 00 13 75 04 DA 02 6A 1B 73 03 B2 02 99 1B 35 03 BA 02 98 05 13 00 00 00 00 80 E7
11:51:15.248 设备发送:03 03 05 A2 00 0F A5 02
11:51:20.252 设备接收:03 03 1E 00 0E 00 00 00 00 00 00 00 00 00 00 00 00 00 00 00 00 00 00 00 00 00 00 00 00 00 00 00 00 81 70
11:51:20.274 设备发送:03 03 05 B1 00 03 54 C2
11:51:25.266 设备接收:03 03 06 00 00 00 00 00 00 38 15
11:51:25.322 设备发送:03 03 04 2B 00 01 F4 D0
11:51:30.289 设备接收:03 03 02 02 D1 00 B8
11:51:30.340 设备发送:03 03 04 20 00 01 85 12
11:51:35.338 设备接收:03 03 02 00 23 80 5D
11:51:35.349 设备发送:03 03 04 05 00 01 94 D9
11:51:40.362 设备接收:03 03 02 00 00 C1 84
11:51:40.384 设备发送:01 03 04 84 00 04 05 10
11:51:45.406 设备接收:01 03 08 13 8B 21 2D FF BB 21 2D DD 0D
11:51:45.421 设备发送:01 03 04 8D 00 05 14 D2
11:51:50.432 设备接收:01 03 0A 09 1D 2E E8 00 00 00 00 00 00 8A 53
11:51:50.452 设备发送:01 03 04 98 00 05 05 16
11:51:55.448 设备接收:01 03 0A 09 48 2E F6 00 00 00 00 00 00 B7 01
11:51:55.469 设备发送:01 03 04 A3 00 05 74 DB
11:52:00.496 设备接收:01 03 0A 09 36 2E F2 00 00 00 00 00 00 DB 63
11:52:00.506 设备发送:01 03 06 84 00 04 04 A8
11:52:05.511 设备接收:01 03 08 00 00 49 4D 00 13 32 97 12 8B
11:52:05.520 设备发送:01 03 04 04 00 01 C4 FB
11:52:10.544 设备接收:01 03 02 00 02 39 85
11:52:10.553 设备发送:01 03 05 84 00 0F 45 2B
11:52:15.576 设备接收:01 03 1E 1E C5 07 0A 05 8B 1E C7 07 1A 05 98 1E ED 07 00 05 8B 1E C9 07 1C 05 9B 16 80 03 A5 02 19 81 0A
11:52:15.588 设备发送:01 03 05 93 00 0F F5 2F
11:52:20.601 设备接收:01 03 1E 00 00 00 00 00 00 19 FE 07 59 04 E3 1B 7C 03 A9 02 93 1B 9C 03 AD 02 99 00 00 00 05 00 00 CF DB
11:52:20.611 设备发送:01 03 05 A2 00 0F A4 E0
11:52:25.613 设备接收:01 03 1E 00 00 00 00 00 00 00 00 00 00 00 00 00 00 00 00 00 00 00 00 00 00 00 00 00 00 00 00 00 00 D8 BA
11:52:25.634 设备发送:01 03 05 B1 00 03 55 20
11:52:30.665 设备接收:01 03 06 00 00 00 00 00 00 21 75
11:52:30.687 设备发送:01 03 04 2B 00 01 F5 32
11:52:35.691 设备接收:01 03 02 02 CE 38 B0
11:52:35.701 设备发送:01 03 04 20 00 01 84 F0
11:52:40.727 设备接收:01 03 02 00 22 38 5D
11:52:40.747 设备发送:01 03 04 05 00 01 95 3B
11:52:45.753 设备接收:01 03 02 00 00 B8 44
11:52:45.765 设备发送:02 03 04 84 00 04 05 23
11:52:50.780 设备接收:02 03 08 13 86 1F AE FF BF 1F AE 5F 89
11:52:50.821 设备发送:02 03 04 8D 00 05 14 E1
11:52:55.804 设备接收:02 03 0A 09 1E 2C EF 00 00 00 00 00 00 6C 79
11:52:55.825 设备发送:02 03 04 98 00 05 05 25
11:53:00.843 设备接收:02 03 0A 09 46 2D 04 00 00 00 00 00 00 6D 78
11:53:00.888 设备发送:02 03 04 A3 00 05 74 E8
11:53:05.874 设备接收:02 03 0A 09 31 2C EF 00 00 00 00 00 00 B4 48
11:53:05.916 设备发送:02 03 06 84 00 04 04 9B
11:53:10.913 设备接收:02 03 08 00 00 46 4D 00 13 7A B6 EB 28
11:53:10.934 设备发送:02 03 04 04 00 01 C4 C8
11:53:15.943 设备接收:02 03 02 00 02 7D 85
11:53:15.964 设备发送:02 03 05 84 00 0F 45 18
11:53:20.970 设备接收:02 03 1E 1E F5 03 77 02 BF 1E C5 03 73 02 B8 1E 8B 03 7F 02 BC 1E E9 06 DC 05 6E 1E C2 03 6C 02 B2 34 FA
11:53:20.989 设备发送:02 03 05 93 00 0F F5 1C
11:53:26.014 设备接收:02 03 1E 1E 95 03 67 02 AA 1E 75 03 7B 02 B7 1E 98 07 14 05 8B 1E B5 03 7F 02 BF 1E 75 03 99 02 CE 41 47
11:53:26.023 设备发送:02 03 05 A2 00 0F A4 D3
11:53:31.040 设备接收:02 03 1E 00 00 00 04 00 00 00 00 00 00 00 00 00 00 00 00 00 00 00 00 00 00 00 00 00 00 00 00 00 00 92 31
11:53:31.060 设备发送:02 03 05 B1 00 03 55 13
11:53:36.055 设备接收:02 03 06 00 00 00 00 00 00 35 85
11:53:36.085 设备发送:02 03 04 2B 00 01 F5 01
11:53:41.084 设备接收:02 03 02 02 C9 3D 72
11:53:41.135 设备发送:02 03 04 20 00 01 84 C3
11:53:46.114 设备接收:02 03 02 00 49 3D B2
11:53:46.168 设备发送:02 03 04 05 00 01 95 08
11:53:51.160 设备接收:02 03 02 00 00 FC 44
11:53:51.178 设备发送:03 03 04 84 00 04 04 F2
11:53:56.183 设备接收:03 03 08 13 8B 21 C1 FF B8 21 C1 B6 EF
11:53:56.203 设备发送:03 03 04 8D 00 05 15 30
11:54:01.201 设备接收:03 03 0A 09 17 2F E0 00 00 00 00 00 00 BB BD
11:54:01.284 设备发送:03 03 04 98 00 05 04 F4
11:54:06.268 设备接收:03 03 0A 09 46 2F D7 00 00 00 00 00 00 0C ED
11:54:06.288 设备发送:03 03 04 A3 00 05 75 39
11:54:11.289 设备接收:03 03 0A 09 31 2F E4 00 00 00 00 00 00 4C 1C
11:54:11.331 设备发送:03 03 06 84 00 04 05 4A
11:54:16.342 设备接收:03 03 08 00 00 4F F7 00 14 05 62 A7 38
11:54:16.372 设备发送:03 03 04 04 00 01 C5 19
11:54:21.360 设备接收:03 03 02 00 02 40 45
11:54:21.380 设备发送:03 03 05 84 00 0F 44 C9
11:54:26.392 设备接收:03 03 1E 1E C3 07 6A 05 D6 1E A7 07 6C 05 D3 1E 99 07 49 05 B5 1E A0 07 51 05 BC 16 85 07 7D 04 51 69 AA
11:54:26.443 设备发送:03 03 05 93 00 0F F4 CD
11:54:31.434 设备接收:03 03 1E 05 10 00 00 00 00 13 84 04 C0 02 5F 1B 4D 03 BE 02 9D 1B 87 03 B1 02 9A 05 16 00 00 00 00 CE BA
11:54:31.444 设备发送:03 03 05 A2 00 0F A5 02
11:54:36.486 设备接收:03 03 1E 00 0D 00 00 00 00 00 00 00 00 00 00 00 00 00 00 00 00 00 00 00 00 00 00 00 00 00 00 00 00 C1 72
11:54:36.505 设备发送:03 03 05 B1 00 03 54 C2
11:54:41.491 设备接收:03 03 06 00 00 00 00 00 00 38 15
11:54:41.503 设备发送:03 03 04 2B 00 01 F4 D0
11:54:46.531 设备接收:03 03 02 02 D1 00 B8
11:54:46.571 设备发送:03 03 04 20 00 01 85 12
11:54:51.596 设备接收:03 03 02 00 24 C1 9F
11:54:51.607 设备发送:03 03 04 05 00 01 94 D9
11:54:56.595 设备接收:03 03 02 00 00 C1 84
11:54:56.634 设备发送:01 03 04 84 00 04 05 10
11:55:01.635 设备接收:01 03 08 13 8C 21 4A FF BA 21 4B 4F EF
11:55:01.655 设备发送:01 03 04 8D 00 05 14 D2
11:55:06.652 设备接收:01 03 0A 09 1B 2F 24 00 00 00 00 00 00 6C 33
11:55:06.725 设备发送:01 03 04 98 00 05 05 16
11:55:11.735 设备接收:01 03 0A 09 42 2F 16 00 00 00 00 00 00 E9 A3
11:55:11.751 设备发送:01 03 04 A3 00 05 74 DB
11:55:16.762 设备接收:01 03 0A 09 32 2F 1F 00 00 00 00 00 00 15 61
11:55:16.793 设备发送:01 03 06 84 00 04 04 A8
11:55:21.787 设备接收:01 03 08 00 00 4B 20 00 13 32 C6 7F 5C
11:55:21.802 设备发送:01 03 04 04 00 01 C4 FB
11:55:26.784 设备接收:01 03 02 00 02 39 85
11:55:26.832 设备发送:01 03 05 84 00 0F 45 2B
11:55:31.821 设备接收:01 03 1E 1E C7 07 0B 05 8C 1E C9 07 19 05 98 1E EF 07 04 05 8E 1E CC 07 20 05 9E 16 A8 03 9E 02 19 57 9A
11:55:31.886 设备发送:01 03 05 93 00 0F F5 2F
11:55:36.892 设备接收:01 03 1E 00 00 00 00 00 00 19 FD 07 5B 04 E4 1B 7B 03 A7 02 92 1B 9B 03 AC 02 98 00 00 00 03 00 00 D4 39
11:55:36.908 设备发送:01 03 05 A2 00 0F A4 E0
11:55:41.917 设备接收:01 03 1E 00 00 00 00 00 00 00 00 00 00 00 00 00 00 00 00 00 00 00 00 00 00 00 00 00 00 00 00 00 00 D8 BA
11:55:41.965 设备发送:01 03 05 B1 00 03 55 20
11:55:46.977 设备接收:01 03 06 00 00 00 00 00 00 21 75
11:55:47.055 设备发送:01 03 04 2B 00 01 F5 32
11:55:52.000 设备接收:01 03 02 02 CE 38 B0
11:55:52.032 设备发送:01 03 04 20 00 01 84 F0
11:55:57.036 设备接收:01 03 02 00 22 38 5D
11:55:57.067 设备发送:01 03 04 05 00 01 95 3B
11:56:02.046 设备接收:01 03 02 00 00 B8 44
11:56:02.077 设备发送:02 03 04 84 00 04 05 23
11:56:07.077 设备接收:02 03 08 13 8C 1F BA FF C1 1F BB 64 5D
11:56:07.124 设备发送:02 03 04 8D 00 05 14 E1
11:56:12.117 设备接收:02 03 0A 09 1B 2C F2 00 00 00 00 00 00 9E 28
11:56:12.164 设备发送:02 03 04 98 00 05 05 25
11:56:17.142 设备接收:02 03 0A 09 46 2D 10 00 00 00 00 00 00 39 79
11:56:17.189 设备发送:02 03 04 A3 00 05 74 E8
11:56:22.205 设备接收:02 03 0A 09 2A 2C FC 00 00 00 00 00 00 28 79
11:56:22.236 设备发送:02 03 06 84 00 04 04 9B
11:56:27.202 设备接收:02 03 08 00 00 48 06 00 13 7A E2 4F F7
11:56:27.249 设备发送:02 03 04 04 00 01 C4 C8
11:56:32.251 设备接收:02 03 02 00 02 7D 85
11:56:32.268 设备发送:02 03 05 84 00 0F 45 18
11:56:37.274 设备接收:02 03 1E 1E CC 03 77 02 BB 1E 9D 03 74 02 B5 1E 8A 03 7E 02 BB 1E E8 06 D9 05 6B 1E C2 03 6A 02 B0 F3 CC
11:56:37.290 设备发送:02 03 05 93 00 0F F5 1C
11:56:42.293 设备接收:02 03 1E 1E 97 03 6A 02 AC 1E 76 03 7B 02 B7 1E 72 07 15 05 85 1E 67 03 8B 02 C2 1E 78 03 99 02 CF F8 0B
11:56:42.325 设备发送:02 03 05 A2 00 0F A4 D3
11:56:47.323 设备接收:02 03 1E 00 00 00 03 00 00 00 00 00 00 00 00 00 00 00 00 00 00 00 00 00 00 00 00 00 00 00 00 00 00 6D 7D
11:56:47.338 设备发送:02 03 05 B1 00 03 55 13
11:56:52.340 设备接收:02 03 06 00 00 00 00 00 00 35 85
11:56:52.387 设备发送:02 03 04 2B 00 01 F5 01
11:56:57.372 设备接收:02 03 02 02 C9 3D 72
11:56:57.419 设备发送:02 03 04 20 00 01 84 C3
11:57:02.413 设备接收:02 03 02 00 47 BC 76
11:57:02.429 设备发送:02 03 04 05 00 01 95 08
11:57:07.446 设备接收:02 03 02 00 00 FC 44
11:57:07.462 设备发送:03 03 04 84 00 04 04 F2
11:57:12.473 设备接收:03 03 08 13 8C 21 D8 FF 3C 21 DA DD CF
11:57:12.536 设备发送:03 03 04 8D 00 05 15 30
11:57:17.540 设备接收:03 03 0A 09 15 30 03 00 00 00 00 00 00 31 5F
11:57:17.555 设备发送:03 03 04 98 00 05 04 F4
11:57:22.549 设备接收:03 03 0A 09 49 2F EB 00 00 00 00 00 00 B1 1E
11:57:22.611 设备发送:03 03 04 A3 00 05 75 39
11:57:27.608 设备接收:03 03 0A 09 31 2F E3 00 00 00 00 00 00 3A DC
11:57:27.646 设备发送:03 03 06 84 00 04 05 4A
11:57:32.640 设备接收:03 03 08 00 00 51 D0 00 14 05 91 D0 C4
11:57:32.656 设备发送:03 03 04 04 00 01 C5 19
11:57:37.662 设备接收:03 03 02 00 02 40 45
11:57:37.677 设备发送:03 03 05 84 00 0F 44 C9
11:57:42.679 设备接收:03 03 1E 1E 9E 07 6B 05 D0 1E A9 07 63 05 CD 1E 9D 07 44 05 B2 1E 7D 07 53 05 B7 16 63 07 7C 04 4A 98 73
11:57:42.727 设备发送:03 03 05 93 00 0F F4 CD
11:57:47.735 设备接收:03 03 1E 05 0C 00 00 00 00 13 82 04 CA 02 64 1B 75 03 B1 02 98 1B 38 03 B9 02 98 05 0F 00 00 00 00 C9 76
11:57:47.751 设备发送:03 03 05 A2 00 0F A5 02
11:57:52.754 设备接收:03 03 1E 00 0D 00 00 00 00 00 00 00 00 00 00 00 00 00 00 00 00 00 00 00 00 00 00 00 00 00 00 00 00 C1 72
11:57:52.770 设备发送:03 03 05 B1 00 03 54 C2
11:57:57.777 设备接收:03 03 06 00 00 00 00 00 00 38 15
11:57:57.793 设备发送:03 03 04 2B 00 01 F4 D0
11:58:02.815 设备接收:03 03 02 02 D1 00 B8
11:58:02.847 设备发送:03 03 04 20 00 01 85 12
11:58:07.855 设备接收:03 03 02 00 24 C1 9F
11:58:07.873 设备发送:03 03 04 05 00 01 94 D9
11:58:12.867 设备接收:03 03 02 00 00 C1 84
11:58:12.899 设备发送:01 03 04 84 00 04 05 10
11:58:17.907 设备接收:01 03 08 13 8C 21 25 FF 3F 21 27 8A 22
11:58:17.922 设备发送:01 03 04 8D 00 05 14 D2
11:58:22.938 设备接收:01 03 0A 09 17 2E FD 00 00 00 00 00 00 B0 32
11:58:22.970 设备发送:01 03 04 98 00 05 05 16
11:58:27.959 设备接收:01 03 0A 09 42 2E F7 00 00 00 00 00 00 D9 61
11:58:28.005 设备发送:01 03 04 A3 00 05 74 DB
11:58:32.987 设备接收:01 03 0A 09 32 2E E7 00 00 00 00 00 00 AD 62
11:58:33.005 设备发送:01 03 06 84 00 04 04 A8
11:58:38.025 设备接收:01 03 08 00 00 4C EE 00 13 32 F4 96 EE
11:58:38.041 设备发送:01 03 04 04 00 01 C4 FB
11:58:43.052 设备接收:01 03 02 00 02 39 85
11:58:43.099 设备发送:01 03 05 84 00 0F 45 2B
11:58:48.118 设备接收:01 03 1E 1E EB 07 02 05 8C 1E C9 07 17 05 96 1E EF 06 FF 05 8A 1E CB 07 18 05 97 16 A8 03 9E 02 19 17 5B
11:58:48.165 设备发送:01 03 05 93 00 0F F5 2F
11:58:53.146 设备接收:01 03 1E 00 00 00 00 00 00 19 88 07 74 04 DF 1B 7D 03 AB 02 95 1B 74 03 B5 02 9B 00 00 00 04 00 00 DF A9
11:58:53.193 设备发送:01 03 05 A2 00 0F A4 E0
11:58:58.193 设备接收:01 03 1E 00 00 00 00 00 00 00 00 00 00 00 00 00 00 00 00 00 00 00 00 00 00 00 00 00 00 00 00 00 00 D8 BA
11:58:58.225 设备发送:01 03 05 B1 00 03 55 20
11:59:03.245 设备接收:01 03 06 00 00 00 00 00 00 21 75
11:59:03.261 设备发送:01 03 04 2B 00 01 F5 32
11:59:08.238 设备接收:01 03 02 02 CE 38 B0
11:59:08.254 设备发送:01 03 04 20 00 01 84 F0
11:59:13.271 设备接收:01 03 02 00 22 38 5D
11:59:13.292 设备发送:01 03 04 05 00 01 95 3B
11:59:18.296 设备接收:01 03 02 00 00 B8 44
11:59:18.311 设备发送:02 03 04 84 00 04 05 23
11:59:23.328 设备接收:02 03 08 13 8C 1F B7 00 37 1F B8 D9 BB
11:59:23.359 设备发送:02 03 04 8D 00 05 14 E1
11:59:28.354 设备接收:02 03 0A 09 1C 2C FC 00 00 00 00 00 00 57 D8
11:59:28.401 设备发送:02 03 04 98 00 05 05 25
11:59:33.407 设备接收:02 03 0A 09 42 2D 3E 00 00 00 00 00 00 C5 BB
11:59:33.455 设备发送:02 03 04 A3 00 05 74 E8
11:59:38.475 设备接收:02 03 0A 09 2B 2D 28 00 00 00 00 00 00 70 28
11:59:38.539 设备发送:02 03 06 84 00 04 04 9B
11:59:43.551 设备接收:02 03 08 00 00 49 BF 00 13 7B 0E D3 E0
11:59:43.582 设备发送:02 03 04 04 00 01 C4 C8
11:59:48.578 设备接收:02 03 02 00 02 7D 85
11:59:48.625 设备发送:02 03 05 84 00 0F 45 18
11:59:53.609 设备接收:02 03 1E 1E F4 03 77 02 BF 1E 9E 03 7A 02 BA 1E 8B 03 83 02 BF 1E E9 06 E2 05 72 1E 9A 03 73 02 B4 72 8D
11:59:53.625 设备发送:02 03 05 93 00 0F F5 1C
11:59:58.657 设备接收:02 03 1E 1E 95 03 6E 02 B0 1E 9C 03 7C 02 BB 1E 98 07 19 05 8F 1E 8C 03 89 02 C4 1E 9E 03 9B 02 D4 EE CD
11:59:58.674 设备发送:02 03 05 A2 00 0F A4 D3
12:00:03.661 设备接收:02 03 1E 00 00 00 04 00 00 00 00 00 00 00 00 00 00 00 00 00 00 00 00 00 00 00 00 00 00 00 00 00 00 92 31
12:00:03.724 设备发送:02 03 05 B1 00 03 55 13
12:00:08.762 设备接收:02 03 06 00 00 00 00 00 00 35 85
12:00:08.778 设备发送:02 03 04 2B 00 01 F5 01
12:00:13.765 设备接收:02 03 02 02 C9 3D 72
12:00:13.781 设备发送:02 03 04 20 00 01 84 C3
12:00:18.783 设备接收:02 03 02 00 3E 7D 94
12:00:18.799 设备发送:02 03 04 05 00 01 95 08
12:00:23.818 设备接收:02 03 02 00 00 FC 44
12:00:23.834 设备发送:03 03 04 84 00 04 04 F2
12:00:28.844 设备接收:03 03 08 13 8C 22 0D FF BA 22 0E 31 68
12:00:28.874 设备发送:03 03 04 8D 00 05 15 30
12:00:33.878 设备接收:03 03 0A 09 14 30 36 00 00 00 00 00 00 59 CC
12:00:33.909 设备发送:03 03 04 98 00 05 04 F4
12:00:38.917 设备接收:03 03 0A 09 46 30 08 00 00 00 00 00 00 63 6C
12:00:38.932 设备发送:03 03 04 A3 00 05 75 39
12:00:43.952 设备接收:03 03 0A 09 2F 30 05 00 00 00 00 00 00 7D FE
12:00:43.967 设备发送:03 03 06 84 00 04 05 4A
12:00:48.964 设备接收:03 03 08 00 00 53 A3 00 14 05 C0 15 11
12:00:49.027 设备发送:03 03 04 04 00 01 C5 19
12:00:53.998 设备接收:03 03 02 00 02 40 45
12:00:54.045 设备发送:03 03 05 84 00 0F 44 C9
12:00:59.040 设备接收:03 03 1E 1E EB 07 66 05 DB 1E 82 07 73 05 D1 1E 6F 07 5A 05 BA 1E 77 07 5A 05 BC 16 5F 07 84 04 4E DB 4B
12:00:59.055 设备发送:03 03 05 93 00 0F F4 CD
12:01:04.067 设备接收:03 03 1E 05 0C 00 00 00 00 13 84 04 BE 02 5E 1B 75 03 B3 02 9A 1B 11 03 C2 02 9A 05 0F 00 00 00 00 BD BF
12:01:04.114 设备发送:03 03 05 A2 00 0F A5 02
12:01:09.125 设备接收:03 03 1E 00 0C 00 00 00 00 00 00 00 00 00 00 00 00 00 00 00 00 00 00 00 00 00 00 00 00 00 00 00 00 01 73
12:01:09.187 设备发送:03 03 05 B1 00 03 54 C2
12:01:14.168 设备接收:03 03 06 00 00 00 00 00 00 38 15
12:01:14.183 设备发送:03 03 04 2B 00 01 F4 D0
12:01:19.176 设备接收:03 03 02 02 D1 00 B8
12:01:19.224 设备发送:03 03 04 20 00 01 85 12
12:01:24.229 设备接收:03 03 02 00 24 C1 9F
12:01:24.245 设备发送:03 03 04 05 00 01 94 D9
12:01:29.237 设备接收:03 03 02 00 00 C1 84
12:01:29.268 设备发送:01 03 04 84 00 04 05 10
12:01:34.262 设备接收:01 03 08 13 8B 21 54 00 39 21 54 11 19
12:01:34.308 设备发送:01 03 04 8D 00 05 14 D2
12:01:39.318 设备接收:01 03 0A 09 19 2F 2F 00 00 00 00 00 00 CF 93
12:01:39.365 设备发送:01 03 04 98 00 05 05 16
12:01:44.349 设备接收:01 03 0A 09 41 2F 39 00 00 00 00 00 00 23 91
12:01:44.396 设备发送:01 03 04 A3 00 05 74 DB
12:01:49.392 设备接收:01 03 0A 09 31 2F 1B 00 00 00 00 00 00 44 51
12:01:49.439 设备发送:01 03 06 84 00 04 04 A8
12:01:54.452 设备接收:01 03 08 00 00 4E B7 00 13 33 22 0B 0F
12:01:54.467 设备发送:01 03 04 04 00 01 C4 FB
12:01:59.449 设备接收:01 03 02 00 02 39 85
12:01:59.465 设备发送:01 03 05 84 00 0F 45 2B
12:02:04.485 设备接收:01 03 1E 1E C5 07 06 05 89 1E A0 07 1C 05 93 1E C9 07 05 05 88 1E A3 07 1A 05 92 16 AA 03 9C 02 18 DD A2
12:02:04.516 设备发送:01 03 05 93 00 0F F5 2F
12:02:09.493 设备接收:01 03 1E 00 00 00 00 00 00 19 AE 07 66 04 DD 1B 54 03 A9 02 8F 1B 73 03 B0 02 97 00 00 00 05 00 00 75 16
12:02:09.540 设备发送:01 03 05 A2 00 0F A4 E0
12:02:14.541 设备接收:01 03 1E 00 00 00 00 00 00 00 00 00 00 00 00 00 00 00 00 00 00 00 00 00 00 00 00 00 00 00 00 00 00 D8 BA
12:02:14.557 设备发送:01 03 05 B1 00 03 55 20
12:02:19.568 设备接收:01 03 06 00 00 00 00 00 00 21 75
12:02:19.600 设备发送:01 03 04 2B 00 01 F5 32
12:02:24.606 设备接收:01 03 02 02 CE 38 B0
12:02:24.622 设备发送:01 03 04 20 00 01 84 F0
12:02:29.626 设备接收:01 03 02 00 22 38 5D
12:02:29.643 设备发送:01 03 04 05 00 01 95 3B
12:02:34.625 设备接收:01 03 02 00 00 B8 44
12:02:34.686 设备发送:02 03 04 84 00 04 05 23
12:02:39.678 设备接收:02 03 08 13 8C 1F 6D FF C0 1F 6E 80 10
12:02:39.710 设备发送:02 03 04 8D 00 05 14 E1
12:02:44.705 设备接收:02 03 0A 09 16 2C 8B 00 00 00 00 00 00 2E 7F
12:02:44.754 设备发送:02 03 04 98 00 05 05 25
12:02:49.750 设备接收:02 03 0A 09 40 2C A0 00 00 00 00 00 00 62 DE
12:02:49.765 设备发送:02 03 04 A3 00 05 74 E8
12:02:54.778 设备接收:02 03 0A 09 2A 2C 84 00 00 00 00 00 00 D0 7E
12:02:54.809 设备发送:02 03 06 84 00 04 04 9B
12:02:59.807 设备接收:02 03 08 00 00 4B 7A 00 13 7B 3B DE 04
12:02:59.839 设备发送:02 03 04 04 00 01 C4 C8
12:03:04.839 设备接收:02 03 02 00 02 7D 85
12:03:04.855 设备发送:02 03 05 84 00 0F 45 18
12:03:09.849 设备接收:02 03 1E 1E CC 03 6F 02 B5 1E C4 03 6A 02 B0 1E B3 03 75 02 B7 1E E9 06 CA 05 5F 1E 9A 03 68 02 AB 34 00
12:03:09.897 设备发送:02 03 05 93 00 0F F5 1C
12:03:14.892 设备接收:02 03 1E 1E 95 03 67 02 AA 1E 9B 03 73 02 B4 1E 97 07 04 05 7F 1E 64 03 86 02 BE 1E 9D 03 93 02 CD 3F 1E
12:03:14.954 设备发送:02 03 05 A2 00 0F A4 D3
12:03:19.951 设备接收:02 03 1E 00 00 00 04 00 00 00 00 00 00 00 00 00 00 00 00 00 00 00 00 00 00 00 00 00 00 00 00 00 00 92 31
12:03:19.967 设备发送:02 03 05 B1 00 03 55 13
12:03:24.969 设备接收:02 03 06 00 00 00 00 00 00 35 85
12:03:25.002 设备发送:02 03 04 2B 00 01 F5 01
12:03:30.006 设备接收:02 03 02 02 C9 3D 72
12:03:30.038 设备发送:02 03 04 20 00 01 84 C3
12:03:35.015 设备接收:02 03 02 00 4A 7D B3
12:03:35.047 设备发送:02 03 04 05 00 01 95 08
12:03:40.044 设备接收:02 03 02 00 00 FC 44
12:03:40.060 设备发送:03 03 04 84 00 04 04 F2
12:03:45.085 设备接收:03 03 08 13 8B 21 7E FF BA 21 7E 43 44
12:03:45.100 设备发送:03 03 04 8D 00 05 15 30
12:03:50.100 设备接收:03 03 0A 09 17 2F A6 00 00 00 00 00 00 9C 79
12:03:50.116 设备发送:03 03 04 98 00 05 04 F4
12:03:55.150 设备接收:03 03 0A 09 42 2F 90 00 00 00 00 00 00 09 29
12:03:55.165 设备发送:03 03 04 A3 00 05 75 39
12:04:00.171 设备接收:03 03 0A 09 2E 2F 7D 00 00 00 00 00 00 C9 25
12:04:00.186 设备发送:03 03 06 84 00 04 05 4A
12:04:05.190 设备接收:03 03 08 00 00 55 7A 00 14 05 EF 49 78
12:04:05.221 设备发送:03 03 04 04 00 01 C5 19
12:04:10.232 设备接收:03 03 02 00 02 40 45
12:04:10.242 设备发送:03 03 05 84 00 0F 44 C9
12:04:15.234 设备接收:03 03 1E 1E 9E 07 5A 05 C3 1E 80 07 5D 05 C0 1E 71 07 3F 05 A5 1E 29 07 54 05 A8 16 84 07 5D 04 3E 32 36
12:04:15.278 设备发送:03 03 05 93 00 0F F4 CD
12:04:20.285 设备接收:03 03 1E 05 08 00 00 00 00 13 6E 04 C6 02 60 1B 4E 03 AE 02 92 1B 37 03 B0 02 92 05 0D 00 00 00 00 CA 2F
12:04:20.301 设备发送:03 03 05 A2 00 0F A5 02
12:04:25.314 设备接收:03 03 1E 00 0D 00 00 00 00 00 00 00 00 00 00 00 00 00 00 00 00 00 00 00 00 00 00 00 00 00 00 00 00 C1 72
12:04:25.329 设备发送:03 03 05 B1 00 03 54 C2
12:04:30.323 设备接收:03 03 06 00 00 00 00 00 00 38 15
12:04:30.339 设备发送:03 03 04 2B 00 01 F4 D0
12:04:35.351 设备接收:03 03 02 02 D1 00 B8
12:04:35.383 设备发送:03 03 04 20 00 01 85 12
12:04:40.391 设备接收:03 03 02 00 24 C1 9F
12:04:40.407 设备发送:03 03 04 05 00 01 94 D9
12:04:45.414 设备接收:03 03 02 00 00 C1 84
12:04:45.429 设备发送:01 03 04 84 00 04 05 10
12:04:50.435 设备接收:01 03 08 13 88 20 F1 FF B9 20 F1 9F C6
12:04:50.466 设备发送:01 03 04 8D 00 05 14 D2
12:04:55.460 设备接收:01 03 0A 09 18 2E C1 00 00 00 00 00 00 0D C1
12:04:55.506 设备发送:01 03 04 98 00 05 05 16
12:05:00.492 设备接收:01 03 0A 09 3F 2E C8 00 00 00 00 00 00 2B 30
12:05:00.539 设备发送:01 03 04 A3 00 05 74 DB
12:05:05.559 设备接收:01 03 0A 09 2D 2E C8 00 00 00 00 00 00 FF 90
12:05:05.574 设备发送:01 03 06 84 00 04 04 A8
12:05:10.583 设备接收:01 03 08 00 00 50 82 00 13 33 50 04 90
12:05:10.599 设备发送:01 03 04 04 00 01 C4 FB
12:05:15.601 设备接收:01 03 02 00 02 39 85
12:05:15.617 设备发送:01 03 05 84 00 0F 45 2B
12:05:20.608 设备接收:01 03 1E 1E C3 06 FF 05 82 1E C4 07 10 05 90 1E C8 06 F9 05 7F 1E 7A 07 1C 05 8C 16 CF 03 93 02 16 94 95
12:05:20.670 设备发送:01 03 05 93 00 0F F5 2F
12:05:25.668 设备接收:01 03 1E 00 00 00 00 00 00 19 AF 07 60 04 D9 1B 05 03 B2 02 8E 1B 74 03 AF 02 97 00 00 00 05 00 00 8D 93
12:05:25.684 设备发送:01 03 05 A2 00 0F A4 E0
12:05:30.697 设备接收:01 03 1E 00 00 00 00 00 00 00 00 00 00 00 00 00 00 00 00 00 00 00 00 00 00 00 00 00 00 00 00 00 00 D8 BA
12:05:30.729 设备发送:01 03 05 B1 00 03 55 20
12:05:35.718 设备接收:01 03 06 00 00 00 00 00 00 21 75
12:05:35.734 设备发送:01 03 04 2B 00 01 F5 32
12:05:40.741 设备接收:01 03 02 02 CE 38 B0
12:05:40.756 设备发送:01 03 04 20 00 01 84 F0
12:05:45.749 设备接收:01 03 02 00 22 38 5D
12:05:45.765 设备发送:01 03 04 05 00 01 95 3B
12:05:50.772 设备接收:01 03 02 00 00 B8 44
12:05:50.819 设备发送:02 03 04 84 00 04 05 23
12:05:55.818 设备接收:02 03 08 13 85 1F C8 00 37 1F C8 54 95
12:05:55.834 设备发送:02 03 04 8D 00 05 14 E1
12:06:00.844 设备接收:02 03 0A 09 17 2D 21 00 00 00 00 00 00 E8 29
12:06:00.859 设备发送:02 03 04 98 00 05 05 25
12:06:05.858 设备接收:02 03 0A 09 3E 2D 41 00 00 00 00 00 00 7B BE
12:06:05.906 设备发送:02 03 04 A3 00 05 74 E8
12:06:10.899 设备接收:02 03 0A 09 24 2D 4A 00 00 00 00 00 00 72 1E
12:06:10.947 设备发送:02 03 06 84 00 04 04 9B
12:06:15.933 设备接收:02 03 08 00 00 4D 31 00 13 7B 67 7A 55
12:06:15.979 设备发送:02 03 04 04 00 01 C4 C8
12:06:20.966 设备接收:02 03 02 00 02 7D 85
12:06:20.981 设备发送:02 03 05 84 00 0F 45 18
12:06:26.015 设备接收:02 03 1E 1E A3 03 7D 02 BC 1E 9C 03 77 02 B7 1E 87 03 82 02 BE 1F 0C 06 D0 05 6A 1E 96 03 71 02 B2 FF 99
12:06:26.031 设备发送:02 03 05 93 00 0F F5 1C
12:06:31.031 设备接收:02 03 1E 1E 6E 03 72 02 AF 1E 75 03 80 02 BB 1E 71 07 1D 05 8B 1E 3C 03 91 02 C2 1E EF 03 8F 02 D1 B2 1F
12:06:31.047 设备发送:02 03 05 A2 00 0F A4 D3
12:06:36.049 设备接收:02 03 1E 00 00 00 03 00 00 00 00 00 00 00 00 00 00 00 00 00 00 00 00 00 00 00 00 00 00 00 00 00 00 6D 7D
12:06:36.096 设备发送:02 03 05 B1 00 03 55 13
12:06:41.081 设备接收:02 03 06 00 00 00 00 00 00 35 85
12:06:41.128 设备发送:02 03 04 2B 00 01 F5 01
12:06:46.092 设备接收:02 03 02 02 C9 3D 72
12:06:46.139 设备发送:02 03 04 20 00 01 84 C3
12:06:51.150 设备接收:02 03 02 00 3E 7D 94
12:06:51.166 设备发送:02 03 04 05 00 01 95 08
12:06:56.162 设备接收:02 03 02 00 00 FC 44
12:06:56.208 设备发送:03 03 04 84 00 04 04 F2
12:07:01.200 设备接收:03 03 08 13 8C 21 BC FF 3A 21 BF 8C 2D
12:07:01.220 设备发送:03 03 04 8D 00 05 15 30
12:07:06.252 设备接收:03 03 0A 09 11 2F FA 00 00 00 00 00 00 2B DC
12:07:06.269 设备发送:03 03 04 98 00 05 04 F4
12:07:11.259 设备接收:03 03 0A 09 3F 2F CE 00 00 00 00 00 00 8B BE
12:07:11.306 设备发送:03 03 04 A3 00 05 75 39
12:07:16.287 设备接收:03 03 0A 09 2C 2F D7 00 00 00 00 00 00 DA 4F
12:07:16.334 设备发送:03 03 06 84 00 04 05 4A
12:07:21.316 设备接收:03 03 08 00 00 57 4D 00 14 06 1D 3C 2B
12:07:21.348 设备发送:03 03 04 04 00 01 C5 19
12:07:26.359 设备接收:03 03 02 00 02 40 45
12:07:26.390 设备发送:03 03 05 84 00 0F 44 C9
12:07:31.400 设备接收:03 03 1E 1E 75 07 6E 05 CB 1E A6 07 5C 05 C6 1E 70 07 56 05 B7 1E 4F 07 60 05 B9 16 5D 07 75 04 45 15 F4
12:07:31.416 设备发送:03 03 05 93 00 0F F4 CD
12:07:36.426 设备接收:03 03 1E 05 08 00 00 00 00 13 72 04 D4 02 67 1A D3 03 C7 02 98 1B 37 03 BD 02 9A 05 0A 00 00 00 00 AA 87
12:07:36.473 设备发送:03 03 05 A2 00 0F A5 02
12:07:41.483 设备接收:03 03 1E 00 0D 00 00 00 00 00 00 00 00 00 00 00 00 00 00 00 00 00 00 00 00 00 00 00 00 00 00 00 00 C1 72
12:07:41.499 设备发送:03 03 05 B1 00 03 54 C2
12:07:46.513 设备接收:03 03 06 00 00 00 00 00 00 38 15
12:07:46.528 设备发送:03 03 04 2B 00 01 F4 D0
12:07:51.537 设备接收:03 03 02 02 D1 00 B8
12:07:51.555 设备发送:03 03 04 20 00 01 85 12
12:07:56.555 设备接收:03 03 02 00 24 C1 9F
12:07:56.570 设备发送:03 03 04 05 00 01 94 D9
12:08:01.574 设备接收:03 03 02 00 00 C1 84
12:08:01.605 设备发送:01 03 04 84 00 04 05 10
12:08:06.603 设备接收:01 03 08 13 8C 21 14 FF BD 21 14 17 DB
12:08:06.650 设备发送:01 03 04 8D 00 05 14 D2
12:08:11.633 设备接收:01 03 0A 09 12 2E FF 00 00 00 00 00 00 AC A2
12:08:11.680 设备发送:01 03 04 98 00 05 05 16
12:08:16.686 设备接收:01 03 0A 09 3B 2E F5 00 00 00 00 00 00 F5 33
12:08:16.734 设备发送:01 03 04 A3 00 05 74 DB
12:08:21.758 设备接收:01 03 0A 09 2C 2E DC 00 00 00 00 00 00 A6 01
12:08:21.805 设备发送:01 03 06 84 00 04 04 A8
12:08:26.794 设备接收:01 03 08 00 00 52 53 00 13 33 7E 79 7C
12:08:26.826 设备发送:01 03 04 04 00 01 C4 FB
12:08:31.818 设备接收:01 03 02 00 02 39 85
12:08:31.851 设备发送:01 03 05 84 00 0F 45 2B
12:08:36.858 设备接收:01 03 1E 1E C5 06 FB 05 7F 1E C5 07 0D 05 8E 1E A1 07 08 05 83 1E A4 07 19 05 91 16 D0 03 90 02 14 3F AA
12:08:36.890 设备发送:01 03 05 93 00 0F F5 2F
12:08:41.900 设备接收:01 03 1E 00 00 00 00 00 00 19 AE 07 63 04 DB 1B 7C 03 A2 02 8F 1B 74 03 AA 02 93 00 00 00 05 00 00 91 10
12:08:41.920 设备发送:01 03 05 A2 00 0F A4 E0
12:08:46.918 设备接收:01 03 1E 00 00 00 00 00 00 00 00 00 00 00 00 00 00 00 00 00 00 00 00 00 00 00 00 00 00 00 00 00 00 D8 BA
12:08:46.964 设备发送:01 03 05 B1 00 03 55 20
12:08:51.959 设备接收:01 03 06 00 00 00 00 00 00 21 75
12:08:51.975 设备发送:01 03 04 2B 00 01 F5 32
12:08:56.983 设备接收:01 03 02 02 CE 38 B0
12:08:57.014 设备发送:01 03 04 20 00 01 84 F0
12:09:02.017 设备接收:01 03 02 00 22 38 5D
12:09:02.063 设备发送:01 03 04 05 00 01 95 3B
12:09:07.075 设备接收:01 03 02 00 00 B8 44
12:09:07.107 设备发送:02 03 04 84 00 04 05 23
12:09:12.103 设备接收:02 03 08 13 87 1F B0 FF 47 1F B2 67 73
12:09:12.118 设备发送:02 03 04 8D 00 05 14 E1
12:09:17.141 设备接收:02 03 0A 09 0E 2D 1B 00 00 00 00 00 00 D5 BA
12:09:17.156 设备发送:02 03 04 98 00 05 05 25
12:09:22.154 设备接收:02 03 0A 09 3D 2D 32 00 00 00 00 00 00 2D 89
12:09:22.200 设备发送:02 03 04 A3 00 05 74 E8
12:09:27.212 设备接收:02 03 0A 09 23 2D 23 00 00 00 00 00 00 AD 28
12:09:27.228 设备发送:02 03 06 84 00 04 04 9B
12:09:32.250 设备接收:02 03 08 00 00 4E ED 00 13 7B 93 AA 32
12:09:32.266 设备发送:02 03 04 04 00 01 C4 C8
12:09:37.249 设备接收:02 03 02 00 02 7D 85
12:09:37.266 设备发送:02 03 05 84 00 0F 45 18
12:09:42.303 设备接收:02 03 1E 1E CD 03 76 02 BA 1E 9C 03 77 02 B7 1E 63 03 82 02 BB 1E 99 06 E7 05 68 1E C1 03 68 02 AF 5C 10
12:09:42.318 设备发送:02 03 05 93 00 0F F5 1C
12:09:47.320 设备接收:02 03 1E 1E 6E 03 70 02 AD 1E 76 03 7F 02 BA 1E C0 07 03 05 85 1E 8F 03 89 02 C4 1E A0 03 99 02 D2 59 8D
12:09:47.366 设备发送:02 03 05 A2 00 0F A4 D3
12:09:52.370 设备接收:02 03 1E 00 00 00 03 00 00 00 00 00 00 00 00 00 00 00 00 00 00 00 00 00 00 00 00 00 00 00 00 00 00 6D 7D
12:09:52.402 设备发送:02 03 05 B1 00 03 55 13
12:09:57.400 设备接收:02 03 06 00 00 00 00 00 00 35 85
12:09:57.416 设备发送:02 03 04 2B 00 01 F5 01
12:10:02.417 设备接收:02 03 02 02 C9 3D 72
12:10:02.433 设备发送:02 03 04 20 00 01 84 C3
12:10:07.463 设备接收:02 03 02 00 42 7C 75
12:10:07.484 设备发送:02 03 04 05 00 01 95 08
12:10:12.477 设备接收:02 03 02 00 00 FC 44
12:10:12.492 设备发送:03 03 04 84 00 04 04 F2
12:10:17.489 设备接收:03 03 08 13 85 21 DB FF 3A 21 DD A1 0C
12:10:17.535 设备发送:03 03 04 8D 00 05 15 30
12:10:22.542 设备接收:03 03 0A 09 0F 30 39 00 00 00 00 00 00 18 3C
12:10:22.558 设备发送:03 03 04 98 00 05 04 F4
12:10:27.568 设备接收:03 03 0A 09 3D 30 22 00 00 00 00 00 00 FE 5C
12:10:27.587 设备发送:03 03 04 A3 00 05 75 39
12:10:32.599 设备接收:03 03 0A 09 28 30 2D 00 00 00 00 00 00 F3 CC
12:10:32.615 设备发送:03 03 06 84 00 04 05 4A
12:10:37.621 设备接收:03 03 08 00 00 59 25 00 14 06 4D 5C F0
12:10:37.668 设备发送:03 03 04 04 00 01 C5 19
12:10:42.663 设备接收:03 03 02 00 02 40 45
12:10:42.679 设备发送:03 03 05 84 00 0F 44 C9
12:10:47.677 设备接收:03 03 1E 1E 9D 07 6C 05 D1 1E 7E 07 6E 05 CD 1E 6F 07 5D 05 BD 1E 27 07 71 05 BE 16 83 07 76 04 4D A9 AE
12:10:47.723 设备发送:03 03 05 93 00 0F F4 CD
12:10:52.719 设备接收:03 03 1E 05 09 00 00 00 00 13 76 04 D9 02 6A 1B 4E 03 BC 02 9C 1B 0F 03 C2 02 9B 05 0E 00 00 00 00 26 72
12:10:52.751 设备发送:03 03 05 A2 00 0F A5 02
12:10:57.766 设备接收:03 03 1E 00 0C 00 00 00 00 00 00 00 00 00 00 00 00 00 00 00 00 00 00 00 00 00 00 00 00 00 00 00 00 01 73
12:10:57.813 设备发送:03 03 05 B1 00 03 54 C2
12:11:02.811 设备接收:03 03 06 00 00 00 00 00 00 38 15
12:11:02.827 设备发送:03 03 04 2B 00 01 F4 D0
12:11:07.818 设备接收:03 03 02 02 D1 00 B8
12:11:07.869 设备发送:03 03 04 20 00 01 85 12
12:11:12.848 设备接收:03 03 02 00 24 C1 9F
12:11:12.890 设备发送:03 03 04 05 00 01 94 D9
12:11:17.887 设备接收:03 03 02 00 00 C1 84
12:11:17.907 设备发送:01 03 04 84 00 04 05 10
12:11:22.907 设备接收:01 03 08 13 88 21 4F 00 3C 21 4F 16 11
12:11:22.959 设备发送:01 03 04 8D 00 05 14 D2
12:11:27.948 设备接收:01 03 0A 09 16 2F 48 00 00 00 00 00 00 98 A5
12:11:27.987 设备发送:01 03 04 98 00 05 05 16
12:11:32.971 设备接收:01 03 0A 09 3E 2F 5B 00 00 00 00 00 00 44 65
12:11:33.022 设备发送:01 03 04 A3 00 05 74 DB
12:11:38.022 设备接收:01 03 0A 09 2C 2F 33 00 00 00 00 00 00 79 03
12:11:38.033 设备发送:01 03 06 84 00 04 04 A8
12:11:43.054 设备接收:01 03 08 00 00 54 20 00 13 33 AC FC 8C
12:11:43.064 设备发送:01 03 04 04 00 01 C4 FB
12:11:48.065 设备接收:01 03 02 00 02 39 85
12:11:48.086 设备发送:01 03 05 84 00 0F 45 2B
12:11:53.099 设备接收:01 03 1E 1E C2 07 0A 05 8B 1F 12 07 05 05 96 1E 9C 07 15 05 8D 1E C6 07 22 05 9F 16 CC 03 97 02 18 C1 DD
12:11:53.120 设备发送:01 03 05 93 00 0F F5 2F
12:11:58.141 设备接收:01 03 1E 00 00 00 00 00 00 19 B1 07 70 04 E4 1B 55 03 AB 02 91 1B 74 03 B1 02 98 00 00 00 04 00 00 1F 6F
12:11:58.160 设备发送:01 03 05 A2 00 0F A4 E0
12:12:03.162 设备接收:01 03 1E 00 00 00 00 00 00 00 00 00 00 00 00 00 00 00 00 00 00 00 00 00 00 00 00 00 00 00 00 00 00 D8 BA
12:12:03.171 设备发送:01 03 05 B1 00 03 55 20
12:12:08.191 设备接收:01 03 06 00 00 00 00 00 00 21 75
12:12:08.211 设备发送:01 03 04 2B 00 01 F5 32
12:12:13.221 设备接收:01 03 02 02 CE 38 B0
12:12:13.244 设备发送:01 03 04 20 00 01 84 F0
12:12:18.263 设备接收:01 03 02 00 22 38 5D
12:12:18.273 设备发送:01 03 04 05 00 01 95 3B
12:12:23.281 设备接收:01 03 02 00 00 B8 44
12:12:23.301 设备发送:02 03 04 84 00 04 05 23
12:12:28.308 设备接收:02 03 08 13 84 1F D9 FF 42 1F DB D8 55
12:12:28.328 设备发送:02 03 04 8D 00 05 14 E1
12:12:33.336 设备接收:02 03 0A 09 17 2D 47 00 00 00 00 00 00 EE 2F
12:12:33.377 设备发送:02 03 04 98 00 05 05 25
12:12:38.395 设备接收:02 03 0A 09 3C 2D 61 00 00 00 00 00 00 43 1C
12:12:38.407 设备发送:02 03 04 A3 00 05 74 E8
12:12:43.428 设备接收:02 03 0A 09 22 2D 56 00 00 00 00 00 00 84 7F
12:12:43.470 设备发送:02 03 06 84 00 04 04 9B
12:12:48.463 设备接收:02 03 08 00 00 50 AA 00 13 7B C0 5D BE
12:12:48.486 设备发送:02 03 04 04 00 01 C4 C8
12:12:53.500 设备接收:02 03 02 00 02 7D 85
12:12:53.522 设备发送:02 03 05 84 00 0F 45 18
12:12:58.548 设备接收:02 03 1E 1E CE 03 7D 02 C0 1E 9E 03 7B 02 BA 1E 64 03 89 02 C0 1F 10 06 D2 05 6C 1E C2 03 6E 02 B4 DD C3
12:12:58.559 设备发送:02 03 05 93 00 0F F5 1C
12:13:03.584 设备接收:02 03 1E 1E 6C 03 73 02 B0 1E 9C 03 7D 02 BC 1E 97 07 15 05 8C 1E B4 03 82 02 C2 1E 75 03 A0 02 D3 62 5F
12:13:03.596 设备发送:02 03 05 A2 00 0F A4 D3
12:13:08.584 设备接收:02 03 1E 00 00 00 03 00 00 00 00 00 00 00 00 00 00 00 00 00 00 00 00 00 00 00 00 00 00 00 00 00 00 6D 7D
12:13:08.604 设备发送:02 03 05 B1 00 03 55 13
12:13:13.616 设备接收:02 03 06 00 00 00 00 00 00 35 85
12:13:13.639 设备发送:02 03 04 2B 00 01 F5 01
12:13:18.661 设备接收:02 03 02 02 C9 3D 72
12:13:18.671 设备发送:02 03 04 20 00 01 84 C3
12:13:23.685 设备接收:02 03 02 00 46 7D B6
12:13:23.696 设备发送:02 03 04 05 00 01 95 08
12:13:28.720 设备接收:02 03 02 00 00 FC 44
12:13:28.740 设备发送:03 03 04 84 00 04 04 F2
12:13:33.743 设备接收:03 03 08 13 86 21 CF 00 3A 21 D0 53 DE
12:13:33.814 设备发送:03 03 04 8D 00 05 15 30
12:13:38.795 设备接收:03 03 0A 09 0F 30 08 00 00 00 00 00 00 38 FF
12:13:38.845 设备发送:03 03 04 98 00 05 04 F4
12:13:43.840 设备接收:03 03 0A 09 3F 2F F4 00 00 00 00 00 00 11 BD
12:13:43.892 设备发送:03 03 04 A3 00 05 75 39
12:13:48.870 设备接收:03 03 0A 09 27 30 08 00 00 00 00 00 00 C6 FE
12:13:48.922 设备发送:03 03 06 84 00 04 05 4A
12:13:53.912 设备接收:03 03 08 00 00 5A FF 00 14 06 7C C4 C4
12:13:53.923 设备发送:03 03 04 04 00 01 C5 19
12:13:58.930 设备接收:03 03 02 00 02 40 45
12:13:58.951 设备发送:03 03 05 84 00 0F 44 C9

