15:51:27.04700
15:51:27.04900
15:51:27.05100
15:51:27.07400
15:51:28.219 设备接收:FF FF FF FF FF FF
15:51:28.235 设备发送:04 03 04 04 00 01 C4 AE
15:51:30.234 设备接收:FF FF FF FF FF FF FF
15:51:30.265 设备发送:05 03 04 84 00 04 04 94
15:51:32.262 设备接收:FF FF FF FF FF FF FF 05 03 08 13 8B 04 4A FF FB 04 4A A0 6E
15:51:32.278 设备发送:05 03 04 8D 00 21 15 4D
15:51:34.281 设备接收:FF FF FF FF FF FF FF FF 05 03 42 08 E3 06 6A 00 00 00 00 00 00 00 00 00 00 00 00 00 00 00 00 00 00 08 E5 06 61 00 00 00 00 00 00 00 00 00 00 00 00 00 00 00 00 00 00 08 ED 06 82 00 00 00 00 00 00 00 00 00 00 00 00 00 00 00 00 00 00 E4 3C
15:51:34.293 设备发送:05 03 06 84 00 04 05 2C
15:51:36.276 设备接收:FF FF FF FF FF FF FF FF 05 03 08 00 00 66 07 00 0E 41 80 6C D2
15:51:36.324 设备发送:05 03 04 04 00 01 C5 7F
15:51:38.323 设备接收:FF FF FF FF FF FF FF
15:51:38.338 设备发送:06 03 04 84 00 04 04 A7
15:51:40.328 设备接收:FF FF FF FF FF FF
15:51:40.359 设备发送:06 03 04 8D 00 21 15 7E
15:51:42.359 设备接收:FF FF FF FF FF FF FF 06 03 42 08 E8 05 EA 00 00 00 00 00 00 00 00 00 00 00 00 00 00 00 00 00 00 08 E7 05 EC 00 00 00 00 00 00 00 00 00 00 00 00 00 00 00 00 00 00 08 EF 06 1A 00 00 00 00 00 00 00 00 00 00 00 00 00 00 00 00 00 00 32 77
15:51:42.390 设备发送:06 03 06 84 00 04 05 1F
15:51:44.373 设备接收:FF FF FF FF FF FF FF
15:51:44.388 设备发送:06 03 04 04 00 01 C5 4C
15:51:46.403 设备接收:FF FF FF FF FF FF FF
15:51:46.419 设备发送:07 03 04 84 00 04 05 76
15:51:48.414 设备接收:FF FF FF FF FF FF FF FF 07 03 08 13 8A 02 17 FF D8 02 22 A5 39
15:51:48.430 设备发送:07 03 04 8D 00 21 14 AF
15:51:50.419 设备接收:FF FF FF FF FF FF FF 07 03 42 08 EE 03 1B 00 00 00 00 00 00 00 00 00 00 00 00 00 00 00 00 00 00 08 ED 03 21 00 00 00 00 00 00 00 00 00 00 00 00 00 00 00 00 00 00 08 EF 03 1B 00 00 00 00 00 00 00 00 00 00 00 00 00 00 00 00 00 00 16 D1
15:51:50.434 设备发送:07 03 06 84 00 04 04 CE
15:51:52.449 设备接收:FF FF FF FF FF FF FF 07 03 08 00 00 34 9D 00 07 0B 8B 94 61
15:51:52.465 设备发送:07 03 04 04 00 01 C4 9D
15:51:54.494 设备接收:FF FF FF FF FF FF FF 07 03 02 00 02 B1 85
15:51:54.509 设备发送:08 03 04 84 00 04 05 89
15:51:56.489 设备接收:FF FF FF FF FF FF 08 03 08 13 8A 04 BF 00 1F 04 BF B7 73
15:51:56.505 设备发送:08 03 04 8D 00 21 14 50
15:51:58.520 设备接收:FF FF FF FF FF FF FF 08 03 42 08 E5 06 FC 00 00 00 00 00 00 00 00 00 00 00 00 00 00 00 00 00 00 08 DF 06 DA 00 00 00 00 00 00 00 00 00 00 00 00 00 00 00 00 00 00 08 EA 07 34 00 00 00 00 00 00 00 00 00 00 00 00 00 00 00 00 00 00 8A 25
15:51:58.536 设备发送:08 03 06 84 00 04 04 31
15:52:00.532 设备接收:FF FF FF FF FF FF FF 08 03 08 00 00 6F 3B 00 0F 59 18 5D 88
15:52:00.548 设备发送:08 03 04 04 00 01 C4 62
15:52:02.546 设备接收:FF FF FF FF FF FF FF 08 03 02 00 02 E5 84
15:52:02.561 设备发送:09 03 04 84 00 04 04 58
15:52:04.564 设备接收:FF FF FF FF FF FF FF FF 09 03 08 13 89 04 51 00 02 04 51 78 D2
15:52:04.596 设备发送:09 03 04 8D 00 21 15 81
15:52:06.579 设备接收:FF FF FF FF FF FF FF 09 03 42 08 EA 06 58 00 00 00 00 00 00 00 00 00 00 00 00 00 00 00 00 00 00 08 E4 06 72 00 00 00 00 00 00 00 00 00 00 00 00 00 00 00 00 00 00 08 EF 06 7B 00 00 00 00 00 00 00 00 00 00 00 00 00 00 00 00 00 00 89 51
15:52:06.611 设备发送:09 03 06 84 00 04 05 E0
15:52:08.607 设备接收:FF FF FF FF FF FF FF 09 03 08 00 00 64 33 00 0D F7 45 A5 97
15:52:08.623 设备发送:09 03 04 04 00 01 C5 B3
15:52:10.635 设备接收:FF FF FF FF FF FF FF 09 03 02 00 02 D8 44
15:52:10.650 设备发送:0A 03 04 84 00 04 04 6B
15:52:12.629 设备接收:FF FF FF FF FF FF FF
15:52:12.694 设备发送:0A 03 04 8D 00 21 15 B2
15:52:14.677 设备接收:FF FF FF FF FF FF
15:52:14.693 设备发送:0A 03 06 84 00 04 05 D3
15:52:16.698 设备接收:FF FF FF FF FF FF
15:52:16.714 设备发送:0A 03 04 04 00 01 C5 80
15:52:18.698 设备接收:FF FF FF FF FF FF FF
15:52:18.714 设备发送:01 03 04 84 00 04 05 10
15:52:20.732 设备接收:FF FF FF FF FF FF FF FF 01 03 08 13 87 05 99 FF E8 05 99 4C 95
15:52:20.748 设备发送:01 03 04 8D 00 21 14 C9
15:52:22.759 设备接收:FF FF FF FF FF FF FF
15:52:22.775 设备发送:01 03 06 84 00 04 04 A8
15:52:24.771 设备接收:FF FF FF FF FF FF FF 01 03 08 00 00 88 E3 00 12 C6 B9 7C 9E
15:52:24.786 设备发送:01 03 04 04 00 01 C4 FB
15:52:26.788 设备接收:FF FF FF FF FF FF FF
15:52:26.803 设备发送:02 03 04 84 00 04 05 23
15:52:28.800 设备接收:FF FF FF FF FF FF FF
15:52:28.816 设备发送:02 03 04 8D 00 21 14 FA
15:52:30.846 设备接收:FF FF FF FF FF FF 02 03 42 08 E7 07 FE 00 00 00 00 00 00 00 00 00 00 00 00 00 00 00 00 00 00 08 E7 08 0E 00 00 00 00 00 00 00 00 00 00 00 00 00 00 00 00 00 00 08 EE 08 2A 00 00 00 00 00 00 00 00 00 00 00 00 00 00 00 00 00 00 7C DA
15:52:30.861 设备发送:02 03 06 84 00 04 04 9B
15:52:32.832 设备接收:FF FF FF FF FF FF
15:52:32.879 设备发送:02 03 04 04 00 01 C4 C8
15:52:34.876 设备接收:FF FF FF FF FF FF FF
15:52:34.892 设备发送:03 03 04 84 00 04 04 F2
15:52:36.904 设备接收:FF FF FF FF FF FF FF 03 03 08 13 86 07 1C 00 0B 07 1C 9A F0
15:52:36.920 设备发送:03 03 04 8D 00 21 15 2B
15:52:38.907 设备接收:FF FF FF FF FF FF FF FF 03 03 42 08 E5 0A 80 00 00 00 00 00 00 00 00 00 00 00 00 00 00 00 00 00 00 08 EA 0A 82 00 00 00 00 00 00 00 00 00 00 00 00 00 00 00 00 00 00 08 F0 0A AE 00 00 00 00 00 00 00 00 00 00 00 00 00 00 00 00 00 00 2E 20
15:52:38.939 设备发送:03 03 06 84 00 04 05 4A
15:52:40.937 设备接收:FF FF FF FF FF FF FF FF 03 03 08 00 00 90 C2 00 13 92 45 A7 B8
15:52:40.969 设备发送:03 03 04 04 00 01 C5 19
15:52:42.934 设备接收:FF FF FF FF FF FF FF
15:52:42.965 设备发送:04 03 04 84 00 04 05 45
15:52:44.959 设备接收:FF FF FF FF FF FF FF
15:52:44.990 设备发送:04 03 04 8D 00 21 14 9C
15:52:46.980 设备接收:FF FF FF FF FF FF 04 03 42 08 E7 07 F4 00 00 00 00 00 00 00 00 00 00 00 00 00 00 00 00 00 00 08 DF 07 F4 00 00 00 00 00 00 00 00 00 00 00 00 00 00 00 00 00 00 08 F0 08 0C 00 00 00 00 00 00 00 00 00 00 00 00 00 00 00 00 00 00 2C 1F
15:52:47.027 设备发送:04 03 06 84 00 04 04 FD
15:52:49.008 设备接收:FF FF FF FF FF FF
15:52:49.039 设备发送:04 03 04 04 00 01 C4 AE
15:52:51.039 设备接收:FF FF FF FF FF FF FF
15:52:51.070 设备发送:05 03 04 84 00 04 04 94
15:52:53.071 设备接收:FF FF FF FF FF FF FF 05 03 08 13 88 04 4A FF FC 04 4A 22 AF
15:52:53.087 设备发送:05 03 04 8D 00 21 15 4D
15:52:55.064 设备接收:FF FF FF FF FF FF FF FF 05 03 42 08 E5 06 4F 00 00 00 00 00 00 00 00 00 00 00 00 00 00 00 00 00 00 08 E6 06 49 00 00 00 00 00 00 00 00 00 00 00 00 00 00 00 00 00 00 08 F0 06 6B 00 00 00 00 00 00 00 00 00 00 00 00 00 00 00 00 00 00 22 D8
15:52:55.080 设备发送:05 03 06 84 00 04 05 2C
15:52:57.080 设备接收:FF FF FF FF FF FF FF FF 05 03 08 00 00 66 20 00 0E 41 83 18 D4
15:52:57.095 设备发送:05 03 04 04 00 01 C5 7F
15:52:59.117 设备接收:FF FF FF FF FF FF FF
15:52:59.148 设备发送:06 03 04 84 00 04 04 A7
15:53:01.144 设备接收:FF FF FF FF FF FF
15:53:01.161 设备发送:06 03 04 8D 00 21 15 7E
15:53:03.146 设备接收:FF FF FF FF FF FF FF 06 03 42 08 E7 05 CB 00 00 00 00 00 00 00 00 00 00 00 00 00 00 00 00 00 00 08 E3 05 D0 00 00 00 00 00 00 00 00 00 00 00 00 00 00 00 00 00 00 08 EE 05 FB 00 00 00 00 00 00 00 00 00 00 00 00 00 00 00 00 00 00 03 6D
15:53:03.162 设备发送:06 03 06 84 00 04 05 1F
15:53:05.160 设备接收:FF FF FF FF FF FF FF
15:53:05.192 设备发送:06 03 04 04 00 01 C5 4C
15:53:07.177 设备接收:FF FF FF FF F6 E1 F2
15:53:07.208 设备发送:07 03 04 84 00 04 05 76
15:53:09.206 设备接收:FF FF FF FF FF FF FF FF 07 03 08 13 89 02 05 FF E0 02 0E AE 2A
15:53:09.237 设备发送:07 03 04 8D 00 21 14 AF
15:53:11.237 设备接收:FF FF FF FF FF FF FF 07 03 42 08 EF 02 F8 00 00 00 00 00 00 00 00 00 00 00 00 00 00 00 00 00 00 08 EA 03 00 00 00 00 00 00 00 00 00 00 00 00 00 00 00 00 00 00 00 08 ED 02 FA 00 00 00 00 00 00 00 00 00 00 00 00 00 00 00 00 00 00 CF 08
15:53:11.254 设备发送:07 03 06 84 00 04 04 CE
15:53:13.262 设备接收:FF FF FF FF FF FF FF 07 03 08 00 00 34 A9 00 07 0B 8D A5 A7
15:53:13.277 设备发送:07 03 04 04 00 01 C4 9D
15:53:15.268 设备接收:FF FF FF FF FF FF FF 07 03 02 00 02 B1 85
15:53:15.283 设备发送:08 03 04 84 00 04 05 89
15:53:17.285 设备接收:FF FF FF FF FF FF 08 03 08 13 87 04 88 FF EB 04 89 6F 87
15:53:17.302 设备发送:08 03 04 8D 00 21 14 50
15:53:19.313 设备接收:FF FF FF FF FF FF FF 08 03 42 08 E4 06 C9 00 00 00 00 00 00 00 00 00 00 00 00 00 00 00 00 00 00 08 DE 06 BA 00 00 00 00 00 00 00 00 00 00 00 00 00 00 00 00 00 00 08 EA 07 01 00 00 00 00 00 00 00 00 00 00 00 00 00 00 00 00 00 00 F0 90
15:53:19.328 设备发送:08 03 06 84 00 04 04 31
15:53:21.329 设备接收:FF FF FF FF FF FF FF 08 03 08 00 00 6F 56 00 0F 59 1B B0 40
15:53:21.344 设备发送:08 03 04 04 00 01 C4 62
15:53:23.340 设备接收:FF FF FF FF FF FF FF 08 03 02 00 02 E5 84
15:53:23.355 设备发送:09 03 04 84 00 04 04 58
15:53:25.370 设备接收:FF FF FF FF FF FF FF FF 09 03 08 13 87 04 11 FF FC 04 11 C6 C9
15:53:25.385 设备发送:09 03 04 8D 00 21 15 81
15:53:27.381 设备接收:FF FF FF FF FF FF FF 09 03 42 08 E7 05 FE 00 00 00 00 00 00 00 00 00 00 00 00 00 00 00 00 00 00 08 E1 06 19 00 00 00 00 00 00 00 00 00 00 00 00 00 00 00 00 00 00 08 EE 06 27 00 00 00 00 00 00 00 00 00 00 00 00 00 00 00 00 00 00 C1 FC
15:53:27.428 设备发送:09 03 06 84 00 04 05 E0
15:53:29.408 设备接收:FF FF FF FF FF FF FF 09 03 08 00 00 64 4C 00 0D F7 47 31 9C
15:53:29.424 设备发送:09 03 04 04 00 01 C5 B3
15:53:31.441 设备接收:FF FF FF FF FF FF FF 09 03 02 00 02 D8 44
15:53:31.457 设备发送:0A 03 04 84 00 04 04 6B
15:53:33.465 设备接收:FF FF FF FF FF FF FF
15:53:33.480 设备发送:0A 03 04 8D 00 21 15 B2
15:53:35.477 设备接收:FF FF FF FF FF FF
15:53:35.492 设备发送:0A 03 06 84 00 04 05 D3
15:53:37.475 设备接收:FF FF FF FF FF FF
15:53:37.521 设备发送:0A 03 04 04 00 01 C5 80
15:53:39.509 设备接收:FF FF FF FF FF FF FF
15:53:39.525 设备发送:01 03 04 84 00 04 05 10
15:53:41.525 设备接收:FF FF FF FF FF FF FF FF
15:53:41.543 设备发送:01 03 04 8D 00 21 14 C9
15:53:43.563 设备接收:FF FF FF FF FF FF FF 01 03 42 08 E8 07 D3 00 00 00 00 00 00 00 00 00 00 00 00 00 00 00 00 00 00 08 E7 07 DE 00 00 00 00 00 00 00 00 00 00 00 00 00 00 00 00 00 00 08 F0 07 F3 00 00 00 00 00 00 00 00 00 00 00 00 00 00 00 00 00 00 16 94
15:53:43.579 设备发送:01 03 06 84 00 04 04 A8
15:53:45.561 设备接收:FF FF FF FF FF FF FF 01 03 08 00 00 89 03 00 12 C6 BC 3C 9A
15:53:45.577 设备发送:01 03 04 04 00 01 C4 FB
15:53:47.590 设备接收:FF FF FF FF FF FF FF
15:53:47.605 设备发送:02 03 04 84 00 04 05 23
15:53:49.605 设备接收:FF FF FF FF FF FF FF
15:53:49.621 设备发送:02 03 04 8D 00 21 14 FA
15:53:51.633 设备接收:FF FF FF FF FF FF 02 03 42 08 E9 07 B3 00 00 00 00 00 00 00 00 00 00 00 00 00 00 00 00 00 00 08 E7 07 C8 00 00 00 00 00 00 00 00 00 00 00 00 00 00 00 00 00 00 08 F0 07 DD 00 00 00 00 00 00 00 00 00 00 00 00 00 00 00 00 00 00 CB DF
15:53:51.649 设备发送:02 03 06 84 00 04 04 9B
15:53:53.647 设备接收:FF FF FF FF FF FF
15:53:53.663 设备发送:02 03 04 04 00 01 C4 C8
15:53:55.662 设备接收:FF FF FF FF FF FF FF
15:53:55.692 设备发送:03 03 04 84 00 04 04 F2
15:53:57.693 设备接收:FF FF FF FF FF FF FF 03 03 08 13 87 06 D3 FF D8 06 D4 1E 1A
15:53:57.709 设备发送:03 03 04 8D 00 21 15 2B
15:53:59.693 设备接收:FF FF FF FF FF FF FF FF 03 03 42 08 E8 0A 0A 00 00 00 00 00 00 00 00 00 00 00 00 00 00 00 00 00 00 08 EC 0A 07 00 00 00 00 00 00 00 00 00 00 00 00 00 00 00 00 00 00 08 F4 0A 36 00 00 00 00 00 00 00 00 00 00 00 00 00 00 00 00 00 00 DE 65
15:53:59.712 设备发送:03 03 06 84 00 04 05 4A
15:54:01.735 设备接收:FF FF FF FF FF FF FF FF 03 03 08 00 00 90 EA 00 13 92 49 C7 BB
15:54:01.766 设备发送:03 03 04 04 00 01 C5 19
15:54:03.744 设备接收:FF FF FF FF FF FF FF
15:54:03.759 设备发送:04 03 04 84 00 04 05 45
15:54:05.767 设备接收:FF FF FF FF FF FF FF
15:54:05.783 设备发送:04 03 04 8D 00 21 14 9C
15:54:07.798 设备接收:FF FF FF FF FF FF 04 03 42 08 E9 07 97 00 00 00 00 00 00 00 00 00 00 00 00 00 00 00 00 00 00 08 DE 07 87 00 00 00 00 00 00 00 00 00 00 00 00 00 00 00 00 00 00 08 F1 07 AB 00 00 00 00 00 00 00 00 00 00 00 00 00 00 00 00 00 00 24 D3
15:54:07.813 设备发送:04 03 06 84 00 04 04 FD
15:54:09.810 设备接收:FF FF FF FF FF FF
15:54:09.825 设备发送:04 03 04 04 00 01 C4 AE
15:54:11.812 设备接收:FF FF FF FF FF FF FF
15:54:11.859 设备发送:05 03 04 84 00 04 04 94
15:54:13.851 设备接收:FF FF FF FF FF FF FF 05 03 08 13 88 04 13 FF F9 04 13 EE 99
15:54:13.866 设备发送:05 03 04 8D 00 21 15 4D
15:54:15.866 设备接收:FF FF FF FF FF FF FF FF 05 03 42 08 E3 06 18 00 00 00 00 00 00 00 00 00 00 00 00 00 00 00 00 00 00 08 DF 06 13 00 00 00 00 00 00 00 00 00 00 00 00 00 00 00 00 00 00 08 EC 06 36 00 00 00 00 00 00 00 00 00 00 00 00 00 00 00 00 00 00 6B F9
15:54:15.882 设备发送:05 03 06 84 00 04 05 2C
15:54:17.876 设备接收:FF FF FF FF FF FF FF FF 05 03 08 00 00 66 38 00 0E 41 85 B8 D4
15:54:17.923 设备发送:05 03 04 04 00 01 C5 7F
15:54:19.913 设备接收:FF FF FF FF FF FF FF
15:54:19.928 设备发送:06 03 04 84 00 04 04 A7
15:54:21.940 设备接收:FF FF FF FF FF FF
15:54:21.955 设备发送:06 03 04 8D 00 21 15 7E
15:54:23.953 设备接收:FF FF FF FF FF FF FF 06 03 42 08 E8 05 9A 00 00 00 00 00 00 00 00 00 00 00 00 00 00 00 00 00 00 08 E0 05 98 00 00 00 00 00 00 00 00 00 00 00 00 00 00 00 00 00 00 08 EC 05 C7 00 00 00 00 00 00 00 00 00 00 00 00 00 00 00 00 00 00 A1 14
15:54:23.984 设备发送:06 03 06 84 00 04 05 1F
15:54:25.972 设备接收:FF FF FF
15:54:25.988 设备发送:06 03 04 04 00 01 C5 4C
15:54:27.998 设备接收:FF FF FF FF FF FF FF
15:54:28.013 设备发送:07 03 04 84 00 04 05 76
15:54:30.006 设备接收:FF FF FF FF FF FF FF FF 07 03 08 13 89 02 02 FF E1 02 0E 4A 2A
15:54:30.022 设备发送:07 03 04 8D 00 21 14 AF
15:54:32.036 设备接收:FF FF FF FF FF FF FF 07 03 42 08 EE 02 FC 00 00 00 00 00 00 00 00 00 00 00 00 00 00 00 00 00 00 08 E7 03 04 00 00 00 00 00 00 00 00 00 00 00 00 00 00 00 00 00 00 08 ED 03 01 00 00 00 00 00 00 00 00 00 00 00 00 00 00 00 00 00 00 D6 44
15:54:32.048 设备发送:07 03 06 84 00 04 04 CE
15:54:34.057 设备接收:FF FF FF FF FF FF FF 07 03 08 00 00 34 B5 00 07 0B 8E 34 64
15:54:34.066 设备发送:07 03 04 04 00 01 C4 9D
15:54:36.068 设备接收:FF FF FF FF FF FF FF 07 03 02 00 02 B1 85
15:54:36.078 设备发送:08 03 04 84 00 04 05 89
15:54:38.068 设备接收:FF FF FF FF FF FF 08 03 08 13 89 04 81 00 19 04 81 CC 67
15:54:38.110 设备发送:08 03 04 8D 00 21 14 50
15:54:40.114 设备接收:FF FF FF FF FF FF FF 08 03 42 08 E5 06 BC 00 00 00 00 00 00 00 00 00 00 00 00 00 00 00 00 00 00 08 DD 06 AC 00 00 00 00 00 00 00 00 00 00 00 00 00 00 00 00 00 00 08 E9 06 F5 00 00 00 00 00 00 00 00 00 00 00 00 00 00 00 00 00 00 43 06
15:54:40.123 设备发送:08 03 06 84 00 04 04 31
15:54:42.116 设备接收:FF FF FF FF FF FF FF 08 03 08 00 00 6F 6F 00 0F 59 1D AC 47
15:54:42.126 设备发送:08 03 04 04 00 01 C4 62
15:54:44.139 设备接收:FF FF FF FF FF FF FF 08 03 02 00 02 E5 84
15:54:44.161 设备发送:09 03 04 84 00 04 04 58
15:54:46.155 设备接收:FF FF FF FF FF FF FF FF 09 03 08 13 89 04 0C FF F8 04 0C 44 C3
15:54:46.164 设备发送:09 03 04 8D 00 21 15 81
15:54:48.183 设备接收:FF FF FF FF FF FF FF 09 03 42 08 E5 05 FA 00 00 00 00 00 00 00 00 00 00 00 00 00 00 00 00 00 00 08 DD 06 16 00 00 00 00 00 00 00 00 00 00 00 00 00 00 00 00 00 00 08 EA 06 23 00 00 00 00 00 00 00 00 00 00 00 00 00 00 00 00 00 00 59 DF
15:54:48.205 设备发送:09 03 06 84 00 04 05 E0
15:54:50.197 设备接收:FF FF FF FF FF FF FF 09 03 08 00 00 64 63 00 0D F7 49 65 9E
15:54:50.206 设备发送:09 03 04 04 00 01 C5 B3
15:54:52.229 设备接收:FF FF FF FF FF FF FF 09 03 02 00 02 D8 44
15:54:52.249 设备发送:0A 03 04 84 00 04 04 6B
15:54:54.245 设备接收:FF FF FF FF FF FF FF
15:54:54.260 设备发送:0A 03 04 8D 00 21 15 B2
15:54:56.256 设备接收:FF FF FF FF FF FF
15:54:56.287 设备发送:0A 03 06 84 00 04 05 D3
15:54:58.281 设备接收:FF FF FF FF FF FF
15:54:58.297 设备发送:0A 03 04 04 00 01 C5 80
15:55:00.309 设备接收:FF FF FF FF FF FF FF
15:55:00.324 设备发送:01 03 04 84 00 04 05 10
15:55:02.334 设备接收:FF FF FF FF FF FF FF FF
15:55:02.349 设备发送:01 03 04 8D 00 21 14 C9
15:55:04.352 设备接收:FF FF FF FF FF FF FF 01 03 42 08 E6 07 B3 00 00 00 00 00 00 00 00 00 00 00 00 00 00 00 00 00 00 08 E5 07 C0 00 00 00 00 00 00 00 00 00 00 00 00 00 00 00 00 00 00 08 EE 07 D8 00 00 00 00 00 00 00 00 00 00 00 00 00 00 00 00 00 00 4E 05
15:55:04.383 设备发送:01 03 06 84 00 04 04 A8
15:55:06.364 设备接收:FF FF FF FF FF FF FF 01 03 08 00 00 89 21 00 12 C6 BF 84 9C
15:55:06.380 设备发送:01 03 04 04 00 01 C4 FB
15:55:08.390 设备接收:FF FF FF FF FF FF FF
15:55:08.406 设备发送:02 03 04 84 00 04 05 23
15:55:10.421 设备接收:FF FF FF FF FF FF FF
15:55:10.437 设备发送:02 03 04 8D 00 21 14 FA
15:55:12.444 设备接收:FF FF FF FF FF FF 02 03 42 08 DF 07 7F 00 00 00 00 00 00 00 00 00 00 00 00 00 00 00 00 00 00 08 E3 07 8A 00 00 00 00 00 00 00 00 00 00 00 00 00 00 00 00 00 00 08 EC 07 B3 00 00 00 00 00 00 00 00 00 00 00 00 00 00 00 00 00 00 36 49
15:55:12.453 设备发送:02 03 06 84 00 04 04 9B
15:55:14.452 设备接收:FF FF FF FF FF FF
15:55:14.468 设备发送:02 03 04 04 00 01 C4 C8
15:55:16.483 设备接收:FF FF FF FF FF FF FF
15:55:16.499 设备发送:03 03 04 84 00 04 04 F2
15:55:18.481 设备接收:FF FF FF FF FF FF FF 03 03 08 13 84 06 95 FF F3 06 95 14 ED
15:55:18.496 设备发送:03 03 04 8D 00 21 15 2B
15:55:20.497 设备接收:FF FF FF FF FF FF FF FF 03 03 42 08 E1 09 AE 00 00 00 00 00 00 00 00 00 00 00 00 00 00 00 00 00 00 08 E6 09 AC 00 00 00 00 00 00 00 00 00 00 00 00 00 00 00 00 00 00 08 ED 09 D9 00 00 00 00 00 00 00 00 00 00 00 00 00 00 00 00 00 00 8B B2
15:55:20.513 设备发送:03 03 06 84 00 04 05 4A
15:55:22.524 设备接收:FF FF FF FF FF FF FF FF 03 03 08 00 00 91 10 00 13 92 4D 1F BD
15:55:22.539 设备发送:03 03 04 04 00 01 C5 19
15:55:24.577 设备接收:FF FF FF FF FF FF FF
15:55:24.587 设备发送:04 03 04 84 00 04 05 45
15:55:26.555 设备接收:FF FF FF FF FF FF FF
15:55:26.602 设备发送:04 03 04 8D 00 21 14 9C
15:55:28.596 设备接收:FF FF FF FF FF FF 04 03 42 08 E3 07 64 00 00 00 00 00 00 00 00 00 00 00 00 00 00 00 00 00 00 08 DA 07 5B 00 00 00 00 00 00 00 00 00 00 00 00 00 00 00 00 00 00 08 E9 07 76 00 00 00 00 00 00 00 00 00 00 00 00 00 00 00 00 00 00 0F A1
15:55:28.612 设备发送:04 03 06 84 00 04 04 FD
15:55:30.610 设备接收:FF FF FF FF FF FF
15:55:30.625 设备发送:04 03 04 04 00 01 C4 AE
15:55:32.621 设备接收:FF FF FF FF FF FF FF
15:55:32.637 设备发送:05 03 04 84 00 04 04 94
15:55:34.647 设备接收:FF FF FF FF FF FF FF 05 03 08 13 85 03 E9 FF F8 03 E9 38 49
15:55:34.678 设备发送:05 03 04 8D 00 21 15 4D
15:55:36.663 设备接收:FF FF FF FF FF FF FF FF 05 03 42 08 DF 05 E0 00 00 00 00 00 00 00 00 00 00 00 00 00 00 00 00 00 00 08 DF 05 D4 00 00 00 00 00 00 00 00 00 00 00 00 00 00 00 00 00 00 08 E7 05 FD 00 00 00 00 00 00 00 00 00 00 00 00 00 00 00 00 00 00 0D D8
15:55:36.679 设备发送:05 03 06 84 00 04 05 2C
15:55:38.696 设备接收:FF FF FF FF FF FF FF FF 05 03 08 00 00 66 4F 00 0E 41 88 8D 1A
15:55:38.725 设备发送:05 03 04 04 00 01 C5 7F
15:55:40.701 设备接收:FF FF FF FF FF FF FF
15:55:40.717 设备发送:06 03 04 84 00 04 04 A7
15:55:42.732 设备接收:FF FF FF FF FF FF
15:55:42.747 设备发送:06 03 04 8D 00 21 15 7E
15:55:44.748 设备接收:FF FF FF FF FF FF FF 06 03 42 08 E3 05 61 00 00 00 00 00 00 00 00 00 00 00 00 00 00 00 00 00 00 08 DE 05 65 00 00 00 00 00 00 00 00 00 00 00 00 00 00 00 00 00 00 08 E8 05 97 00 00 00 00 00 00 00 00 00 00 00 00 00 00 00 00 00 00 5A 2E
15:55:44.763 设备发送:06 03 06 84 00 04 05 1F
15:55:46.747 设备接收:FF FF FF
15:55:46.795 设备发送:06 03 04 04 00 01 C5 4C
15:55:48.796 设备接收:FF FF FF FF FF FF FF 06 03 02 00 02 8C 45
15:55:48.812 设备发送:07 03 04 84 00 04 05 76
15:55:50.808 设备接收:FF FF FF FF FF FF FF FF 07 03 08 13 85 01 F2 FF D8 01 FE 16 B5
15:55:50.820 设备发送:07 03 04 8D 00 21 14 AF
15:55:52.804 设备接收:FF FF FF FF FF FF FF 07 03 42 08 EC 02 DC 00 00 00 00 00 00 00 00 00 00 00 00 00 00 00 00 00 00 08 EA 02 E9 00 00 00 00 00 00 00 00 00 00 00 00 00 00 00 00 00 00 08 EE 02 E6 00 00 00 00 00 00 00 00 00 00 00 00 00 00 00 00 00 00 B8 A5
15:55:52.845 设备发送:07 03 06 84 00 04 04 CE
15:55:54.821 设备接收:FF FF FF FF FF FF FF 07 03 08 00 00 34 C0 00 07 0B 8F 78 6F
15:55:54.866 设备发送:07 03 04 04 00 01 C4 9D
15:55:56.872 设备接收:FF FF FF FF FF FF FF 07 03 02 00 02 B1 85
15:55:56.883 设备发送:08 03 04 84 00 04 05 89
15:55:58.890 设备接收:FF FF FF FF FF FF 08 03 08 13 85 04 4D FF E5 04 4D E0 06
15:55:58.901 设备发送:08 03 04 8D 00 21 14 50
15:56:00.900 设备接收:FF FF FF FF FF FF FF 08 03 42 08 E2 06 74 00 00 00 00 00 00 00 00 00 00 00 00 00 00 00 00 00 00 08 D8 06 63 00 00 00 00 00 00 00 00 00 00 00 00 00 00 00 00 00 00 08 E7 06 A8 00 00 00 00 00 00 00 00 00 00 00 00 00 00 00 00 00 00 18 54
15:56:00.911 设备发送:08 03 06 84 00 04 04 31
15:56:02.935 设备接收:FF FF FF FF FF FF FF 08 03 08 00 00 6F 88 00 0F 59 20 59 80
15:56:02.947 设备发送:08 03 04 04 00 01 C4 62
15:56:04.949 设备接收:FF FF FF FF FF FF FF 08 03 02 00 02 E5 84
15:56:04.959 设备发送:09 03 04 84 00 04 04 58
15:56:06.959 设备接收:FF FF FF FF FF FF FF FF 09 03 08 13 85 03 E7 FF F9 03 E7 BE DC
15:56:06.981 设备发送:09 03 04 8D 00 21 15 81
15:56:08.978 设备接收:FF FF FF FF FF FF FF 09 03 42 08 E2 05 C2 00 00 00 00 00 00 00 00 00 00 00 00 00 00 00 00 00 00 08 DC 05 DB 00 00 00 00 00 00 00 00 00 00 00 00 00 00 00 00 00 00 08 E8 05 EC 00 00 00 00 00 00 00 00 00 00 00 00 00 00 00 00 00 00 EF 91
15:56:08.986 设备发送:09 03 06 84 00 04 05 E0
15:56:10.18900
15:59:32.43900
15:59:32.44200
15:59:32.49800
15:59:32.54000
15:59:34.439 设备接收:FF FF FF FF FF FF FF
15:59:34.486 设备发送:02 03 04 8D 00 21 14 FA
15:59:36.478 设备接收:FF FF FF FF FF FF 02 03 42 08 E1 06 AC 00 00 00 00 00 00 00 00 00 00 00 00 00 00 00 00 00 00 08 DF 06 B7 00 00 00 00 00 00 00 00 00 00 00 00 00 00 00 00 00 00 08 EB 06 E2 00 00 00 00 00 00 00 00 00 00 00 00 00 00 00 00 00 00 75 81
15:59:36.494 设备发送:02 03 06 84 00 04 04 9B
15:59:38.519 设备接收:FF FF FF FF FF FF
15:59:38.534 设备发送:02 03 04 04 00 01 C4 C8
15:59:40.510 设备接收:FF FF FF FF FF FF FF
15:59:40.541 设备发送:03 03 04 84 00 04 04 F2
15:59:42.539 设备接收:FF FF FF FF FF FF FF 03 03 08 13 88 05 C6 00 15 05 C6 CD FC
15:59:42.555 设备发送:03 03 04 8D 00 21 15 2B
15:59:44.569 设备接收:FF FF FF FF FF FF FF FF 03 03 42 08 E2 08 89 00 00 00 00 00 00 00 00 00 00 00 00 00 00 00 00 00 00 08 E4 08 8B 00 00 00 00 00 00 00 00 00 00 00 00 00 00 00 00 00 00 08 EE 08 B7 00 00 00 00 00 00 00 00 00 00 00 00 00 00 00 00 00 00 BA 6A
15:59:44.584 设备发送:03 03 06 84 00 04 05 4A
15:59:46.583 设备接收:FF FF FF FF FF FF FF FF 03 03 08 00 00 91 83 00 13 92 59 9B AF
15:59:46.599 设备发送:03 03 04 04 00 01 C5 19
15:59:48.583 设备接收:FF FF FF FF FF FF FF
15:59:48.630 设备发送:04 03 04 84 00 04 05 45
15:59:50.626 设备接收:FF FF FF FF FF FF FF
15:59:50.642 设备发送:04 03 04 8D 00 21 14 9C
15:59:52.622 设备接收:FF FF FF FF FF FF 04 03 42 08 E3 06 7C 00 00 00 00 00 00 00 00 00 00 00 00 00 00 00 00 00 00 08 D8 06 73 00 00 00 00 00 00 00 00 00 00 00 00 00 00 00 00 00 00 08 EA 06 95 00 00 00 00 00 00 00 00 00 00 00 00 00 00 00 00 00 00 B2 EE
15:59:52.654 设备发送:04 03 06 84 00 04 04 FD
15:59:54.670 设备接收:FF FF FF FF FF FF
15:59:54.686 设备发送:04 03 04 04 00 01 C4 AE
15:59:56.663 设备接收:FF FF FF FF FF FF FF
15:59:56.698 设备发送:05 03 04 84 00 04 04 94
15:59:58.694 设备接收:FF FF FF FF FF FF FF 05 03 08 13 89 03 7F FF FB 03 7F CC 3A
15:59:58.723 设备发送:05 03 04 8D 00 21 15 4D
16:00:00.728 设备接收:FF FF FF FF FF FF FF FF 05 03 42 08 E2 05 41 00 00 00 00 00 00 00 00 00 00 00 00 00 00 00 00 00 00 08 DE 05 3C 00 00 00 00 00 00 00 00 00 00 00 00 00 00 00 00 00 00 08 EB 05 6C 00 00 00 00 00 00 00 00 00 00 00 00 00 00 00 00 00 00 4F 42
16:00:00.743 设备发送:05 03 06 84 00 04 05 2C
16:00:02.731 设备接收:FF FF FF FF FF FF FF FF 05 03 08 00 00 66 93 00 0E 41 8E DC CB
16:00:02.810 设备发送:05 03 04 04 00 01 C5 7F
16:00:04.770 设备接收:FF FF FF FF FF FF FF
16:00:04.785 设备发送:06 03 04 84 00 04 04 A7
16:00:06.771 设备接收:FF FF FF FF FF FF
16:00:06.786 设备发送:06 03 04 8D 00 21 15 7E
16:00:08.793 设备接收:FF FF FF FF FF FF FF 06 03 42 08 E2 04 A1 00 00 00 00 00 00 00 00 00 00 00 00 00 00 00 00 00 00 08 DB 04 A8 00 00 00 00 00 00 00 00 00 00 00 00 00 00 00 00 00 00 08 E9 04 D7 00 00 00 00 00 00 00 00 00 00 00 00 00 00 00 00 00 00 B3 56
16:00:08.809 设备发送:06 03 06 84 00 04 05 1F
16:00:10.845 设备接收:FF FF FF FF FF FF FF
16:00:10.862 设备发送:06 03 04 04 00 01 C5 4C
16:00:12.850 设备接收:FF FF FF FF FF FF FF
16:00:12.866 设备发送:07 03 04 84 00 04 05 76
16:00:14.837 设备接收:FF FF FF FF FF FF FF FF 07 03 08 13 8B 01 BD FF D8 01 CB 6C AC
16:00:14.884 设备发送:07 03 04 8D 00 21 14 AF
16:00:16.884 设备接收:FF FF FF FF FF FF FF 07 03 42 08 EF 02 9D 00 00 00 00 00 00 00 00 00 00 00 00 00 00 00 00 00 00 08 E5 02 A7 00 00 00 00 00 00 00 00 00 00 00 00 00 00 00 00 00 00 08 EC 02 A0 00 00 00 00 00 00 00 00 00 00 00 00 00 00 00 00 00 00 85 8C
16:00:16.900 设备发送:07 03 06 84 00 04 04 CE
16:00:18.882 设备接收:FF FF FF FF FF FF FF 07 03 08 00 00 34 E2 00 07 0B 92 40 61
16:00:18.929 设备发送:07 03 04 04 00 01 C4 9D
16:00:20.912 设备接收:FF FF FF FF FF FF FF 07 03 02 00 02 B1 85
16:00:20.943 设备发送:08 03 04 84 00 04 05 89
16:00:22.935 设备接收:FF FF FF FF FF FF 08 03 08 13 8C 03 AC 00 10 03 AC 26 F9
16:00:22.951 设备发送:08 03 04 8D 00 21 14 50
16:00:24.964 设备接收:FF FF FF FF FF FF FF 08 03 42 08 DF 05 8F 00 00 00 00 00 00 00 00 00 00 00 00 00 00 00 00 00 00 08 D4 05 7C 00 00 00 00 00 00 00 00 00 00 00 00 00 00 00 00 00 00 08 E3 05 D3 00 00 00 00 00 00 00 00 00 00 00 00 00 00 00 00 00 00 AA 73
16:00:24.996 设备发送:08 03 06 84 00 04 04 31
16:00:26.980 设备接收:FF FF FF FF FF FF FF 08 03 08 00 00 6F D3 00 0F 59 27 7D 8F
16:00:26.995 设备发送:08 03 04 04 00 01 C4 62
16:00:29.009 设备接收:FF FF FF FF FF FF FF 08 03 02 00 02 E5 84
16:00:29.025 设备发送:09 03 04 84 00 04 04 58
16:00:31.008 设备接收:FF FF FF FF FF FF FF FF 09 03 08 13 8B 03 65 00 00 03 65 49 46
16:00:31.023 设备发送:09 03 04 8D 00 21 15 81
16:00:33.032 设备接收:FF FF FF FF FF FF FF 09 03 42 08 E8 04 F8 00 00 00 00 00 00 00 00 00 00 00 00 00 00 00 00 00 00 08 DB 05 25 00 00 00 00 00 00 00 00 00 00 00 00 00 00 00 00 00 00 08 EB 05 30 00 00 00 00 00 00 00 00 00 00 00 00 00 00 00 00 00 00 87 AF
16:00:33.064 设备发送:09 03 06 84 00 04 05 E0
16:00:35.052 设备接收:FF FF FF FF FF FF FF 09 03 08 00 00 64 BE 00 0D F7 53 08 46
16:00:35.067 设备发送:09 03 04 04 00 01 C5 B3
16:00:37.054 设备接收:FF FF FF FF FF FF FF 09 03 02 00 02 D8 44
16:00:37.102 设备发送:0A 03 04 84 00 04 04 6B
16:00:39.096 设备接收:FF FF FF FF FF FF FF
16:00:39.112 设备发送:0A 03 04 8D 00 21 15 B2
16:00:41.116 设备接收:FF FF FF FF FF FF
16:00:41.148 设备发送:0A 03 06 84 00 04 05 D3
16:00:43.152 设备接收:FF FF FF FF FF FF
16:00:43.169 设备发送:0A 03 04 04 00 01 C5 80
16:00:45.153 设备接收:FF FF FF FF FF FF FF
16:00:45.169 设备发送:01 03 04 84 00 04 05 10
16:00:47.186 设备接收:FF FF FF FF FF FF FF FF 01 03 08 13 8C 04 32 FF F6 04 32 F2 75
16:00:47.202 设备发送:01 03 04 8D 00 21 14 C9
16:00:49.198 设备接收:FF FF FF FF FF FF FF 01 03 42 08 E6 06 2B 00 00 00 00 00 00 00 00 00 00 00 00 00 00 00 00 00 00 08 E3 06 38 00 00 00 00 00 00 00 00 00 00 00 00 00 00 00 00 00 00 08 EE 06 55 00 00 00 00 00 00 00 00 00 00 00 00 00 00 00 00 00 00 28 AD
16:00:49.229 设备发送:01 03 06 84 00 04 04 A8
16:00:51.229 设备接收:FF FF FF FF FF FF FF 01 03 08 00 00 89 94 00 12 C6 CB 09 61
16:00:51.244 设备发送:01 03 04 04 00 01 C4 FB
16:00:53.253 设备接收:FF FF FF FF FF FF FF
16:00:53.290 设备发送:02 03 04 84 00 04 05 23
16:00:55.261 设备接收:FF FF FF FF FF FF FF
16:00:55.293 设备发送:02 03 04 8D 00 21 14 FA
16:00:57.257 设备接收:FF FF FF FF FF FF 02 03 42 08 E6 06 74 00 00 00 00 00 00 00 00 00 00 00 00 00 00 00 00 00 00 08 E2 06 79 00 00 00 00 00 00 00 00 00 00 00 00 00 00 00 00 00 00 08 ED 06 8F 00 00 00 00 00 00 00 00 00 00 00 00 00 00 00 00 00 00 99 8C
16:00:57.320 设备发送:02 03 06 84 00 04 04 9B
16:00:59.284 设备接收:FF FF FF FF FF FF
16:00:59.299 设备发送:02 03 04 04 00 01 C4 C8
16:01:01.337 设备接收:FF FF FF FF FF FF FF
16:01:01.352 设备发送:03 03 04 84 00 04 04 F2
16:01:03.339 设备接收:FF FF FF FF FF FF FF 03 03 08 13 8B 05 9A 00 00 05 9A 3F 0C
16:01:03.370 设备发送:03 03 04 8D 00 21 15 2B
16:01:05.362 设备接收:FF FF FF FF FF FF FF FF 03 03 42 08 E3 08 43 00 00 00 00 00 00 00 00 00 00 00 00 00 00 00 00 00 00 08 E6 08 47 00 00 00 00 00 00 00 00 00 00 00 00 00 00 00 00 00 00 08 EF 08 75 00 00 00 00 00 00 00 00 00 00 00 00 00 00 00 00 00 00 C3 AD
16:01:05.393 设备发送:03 03 06 84 00 04 05 4A
16:01:07.369 设备接收:FF FF FF FF FF FF FF FF 03 03 08 00 00 91 A3 00 13 92 5C DA 6B
16:01:07.385 设备发送:03 03 04 04 00 01 C5 19
16:01:09.402 设备接收:FF FF FF FF FF FF FF
16:01:09.417 设备发送:04 03 04 84 00 04 05 45
16:01:11.410 设备接收:FF FF FF FF FF FF FF
16:01:11.442 设备发送:04 03 04 8D 00 21 14 9C
16:01:13.429 设备接收:FF FF FF FF FF FF 04 03 42 08 E3 06 45 00 00 00 00 00 00 00 00 00 00 00 00 00 00 00 00 00 00 08 D9 06 3A 00 00 00 00 00 00 00 00 00 00 00 00 00 00 00 00 00 00 08 EA 06 57 00 00 00 00 00 00 00 00 00 00 00 00 00 00 00 00 00 00 D5 9C
16:01:13.445 设备发送:04 03 06 84 00 04 04 FD
16:01:15.447 设备接收:FF FF FF FF FF FF
16:01:15.494 设备发送:04 03 04 04 00 01 C4 AE
16:01:17.470 设备接收:FF FF FF FF FF FF FF
16:01:17.486 设备发送:05 03 04 84 00 04 04 94
16:01:19.490 设备接收:FF FF FF FF FF FF FF 05 03 08 13 8B 03 65 FF FD 03 65 D7 F2
16:01:19.506 设备发送:05 03 04 8D 00 21 15 4D
16:01:21.522 设备接收:FF FF FF FF FF FF FF FF 05 03 42 08 E4 05 17 00 00 00 00 00 00 00 00 00 00 00 00 00 00 00 00 00 00 08 DF 05 12 00 00 00 00 00 00 00 00 00 00 00 00 00 00 00 00 00 00 08 E9 05 41 00 00 00 00 00 00 00 00 00 00 00 00 00 00 00 00 00 00 88 F8
16:01:21.537 设备发送:05 03 06 84 00 04 05 2C
16:01:23.543 设备接收:FF FF FF FF FF FF FF FF 05 03 08 00 00 66 A7 00 0E 41 90 ED 07
16:01:23.559 设备发送:05 03 04 04 00 01 C5 7F
16:01:25.558 设备接收:FF FF FF FF F3 54 4E
16:01:25.574 设备发送:06 03 04 84 00 04 04 A7
16:01:27.585 设备接收:FF FF FF FF FF FF
16:01:27.600 设备发送:06 03 04 8D 00 21 15 7E
16:01:29.600 设备接收:FF FF FF FF FF FF FF 06 03 42 08 E5 04 68 00 00 00 00 00 00 00 00 00 00 00 00 00 00 00 00 00 00 08 DF 04 6F 00 00 00 00 00 00 00 00 00 00 00 00 00 00 00 00 00 00 08 EA 04 9C 00 00 00 00 00 00 00 00 00 00 00 00 00 00 00 00 00 00 CE 3B
16:01:29.616 设备发送:06 03 06 84 00 04 05 1F
16:01:31.612 设备接收:FF FF FF FF FF FF FF
16:01:31.644 设备发送:06 03 04 04 00 01 C5 4C
16:01:33.623 设备接收:FF FF FF FF FF FF FF
16:01:33.669 设备发送:07 03 04 84 00 04 05 76
16:01:35.639 设备接收:FF FF FF FF FF FF FF FF 07 03 08 13 88 01 AF FF D7 01 BD 56 4A
16:01:35.687 设备发送:07 03 04 8D 00 21 14 AF
16:01:37.686 设备接收:FF FF FF FF FF FF FF 07 03 42 08 ED 02 87 00 00 00 00 00 00 00 00 00 00 00 00 00 00 00 00 00 00 08 E7 02 91 00 00 00 00 00 00 00 00 00 00 00 00 00 00 00 00 00 00 08 EC 02 87 00 00 00 00 00 00 00 00 00 00 00 00 00 00 00 00 00 00 6C A4
16:01:37.718 设备发送:07 03 06 84 00 04 04 CE
16:01:39.702 设备接收:FF FF FF FF FF FF FF 07 03 08 00 00 34 EC 00 07 0B 93 E8 60
16:01:39.718 设备发送:07 03 04 04 00 01 C4 9D
16:01:41.709 设备接收:FF FF FF FF FF FF FF 07 03 02 00 02 B1 85
16:01:41.740 设备发送:08 03 04 84 00 04 05 89
16:01:43.716 设备接收:FF FF FF FF FF FF 08 03 08 13 87 03 80 FF E3 03 80 CC 05
16:01:43.763 设备发送:08 03 04 8D 00 21 14 50
16:01:45.771 设备接收:FF FF FF FF FF FF FF 08 03 42 08 E2 05 41 00 00 00 00 00 00 00 00 00 00 00 00 00 00 00 00 00 00 08 DD 05 39 00 00 00 00 00 00 00 00 00 00 00 00 00 00 00 00 00 00 08 EA 05 8D 00 00 00 00 00 00 00 00 00 00 00 00 00 00 00 00 00 00 C4 AF
16:01:45.786 设备发送:08 03 06 84 00 04 04 31
16:01:47.768 设备接收:FF FF FF FF FF FF FF 08 03 08 00 00 6F E8 00 0F 59 29 19 8E
16:01:47.799 设备发送:08 03 04 04 00 01 C4 62
16:01:49.798 设备接收:FF FF FF FF FF FF FF 08 03 02 00 02 E5 84
16:01:49.814 设备发送:09 03 04 84 00 04 04 58
16:01:51.806 设备接收:FF FF FF FF FF FF FF FF 09 03 08 13 86 03 33 00 1C 03 33 9C 72
16:01:51.838 设备发送:09 03 04 8D 00 21 15 81
16:01:53.825 设备接收:FF FF FF FF FF FF FF 09 03 42 08 E2 04 B5 00 00 00 00 00 00 00 00 00 00 00 00 00 00 00 00 00 00 08 DB 04 D5 00 00 00 00 00 00 00 00 00 00 00 00 00 00 00 00 00 00 08 E8 04 E3 00 00 00 00 00 00 00 00 00 00 00 00 00 00 00 00 00 00 61 59
16:01:53.841 设备发送:09 03 06 84 00 04 05 E0
16:01:55.865 设备接收:FF FF FF FF FF FF FF 09 03 08 00 00 64 D0 00 0D F7 54 A0 4D
16:01:55.881 设备发送:09 03 04 04 00 01 C5 B3
16:01:57.874 设备接收:FF FF FF FF FF FF FF 09 03 02 00 02 D8 44
16:01:57.890 设备发送:0A 03 04 84 00 04 04 6B
16:01:59.891 设备接收:FF FF FF FF FF FF FF
16:01:59.907 设备发送:0A 03 04 8D 00 21 15 B2
16:02:01.922 设备接收:FF FF FF FF FF FF
16:02:01.938 设备发送:0A 03 06 84 00 04 05 D3
16:02:03.936 设备接收:FF FF FF FF FF FF
16:02:03.968 设备发送:0A 03 04 04 00 01 C5 80
16:02:05.949 设备接收:FF FF FF FF FF FF FF
16:02:05.965 设备发送:01 03 04 84 00 04 05 10
16:02:07.974 设备接收:FF FF FF FF FF FF FF FF 01 03 08 13 85 04 08 FF DE 04 09 72 AB
16:02:07.989 设备发送:01 03 04 8D 00 21 14 C9
16:02:10.002 设备接收:FF FF FF FF FF FF FF 01 03 42 08 E6 05 F3 00 00 00 00 00 00 00 00 00 00 00 00 00 00 00 00 00 00 08 E2 06 00 00 00 00 00 00 00 00 00 00 00 00 00 00 00 00 00 00 00 08 EC 06 1B 00 00 00 00 00 00 00 00 00 00 00 00 00 00 00 00 00 00 A4 57
16:02:10.018 设备发送:01 03 06 84 00 04 04 A8
16:02:12.015 设备接收:FF FF FF FF FF FF FF 01 03 08 00 00 89 AB 00 12 C6 CD 9D 66
16:02:12.031 设备发送:01 03 04 04 00 01 C4 FB
16:02:14.030 设备接收:FF FF FF FF FF FF FF
16:02:14.047 设备发送:02 03 04 84 00 04 05 23
16:02:16.064 设备接收:FF FF FF FF FF FF FF
16:02:16.080 设备发送:02 03 04 8D 00 21 14 FA
16:02:18.081 设备接收:FF FF FF FF FF FF 02 03 42 08 E5 06 2B 00 00 00 00 00 00 00 00 00 00 00 00 00 00 00 00 00 00 08 E1 06 25 00 00 00 00 00 00 00 00 00 00 00 00 00 00 00 00 00 00 08 EB 06 5A 00 00 00 00 00 00 00 00 00 00 00 00 00 00 00 00 00 00 AD 1C
16:02:18.097 设备发送:02 03 06 84 00 04 04 9B
16:02:20.115 设备接收:FF FF FF FF FF FF
16:02:20.131 设备发送:02 03 04 04 00 01 C4 C8
16:02:22.104 设备接收:FF FF FF FF FF FF FF
16:02:22.151 设备发送:03 03 04 84 00 04 04 F2
16:02:24.153 设备接收:FF FF FF FF FF FF FF 03 03 08 13 85 05 64 FF EA 05 64 69 78
16:02:24.169 设备发送:03 03 04 8D 00 21 15 2B
16:02:26.164 设备接收:FF FF FF FF FF FF FF FF 03 03 42 08 E2 07 F8 00 00 00 00 00 00 00 00 00 00 00 00 00 00 00 00 00 00 08 E8 07 F7 00 00 00 00 00 00 00 00 00 00 00 00 00 00 00 00 00 00 08 EE 08 24 00 00 00 00 00 00 00 00 00 00 00 00 00 00 00 00 00 00 5D 04
16:02:26.180 设备发送:03 03 06 84 00 04 05 4A
16:02:28.169 设备接收:FF FF FF FF FF FF FF FF 03 03 08 00 00 91 C3 00 13 92 5F 1A 62
16:02:28.201 设备发送:03 03 04 04 00 01 C5 19
16:02:30.186 设备接收:FF FF FF FF FF FF FF
16:02:30.233 设备发送:04 03 04 84 00 04 05 45
16:02:32.233 设备接收:FF FF FF FF FF FF FF
16:02:32.248 设备发送:04 03 04 8D 00 21 14 9C
16:02:34.233 设备接收:FF FF FF FF FF FF 04 03 42 08 E5 06 0B 00 00 00 00 00 00 00 00 00 00 00 00 00 00 00 00 00 00 08 DB 05 FF 00 00 00 00 00 00 00 00 00 00 00 00 00 00 00 00 00 00 08 EB 06 21 00 00 00 00 00 00 00 00 00 00 00 00 00 00 00 00 00 00 19 F2
16:02:34.248 设备发送:04 03 06 84 00 04 04 FD
16:02:36.232 设备接收:FF FF FF FF FF FF
16:02:36.294 设备发送:04 03 04 04 00 01 C4 AE
16:02:38.279 设备接收:FF FF FF FF FF FF FF
16:02:38.295 设备发送:05 03 04 84 00 04 04 94
16:02:40.278 设备接收:FF FF FF FF FF FF FF 05 03 08 13 85 03 49 FF FE 03 49 58 29
16:02:40.324 设备发送:05 03 04 8D 00 21 15 4D
16:02:42.323 设备接收:FF FF FF FF FF FF FF FF 05 03 42 08 E0 04 E3 00 00 00 00 00 00 00 00 00 00 00 00 00 00 00 00 00 00 08 E1 04 DE 00 00 00 00 00 00 00 00 00 00 00 00 00 00 00 00 00 00 08 EA 05 10 00 00 00 00 00 00 00 00 00 00 00 00 00 00 00 00 00 00 66 04
16:02:42.339 设备发送:05 03 06 84 00 04 05 2C
16:02:44.325 设备接收:FF FF FF FF FF FF FF FF 05 03 08 00 00 66 BA 00 0E 41 92 80 C4
16:02:44.341 设备发送:05 03 04 04 00 01 C5 7F
16:02:46.349 设备接收:FF FF FF FF FF FF FF
16:02:46.365 设备发送:06 03 04 84 00 04 04 A7
16:02:48.381 设备接收:FF FF FF FF FF FF
16:02:48.397 设备发送:06 03 04 8D 00 21 15 7E
16:02:50.397 设备接收:FF FF FF FF FF FF FF 06 03 42 08 E2 04 27 00 00 00 00 00 00 00 00 00 00 00 00 00 00 00 00 00 00 08 DE 04 2E 00 00 00 00 00 00 00 00 00 00 00 00 00 00 00 00 00 00 08 EA 04 5A 00 00 00 00 00 00 00 00 00 00 00 00 00 00 00 00 00 00 09 7C
16:02:50.428 设备发送:06 03 06 84 00 04 05 1F
16:02:52.432 设备接收:FF FF FF FF FF FF FF
16:02:52.448 设备发送:06 03 04 04 00 01 C5 4C
16:02:54.447 设备接收:FF FF FF FF FF FF FF
16:02:54.463 设备发送:07 03 04 84 00 04 05 76
16:02:56.440 设备接收:FF FF FF FF FF FF FF FF 07 03 08 13 85 01 9B FF DD 01 A5 1B 46
16:02:56.503 设备发送:07 03 04 8D 00 21 14 AF
16:02:58.478 设备接收:FF FF FF FF FF FF FF 07 03 42 08 EF 02 6A 00 00 00 00 00 00 00 00 00 00 00 00 00 00 00 00 00 00 08 E7 02 70 00 00 00 00 00 00 00 00 00 00 00 00 00 00 00 00 00 00 08 EE 02 68 00 00 00 00 00 00 00 00 00 00 00 00 00 00 00 00 00 00 4C 01
16:02:58.509 设备发送:07 03 06 84 00 04 04 CE
16:03:00.478 设备接收:FF FF FF FF FF FF FF 07 03 08 00 00 34 F6 00 07 0B 94 F0 60
16:03:00.525 设备发送:07 03 04 04 00 01 C4 9D
16:03:02.530 设备接收:FF FF FF FF FF FF FF 07 03 02 00 02 B1 85
16:03:02.546 设备发送:08 03 04 84 00 04 05 89
16:03:04.540 设备接收:FF FF FF FF FF FF 08 03 08 13 84 03 61 FF FF 03 61 42 9D
16:03:04.547 设备发送:08 03 04 8D 00 21 14 50
16:03:06.545 设备接收:FF FF FF FF FF FF FF 08 03 42 08 E3 05 23 00 00 00 00 00 00 00 00 00 00 00 00 00 00 00 00 00 00 08 D9 05 18 00 00 00 00 00 00 00 00 00 00 00 00 00 00 00 00 00 00 08 E6 05 62 00 00 00 00 00 00 00 00 00 00 00 00 00 00 00 00 00 00 E3 72
16:03:06.561 设备发送:08 03 06 84 00 04 04 31
16:03:08.570 设备接收:FF FF FF FF FF FF FF 08 03 08 00 00 6F FC 00 0F 59 2B A8 4C
16:03:08.586 设备发送:08 03 04 04 00 01 C4 62
16:03:10.600 设备接收:FF FF FF FF FF FF FF 08 03 02 00 02 E5 84
16:03:10.616 设备发送:09 03 04 84 00 04 04 58
16:03:12.617 设备接收:FF FF FF FF FF FF FF FF 09 03 08 13 85 03 0A 00 00 03 0A 32 A3
16:03:12.633 设备发送:09 03 04 8D 00 21 15 81
16:03:14.615 设备接收:FF FF FF FF FF FF FF 09 03 42 08 E4 04 81 00 00 00 00 00 00 00 00 00 00 00 00 00 00 00 00 00 00 08 DA 04 9E 00 00 00 00 00 00 00 00 00 00 00 00 00 00 00 00 00 00 08 E8 04 B5 00 00 00 00 00 00 00 00 00 00 00 00 00 00 00 00 00 00 F8 5F
16:03:14.661 设备发送:09 03 06 84 00 04 05 E0
16:03:16.660 设备接收:FF FF FF FF FF FF FF 09 03 08 00 00 64 E2 00 0D F7 56 18 48
16:03:16.676 设备发送:09 03 04 04 00 01 C5 B3
16:03:18.657 设备接收:FF FF FF FF FF FF FF 09 03 02 00 02 D8 44
16:03:18.689 设备发送:0A 03 04 84 00 04 04 6B
16:03:20.699 设备接收:FF FF FF FF FF FF FF
16:03:20.715 设备发送:0A 03 04 8D 00 21 15 B2
16:03:22.713 设备接收:FF FF FF FF FF FF
16:03:22.728 设备发送:0A 03 06 84 00 04 05 D3
16:03:24.722 设备接收:FF FF FF FF FF FF
16:03:24.769 设备发送:0A 03 04 04 00 01 C5 80
16:03:26.759 设备接收:FF FF FF FF FF FF FF
16:03:26.775 设备发送:01 03 04 84 00 04 05 10
16:03:28.778 设备接收:FF FF FF FF FF FF FF FF 01 03 08 13 85 03 E0 FF DE 03 E0 D0 B5
16:03:28.810 设备发送:01 03 04 8D 00 21 14 C9
16:03:30.787 设备接收:FF FF FF FF FF FF FF 01 03 42 08 E6 05 C6 00 00 00 00 00 00 00 00 00 00 00 00 00 00 00 00 00 00 08 E1 05 D4 00 00 00 00 00 00 00 00 00 00 00 00 00 00 00 00 00 00 08 ED 05 EB 00 00 00 00 00 00 00 00 00 00 00 00 00 00 00 00 00 00 3B 8E
16:03:30.802 设备发送:01 03 06 84 00 04 04 A8
16:03:32.803 设备接收:FF FF FF FF FF FF FF 01 03 08 00 00 89 C2 00 12 C6 CF 40 AE
16:03:32.820 设备发送:01 03 04 04 00 01 C4 FB
16:03:34.831 设备接收:FF FF FF FF FF FF FF
16:03:34.851 设备发送:02 03 04 84 00 04 05 23
16:03:36.857 设备接收:FF FF FF FF FF FF FF
16:03:36.872 设备发送:02 03 04 8D 00 21 14 FA
16:03:38.859 设备接收:FF FF FF FF FF FF 02 03 42 08 E1 05 C8 00 00 00 00 00 00 00 00 00 00 00 00 00 00 00 00 00 00 08 DC 05 C2 00 00 00 00 00 00 00 00 00 00 00 00 00 00 00 00 00 00 08 E7 05 F5 00 00 00 00 00 00 00 00 00 00 00 00 00 00 00 00 00 00 E1 7C
16:03:38.891 设备发送:02 03 06 84 00 04 04 9B
16:03:40.904 设备接收:FF FF FF FF FF FF
16:03:40.935 设备发送:02 03 04 04 00 01 C4 C8
16:03:42.918 设备接收:FF FF FF FF FF FF FF
16:03:42.934 设备发送:03 03 04 84 00 04 04 F2
16:03:44.950 设备接收:FF FF FF FF FF FF FF 03 03 08 13 85 05 26 00 00 05 26 80 A6
16:03:44.966 设备发送:03 03 04 8D 00 21 15 2B
16:03:46.947 设备接收:FF FF FF FF FF FF FF FF 03 03 42 08 E0 07 AA 00 00 00 00 00 00 00 00 00 00 00 00 00 00 00 00 00 00 08 E0 07 AD 00 00 00 00 00 00 00 00 00 00 00 00 00 00 00 00 00 00 08 E9 07 DA 00 00 00 00 00 00 00 00 00 00 00 00 00 00 00 00 00 00 3A 08
16:03:46.993 设备发送:03 03 06 84 00 04 05 4A
16:03:48.975 设备接收:FF FF FF FF FF FF FF FF
16:03:48.991 设备发送:03 03 04 04 00 01 C5 19
16:03:50.997 设备接收:FF FF FF FF FF FF FF 03 03 02 00 02 40 45
16:03:51.011 设备发送:04 03 04 84 00 04 05 45
16:03:53.015 设备接收:FF FF FF FF FF FF FF
16:03:53.031 设备发送:04 03 04 8D 00 21 14 9C
16:03:55.039 设备接收:FF FF FF FF FF FF 04 03 42 08 E1 05 C9 00 00 00 00 00 00 00 00 00 00 00 00 00 00 00 00 00 00 08 D7 05 C0 00 00 00 00 00 00 00 00 00 00 00 00 00 00 00 00 00 00 08 E7 05 E0 00 00 00 00 00 00 00 00 00 00 00 00 00 00 00 00 00 00 D6 A3
16:03:55.070 设备发送:04 03 06 84 00 04 04 FD
16:03:57.045 设备接收:FF FF FF FF FF FF
16:03:57.061 设备发送:04 03 04 04 00 01 C4 AE
16:03:59.075 设备接收:FF FF FF FF FF FF FF
16:03:59.091 设备发送:05 03 04 84 00 04 04 94
16:04:01.102 设备接收:FF FF FF FF FF FF FF 05 03 08 13 85 03 2B FF FE 03 2B 20 08
16:04:01.117 设备发送:05 03 04 8D 00 21 15 4D
16:04:03.102 设备接收:FF FF FF FF FF FF FF FF 05 03 42 08 E1 04 C4 00 00 00 00 00 00 00 00 00 00 00 00 00 00 00 00 00 00 08 DF 04 BA 00 00 00 00 00 00 00 00 00 00 00 00 00 00 00 00 00 00 08 E9 04 E9 00 00 00 00 00 00 00 00 00 00 00 00 00 00 00 00 00 00 9F 8C
16:04:03.118 设备发送:05 03 06 84 00 04 05 2C
16:04:05.141 设备接收:FF FF FF FF FF FF FF FF 05 03 08 00 00 66 CD 00 0E 41 94 F4 CD
16:04:05.156 设备发送:05 03 04 04 00 01 C5 7F
16:04:07.149 设备接收:FF FF FF FF FF FF FF
16:04:07.165 设备发送:06 03 04 84 00 04 04 A7
16:04:09.157 设备接收:FF FF FF FF FF FF
16:04:09.189 设备发送:06 03 04 8D 00 21 15 7E
16:04:11.191 设备接收:FF FF FF FF FF FF FF 06 03 42 08 E5 03 E6 00 00 00 00 00 00 00 00 00 00 00 00 00 00 00 00 00 00 08 DE 03 F2 00 00 00 00 00 00 00 00 00 00 00 00 00 00 00 00 00 00 08 E9 04 20 00 00 00 00 00 00 00 00 00 00 00 00 00 00 00 00 00 00 E2 0D
16:04:11.206 设备发送:06 03 06 84 00 04 05 1F
16:04:13.215 设备接收:FF FF FF FF FF FF FF
16:04:13.231 设备发送:06 03 04 04 00 01 C5 4C
16:04:15.223 设备接收:FF FF FF EF 93 4C 46
16:04:15.240 设备发送:07 03 04 84 00 04 05 76
16:04:17.264 设备接收:FF FF FF FF FF FF FF FF 07 03 08 13 86 01 89 FF E2 01 93 20 5F
16:04:17.280 设备发送:07 03 04 8D 00 21 14 AF
16:04:19.266 设备接收:FF FF FF FF FF FF FF 07 03 42 08 EC 02 4F 00 00 00 00 00 00 00 00 00 00 00 00 00 00 00 00 00 00 08 E2 02 5A 00 00 00 00 00 00 00 00 00 00 00 00 00 00 00 00 00 00 08 EB 02 4D 00 00 00 00 00 00 00 00 00 00 00 00 00 00 00 00 00 00 4F D2
16:04:19.283 设备发送:07 03 06 84 00 04 04 CE
16:04:21.291 设备接收:FF FF FF FF FF FF FF 07 03 08 00 00 34 FF 00 07 0B 95 ED A1
16:04:21.306 设备发送:07 03 04 04 00 01 C4 9D
16:04:23.308 设备接收:FF FF FF FF FF FF FF 07 03 02 00 02 B1 85
16:04:23.324 设备发送:08 03 04 84 00 04 05 89
16:04:25.320 设备接收:FF FF FF FF FF FF 08 03 08 13 87 03 3E 00 15 03 3E B4 48
16:04:25.352 设备发送:08 03 04 8D 00 21 14 50
16:04:27.338 设备接收:FF FF FF FF FF FF FF 08 03 42 08 DF 04 F3 00 00 00 00 00 00 00 00 00 00 00 00 00 00 00 00 00 00 08 D6 04 E9 00 00 00 00 00 00 00 00 00 00 00 00 00 00 00 00 00 00 08 E4 05 34 00 00 00 00 00 00 00 00 00 00 00 00 00 00 00 00 00 00 3B 92
16:04:27.370 设备发送:08 03 06 84 00 04 04 31
16:04:29.350 设备接收:FF FF FF FF FF FF FF 08 03 08 00 00 70 0E 00 0F 59 2D 13 F4
16:04:29.413 设备发送:08 03 04 04 00 01 C4 62
16:04:31.394 设备接收:FF FF FF FF FF FF FF 08 03 02 00 02 E5 84
16:04:31.409 设备发送:09 03 04 84 00 04 04 58
16:04:33.395 设备接收:FF FF FF FF FF FF FF FF 09 03 08 13 88 02 E5 FF E6 02 E6 EB 9B
16:04:33.442 设备发送:09 03 04 8D 00 21 15 81
16:04:35.443 设备接收:FF FF FF FF FF FF FF 09 03 42 08 DF 04 5F 00 00 00 00 00 00 00 00 00 00 00 00 00 00 00 00 00 00 08 D5 04 77 00 00 00 00 00 00 00 00 00 00 00 00 00 00 00 00 00 00 08 E5 04 8A 00 00 00 00 00 00 00 00 00 00 00 00 00 00 00 00 00 00 E1 6C
16:04:35.459 设备发送:09 03 06 84 00 04 05 E0
16:04:37.447 设备接收:FF FF FF FF FF FF FF 09 03 08 00 00 64 F3 00 0D F7 58 65 8F
16:04:37.462 设备发送:09 03 04 04 00 01 C5 B3
16:04:39.481 设备接收:FF FF FF FF FF FF FF 09 03 02 00 02 D8 44
16:04:39.497 设备发送:0A 03 04 84 00 04 04 6B
16:04:41.494 设备接收:FF FF FF FF FF FF FF
16:04:41.509 设备发送:0A 03 04 8D 00 21 15 B2
16:04:43.519 设备接收:FF FF FF FF FF FF
16:04:43.535 设备发送:0A 03 06 84 00 04 05 D3
16:04:45.534 设备接收:FF FF FF FF FF FF
16:04:45.550 设备发送:0A 03 04 04 00 01 C5 80
16:04:47.547 设备接收:FF FF FF FF FF FF FF
16:04:47.579 设备发送:01 03 04 84 00 04 05 10
16:04:49.559 设备接收:FF FF FF FF FF FF FF FF 01 03 08 13 87 03 C8 FF F7 03 C8 42 A5
16:04:49.574 设备发送:01 03 04 8D 00 21 14 C9
16:04:51.591 设备接收:FF FF FF FF FF FF FF 01 03 42 08 DF 05 9A 00 00 00 00 00 00 00 00 00 00 00 00 00 00 00 00 00 00 08 DA 05 A9 00 00 00 00 00 00 00 00 00 00 00 00 00 00 00 00 00 00 08 E7 05 BF 00 00 00 00 00 00 00 00 00 00 00 00 00 00 00 00 00 00 53 E3
16:04:51.607 设备发送:01 03 06 84 00 04 04 A8
16:04:53.603 设备接收:FF FF FF FF FF FF FF 01 03 08 00 00 89 D8 00 12 C6 D1 99 64
16:04:53.619 设备发送:01 03 04 04 00 01 C4 FB
16:04:55.634 设备接收:FF FF FF FF FF FF FF
16:04:55.666 设备发送:02 03 04 84 00 04 05 23
16:04:57.645 设备接收:FF FF FF FF FF FF FF
16:04:57.661 设备发送:02 03 04 8D 00 21 14 FA
16:04:59.663 设备接收:FF FF FF FF FF FF 02 03 42 08 E2 05 7C 00 00 00 00 00 00 00 00 00 00 00 00 00 00 00 00 00 00 08 DB 05 6E 00 00 00 00 00 00 00 00 00 00 00 00 00 00 00 00 00 00 08 E8 05 A2 00 00 00 00 00 00 00 00 00 00 00 00 00 00 00 00 00 00 7F 9C
16:04:59.678 设备发送:02 03 06 84 00 04 04 9B
16:05:01.695 设备接收:FF FF FF FF FF FF
16:05:01.712 设备发送:02 03 04 04 00 01 C4 C8
16:05:03.711 设备接收:FF FF FF FF FF FF FF
16:05:03.726 设备发送:03 03 04 84 00 04 04 F2
16:05:05.742 设备接收:FF FF FF FF FF FF FF 03 03 08 13 85 04 FD FF FE 04 FD F5 4B
16:05:05.758 设备发送:03 03 04 8D 00 21 15 2B
16:05:07.745 设备接收:FF FF FF FF FF FF FF FF 03 03 42 08 DE 07 66 00 00 00 00 00 00 00 00 00 00 00 00 00 00 00 00 00 00 08 DE 07 68 00 00 00 00 00 00 00 00 00 00 00 00 00 00 00 00 00 00 08 E7 07 9A 00 00 00 00 00 00 00 00 00 00 00 00 00 00 00 00 00 00 34 DB
16:05:07.760 设备发送:03 03 06 84 00 04 05 4A
16:05:09.765 设备接收:FF FF FF FF FF FF FF FF
16:05:09.781 设备发送:03 03 04 04 00 01 C5 19
16:05:11.789 设备接收:FF FF FF FF FF FF FF
16:05:11.804 设备发送:04 03 04 84 00 04 05 45
16:05:13.821 设备接收:FF FF FF FF FF FF FF
16:05:13.837 设备发送:04 03 04 8D 00 21 14 9C
16:05:15.828 设备接收:FF FF FF FF FF FF 04 03 42 08 DE 05 A2 00 00 00 00 00 00 00 00 00 00 00 00 00 00 00 00 00 00 08 D7 05 96 00 00 00 00 00 00 00 00 00 00 00 00 00 00 00 00 00 00 08 E8 05 B5 00 00 00 00 00 00 00 00 00 00 00 00 00 00 00 00 00 00 49 AD
16:05:15.844 设备发送:04 03 06 84 00 04 04 FD
16:05:17.859 设备接收:FF FF FF FF FF FF
16:05:17.875 设备发送:04 03 04 04 00 01 C4 AE
16:05:19.860 设备接收:FF FF FF FF FF FF FF
16:05:19.907 设备发送:05 03 04 84 00 04 04 94
16:05:21.897 设备接收:FF FF FF FF FF FF FF 05 03 08 13 85 03 06 00 00 03 06 1D F7
16:05:21.913 设备发送:05 03 04 8D 00 21 15 4D
16:05:23.926 设备接收:FF FF FF FF FF FF FF FF 05 03 42 08 DE 04 9E 00 00 00 00 00 00 00 00 00 00 00 00 00 00 00 00 00 00 08 DC 04 95 00 00 00 00 00 00 00 00 00 00 00 00 00 00 00 00 00 00 08 E5 04 C3 00 00 00 00 00 00 00 00 00 00 00 00 00 00 00 00 00 00 2F 05
16:05:23.942 设备发送:05 03 06 84 00 04 05 2C
16:05:25.938 设备接收:FF FF FF FF FF FF FF FF 05 03 08 00 00 66 DF 00 0E 41 96 CD 0F
16:05:25.953 设备发送:05 03 04 04 00 01 C5 7F
16:05:27.952 设备接收:FF FF FF FF FF FF FF
16:05:27.983 设备发送:06 03 04 84 00 04 04 A7
16:05:29.966 设备接收:FF FF FF FF FF FF
16:05:29.981 设备发送:06 03 04 8D 00 21 15 7E
16:05:32.007 设备接收:FF FF FF FF FF FF FF 06 03 42 08 E0 03 A5 00 00 00 00 00 00 00 00 00 00 00 00 00 00 00 00 00 00 08 D9 03 B0 00 00 00 00 00 00 00 00 00 00 00 00 00 00 00 00 00 00 08 E4 03 DE 00 00 00 00 00 00 00 00 00 00 00 00 00 00 00 00 00 00 09 A5
16:05:32.023 设备发送:06 03 06 84 00 04 05 1F
16:05:34.012 设备接收:FF FF FF FF F7 FF FF
16:05:34.028 设备发送:06 03 04 04 00 01 C5 4C
16:05:36.035 设备接收:FF FF FF FF FF FF FF
16:05:36.066 设备发送:07 03 04 84 00 04 05 76
16:05:38.044 设备接收:FF FF FF FF FF FF FF FF 07 03 08 13 87 01 80 FF D8 01 8B CC 99
16:05:38.062 设备发送:07 03 04 8D 00 21 14 AF
16:05:40.087 设备接收:FF FF FF FF FF FF FF 07 03 42 08 E9 02 41 00 00 00 00 00 00 00 00 00 00 00 00 00 00 00 00 00 00 08 E1 02 4A 00 00 00 00 00 00 00 00 00 00 00 00 00 00 00 00 00 00 08 E7 02 3E 00 00 00 00 00 00 00 00 00 00 00 00 00 00 00 00 00 00 CC 50
16:05:40.103 设备发送:07 03 06 84 00 04 04 CE
16:05:42.081 设备接收:FF FF FF FF FF FF FF 07 03 08 00 00 35 07 00 07 0B 96 0D A5
16:05:42.097 设备发送:07 03 04 04 00 01 C4 9D
16:05:44.112 设备接收:FF FF FF FF FF FF FF 07 03 02 00 02 B1 85
16:05:44.128 设备发送:08 03 04 84 00 04 05 89
16:05:46.132 设备接收:FF FF FF FF FF FF 08 03 08 13 87 03 23 FF E6 03 23 58 64
16:05:46.148 设备发送:08 03 04 8D 00 21 14 50
16:05:48.154 设备接收:FF FF FF FF FF FF FF 08 03 42 08 D9 04 C6 00 00 00 00 00 00 00 00 00 00 00 00 00 00 00 00 00 00 08 D4 04 BC 00 00 00 00 00 00 00 00 00 00 00 00 00 00 00 00 00 00 08 E0 05 0A 00 00 00 00 00 00 00 00 00 00 00 00 00 00 00 00 00 00 D5 4D
16:05:48.170 设备发送:08 03 06 84 00 04 04 31
16:05:50.162 设备接收:FF FF FF FF FF FF FF 08 03 08 00 00 70 21 00 0F 59 2F 47 F3
16:05:50.178 设备发送:08 03 04 04 00 01 C4 62
16:05:52.190 设备接收:FF FF FF FF FF FF FF 08 03 02 00 02 E5 84
16:05:52.206 设备发送:09 03 04 84 00 04 04 58
16:05:54.205 设备接收:FF FF FF FF FF FF FF FF 09 03 08 13 86 02 D3 00 02 02 D3 7C 6B
16:05:54.236 设备发送:09 03 04 8D 00 21 15 81
16:05:56.207 设备接收:FF FF FF FF FF FF FF 09 03 42 08 DD 04 3E 00 00 00 00 00 00 00 00 00 00 00 00 00 00 00 00 00 00 08 D8 04 58 00 00 00 00 00 00 00 00 00 00 00 00 00 00 00 00 00 00 08 E5 04 6B 00 00 00 00 00 00 00 00 00 00 00 00 00 00 00 00 00 00 04 0D
16:05:56.269 设备发送:09 03 06 84 00 04 05 E0
16:05:58.235 设备接收:FF FF FF FF FF FF FF 09 03 08 00 00 65 04 00 0D F7 5A 10 4A
16:05:58.282 设备发送:09 03 04 04 00 01 C5 B3
16:06:00.278 设备接收:FF FF FF FF FF FF FF 09 03 02 00 02 D8 44
16:06:00.294 设备发送:0A 03 04 84 00 04 04 6B
16:06:02.293 设备接收:FF FF FF FF FF FF FF
16:06:02.309 设备发送:0A 03 04 8D 00 21 15 B2
16:06:04.337 设备接收:FF FF FF FF FF FF
16:06:04.353 设备发送:0A 03 06 84 00 04 05 D3
16:06:06.316 设备接收:FF FF FF FF FF FF
16:06:06.333 设备发送:0A 03 04 04 00 01 C5 80
16:06:08.340 设备接收:FF FF FF FF FF FF FF
16:06:08.387 设备发送:01 03 04 84 00 04 05 10
16:06:10.371 设备接收:FF FF FF FF FF FF FF FF
16:06:10.387 设备发送:01 03 04 8D 00 21 14 C9
16:06:12.386 设备接收:FF FF FF FF FF FF FF 01 03 42 08 E0 05 74 00 00 00 00 00 00 00 00 00 00 00 00 00 00 00 00 00 00 08 DF 05 85 00 00 00 00 00 00 00 00 00 00 00 00 00 00 00 00 00 00 08 EB 05 94 00 00 00 00 00 00 00 00 00 00 00 00 00 00 00 00 00 00 EF F8
16:06:12.402 设备发送:01 03 06 84 00 04 04 A8
16:06:14.406 设备接收:FF FF FF FF FF FF FF
16:06:14.422 设备发送:01 03 04 04 00 01 C4 FB
16:06:16.440 设备接收:FF FF FF FF FF FF FF
16:06:16.456 设备发送:02 03 04 84 00 04 05 23
16:06:18.446 设备接收:FF FF FF FF FF FF FF
16:06:18.462 设备发送:02 03 04 8D 00 21 14 FA
16:06:20.481 设备接收:FF FF FF FF FF FF 02 03 42 08 E0 05 10 00 00 00 00 00 00 00 00 00 00 00 00 00 00 00 00 00 00 08 DD 05 13 00 00 00 00 00 00 00 00 00 00 00 00 00 00 00 00 00 00 08 E8 05 39 00 00 00 00 00 00 00 00 00 00 00 00 00 00 00 00 00 00 8B 0B
16:06:20.497 设备发送:02 03 06 84 00 04 04 9B
16:06:22.477 设备接收:FF FF FF FF FF FF
16:06:22.492 设备发送:02 03 04 04 00 01 C4 C8
16:06:24.513 设备接收:FF FF FF FF FF FF FF
16:06:24.529 设备发送:03 03 04 84 00 04 04 F2
16:06:26.524 设备接收:FF FF FF FF FF FF FF
16:06:26.540 设备发送:03 03 04 8D 00 21 15 2B
16:06:28.537 设备接收:FF FF FF FF FF FF FF FF
16:06:28.568 设备发送:03 03 06 84 00 04 05 4A
16:06:30.584 设备接收:FF FF FF FF FF FF FF FF
16:06:30.600 设备发送:03 03 04 04 00 01 C5 19
16:06:32.577 设备接收:FF FF FF FF FF FF FF
16:06:32.613 设备发送:04 03 04 84 00 04 05 45
16:06:34.612 设备接收:FF FF FF FF FF FF FF
16:06:34.628 设备发送:04 03 04 8D 00 21 14 9C
16:06:36.624 设备接收:FF FF FF FF FF FF 04 03 42 08 E1 05 7D 00 00 00 00 00 00 00 00 00 00 00 00 00 00 00 00 00 00 08 DA 05 70 00 00 00 00 00 00 00 00 00 00 00 00 00 00 00 00 00 00 08 E8 05 91 00 00 00 00 00 00 00 00 00 00 00 00 00 00 00 00 00 00 CC FD
16:06:36.639 设备发送:04 03 06 84 00 04 04 FD
16:06:38.647 设备接收:FF FF FF FF FF FF
16:06:38.680 设备发送:04 03 04 04 00 01 C4 AE
16:06:40.655 设备接收:FF FF FF FF FF FF FF
16:06:40.671 设备发送:05 03 04 84 00 04 04 94
16:06:42.685 设备接收:FF FF FF FF FF FF FF 05 03 08 13 8A 02 F5 00 19 02 F5 77 21
16:06:42.701 设备发送:05 03 04 8D 00 21 15 4D
16:06:44.720 设备接收:FF FF FF FF FF FF FF FF 05 03 42 08 DF 04 7B 00 00 00 00 00 00 00 00 00 00 00 00 00 00 00 00 00 00 08 DE 04 76 00 00 00 00 00 00 00 00 00 00 00 00 00 00 00 00 00 00 08 E8 04 AA 00 00 00 00 00 00 00 00 00 00 00 00 00 00 00 00 00 00 81 82
16:06:44.736 设备发送:05 03 06 84 00 04 05 2C
16:06:46.716 设备接收:FF FF FF FF FF FF FF B7
16:06:46.763 设备发送:05 03 04 04 00 01 C5 7F
16:06:48.752 设备接收:FF FF FF FF FF FF FF
16:06:48.769 设备发送:06 03 04 84 00 04 04 A7
16:06:50.771 设备接收:FF FF FF FF FF FF
16:06:50.802 设备发送:06 03 04 8D 00 21 15 7E
16:06:52.781 设备接收:FF FF FF FF FF FF FF 06 03 42 08 E2 03 75 00 00 00 00 00 00 00 00 00 00 00 00 00 00 00 00 00 00 08 DD 03 7E 00 00 00 00 00 00 00 00 00 00 00 00 00 00 00 00 00 00 08 E7 03 B0 00 00 00 00 00 00 00 00 00 00 00 00 00 00 00 00 00 00 AB 00
16:06:52.812 设备发送:06 03 06 84 00 04 05 1F
16:06:54.795 设备接收:FF FF FF FF FF FF FF
16:06:54.843 设备发送:06 03 04 04 00 01 C5 4C
16:06:56.830 设备接收:FF FF FF FF F5 66 FE
16:06:56.845 设备发送:07 03 04 84 00 04 05 76
16:06:58.851 设备接收:FF FF FF FF FF FF FF FF 07 03 08 13 8B 01 6C FF D8 01 79 10 CB
16:06:58.866 设备发送:07 03 04 8D 00 21 14 AF
16:07:00.865 设备接收:FF FF FF FF FF FF FF 07 03 42 08 EE 02 22 00 00 00 00 00 00 00 00 00 00 00 00 00 00 00 00 00 00 08 E7 02 2B 00 00 00 00 00 00 00 00 00 00 00 00 00 00 00 00 00 00 08 EF 02 1F 00 00 00 00 00 00 00 00 00 00 00 00 00 00 00 00 00 00 35 D3
16:07:00.880 设备发送:07 03 06 84 00 04 04 CE
16:07:02.896 设备接收:FF FF FF FF FF FF FF 07 03 08 00 00 35 10 00 07 0B 97 B8 66
16:07:02.927 设备发送:07 03 04 04 00 01 C4 9D
16:07:04.903 设备接收:FF FF FF FF FF FF FF 07 03 02 00 02 B1 85
16:07:04.919 设备发送:08 03 04 84 00 04 05 89
16:07:06.934 设备接收:FF FF FF FF FF FF 08 03 08 13 8B 02 FB 00 15 02 FC 35 89
16:07:06.950 设备发送:08 03 04 8D 00 21 14 50
16:07:08.951 设备接收:FF FF FF FF FF FF FF 08 03 42 08 E0 04 99 00 00 00 00 00 00 00 00 00 00 00 00 00 00 00 00 00 00 08 D7 04 87 00 00 00 00 00 00 00 00 00 00 00 00 00 00 00 00 00 00 08 E2 04 D6 00 00 00 00 00 00 00 00 00 00 00 00 00 00 00 00 00 00 DB E3
16:07:08.983 设备发送:08 03 06 84 00 04 04 31
16:07:10.968 设备接收:FF FF FF FF FF FF FF 08 03 08 00 00 70 32 00 0F 59 31 42 38
16:07:10.999 设备发送:08 03 04 04 00 01 C4 62
16:07:12.970 设备接收:FF FF FF FF FF FF FF 08 03 02 00 02 E5 84
16:07:13.016 设备发送:09 03 04 84 00 04 04 58
16:07:14.999 设备接收:FF FF FF FF FF FF FF FF 09 03 08 13 8B 02 B6 FF E9 02 B6 6C A8
16:07:15.015 设备发送:09 03 04 8D 00 21 15 81
16:07:17.018 设备接收:FF FF FF FF FF FF FF 09 03 42 08 E6 04 0F 00 00 00 00 00 00 00 00 00 00 00 00 00 00 00 00 00 00 08 DE 04 2E 00 00 00 00 00 00 00 00 00 00 00 00 00 00 00 00 00 00 08 EA 04 3B 00 00 00 00 00 00 00 00 00 00 00 00 00 00 00 00 00 00 15 BD
16:07:17.065 设备发送:09 03 06 84 00 04 05 E0
16:07:19.044 设备接收:FF FF FF FF FF FF FF 09 03 08 00 00 65 14 00 0D F7 5B 10 49
16:07:19.060 设备发送:09 03 04 04 00 01 C5 B3
16:07:21.065 设备接收:FF FF FF FF FF FF FF 09 03 02 00 02 D8 44
16:07:21.081 设备发送:0A 03 04 84 00 04 04 6B
16:07:23.102 设备接收:FF FF FF FF FF FF FF 08 13 8C 00 72 FF D3 00 A2 C4 7D
16:07:23.118 设备发送:0A 03 04 8D 00 21 15 B2
16:07:25.127 设备接收:FF FF FF FF FF FF 0A 03 42 08 E9 00 EC 00 00 00 00 00 00 00 00 00 00 00 00 00 00 00 00 00 00 08 E3 00 EF 00 00 00 00 00 00 00 00 00 00 00 00 00 00 00 00 00 00 08 EB 00 E4 00 00 00 00 00 00 00 00 00 00 00 00 00 00 00 00 00 00 DD 0E
16:07:25.142 设备发送:0A 03 06 84 00 04 05 D3
16:07:27.133 设备接收:FF FF FF FF FF FF
16:07:27.149 设备发送:0A 03 04 04 00 01 C5 80
16:07:29.145 设备接收:FF FF FF FF FF FF FF
16:07:29.161 设备发送:01 03 04 84 00 04 05 10
16:07:31.162 设备接收:FF FF FF FF FF FF FF FF
16:07:31.177 设备发送:01 03 04 8D 00 21 14 C9
16:07:33.178 设备接收:FF FF FF FF FF FF FF
16:07:33.193 设备发送:01 03 06 84 00 04 04 A8
16:07:35.208 设备接收:FF FF FF FF FF FF FF
16:07:35.239 设备发送:01 03 04 04 00 01 C4 FB
16:07:37.228 设备接收:FF FF FF FF FF FF FF
16:07:37.244 设备发送:02 03 04 84 00 04 05 23
16:07:39.255 设备接收:FF FF FF FF FF FF FF
16:07:39.287 设备发送:02 03 04 8D 00 21 14 FA
16:07:41.271 设备接收:FF FF FF FF FF FF 02 03 42 08 DC 04 CF 00 00 00 00 00 00 00 00 00 00 00 00 00 00 00 00 00 00 08 DB 04 D3 00 00 00 00 00 00 00 00 00 00 00 00 00 00 00 00 00 00 08 E6 05 08 00 00 00 00 00 00 00 00 00 00 00 00 00 00 00 00 00 00 16 DA
16:07:41.287 设备发送:02 03 06 84 00 04 04 9B
16:07:43.286 设备接收:FF FF FF FF FF FF
16:07:43.318 设备发送:02 03 04 04 00 01 C4 C8
16:07:45.315 设备接收:FF FF FF FF FF FF FF
16:07:45.331 设备发送:03 03 04 84 00 04 04 F2
16:07:47.331 设备接收:FF FF FF FF FF FF FF 03 03 08 13 8A 04 9F 00 18 04 A0 E3 99
16:07:47.362 设备发送:03 03 04 8D 00 21 15 2B
16:07:49.345 设备接收:FF FF FF FF FF FF FF FF
16:07:49.361 设备发送:03 03 06 84 00 04 05 4A
16:07:51.374 设备接收:FF FF FF FF FF FF FF FF
16:07:51.389 设备发送:03 03 04 04 00 01 C5 19
16:07:53.372 设备接收:FF FF FF FF FF FF FF
16:07:53.389 设备发送:04 03 04 84 00 04 05 45
16:07:55.414 设备接收:FF FF FF FF FF FF FF
16:07:55.430 设备发送:04 03 04 8D 00 21 14 9C
16:07:57.417 设备接收:FF FF FF FF FF FF 04 03 42 08 DE 05 47 00 00 00 00 00 00 00 00 00 00 00 00 00 00 00 00 00 00 08 D8 05 3F 00 00 00 00 00 00 00 00 00 00 00 00 00 00 00 00 00 00 08 E8 05 5E 00 00 00 00 00 00 00 00 00 00 00 00 00 00 00 00 00 00 16 5A
16:07:57.436 设备发送:04 03 06 84 00 04 04 FD
16:07:59.450 设备接收:FF FF FF FF FF FF
16:07:59.481 设备发送:04 03 04 04 00 01 C4 AE
16:08:01.460 设备接收:FF FF FF FF FF FF FF
16:08:01.476 设备发送:05 03 04 84 00 04 04 94
16:08:03.487 设备接收:FF FF FF FF FF FF FF 05 03 08 13 87 02 D7 FF E6 02 D8 93 DF
16:08:03.503 设备发送:05 03 04 8D 00 21 15 4D
16:08:05.500 设备接收:FF FF FF FF FF FF FF FF 05 03 42 08 DF 04 53 00 00 00 00 00 00 00 00 00 00 00 00 00 00 00 00 00 00 08 DB 04 4C 00 00 00 00 00 00 00 00 00 00 00 00 00 00 00 00 00 00 08 E6 04 80 00 00 00 00 00 00 00 00 00 00 00 00 00 00 00 00 00 00 18 9C
16:08:05.533 设备发送:05 03 06 84 00 04 05 2C
16:08:07.531 设备接收:FF FF FF FF FF FF FF FF
16:08:07.547 设备发送:05 03 04 04 00 01 C5 7F
16:08:09.536 设备接收:FF FF FF FF FF FF FF
16:08:09.582 设备发送:06 03 04 84 00 04 04 A7
16:08:11.569 设备接收:FF FF FF FF FF FF
16:08:11.584 设备发送:06 03 04 8D 00 21 15 7E
16:08:13.597 设备接收:FF FF FF FF FF FF FF 06 03 42 08 E3 03 4D 00 00 00 00 00 00 00 00 00 00 00 00 00 00 00 00 00 00 08 DD 03 5B 00 00 00 00 00 00 00 00 00 00 00 00 00 00 00 00 00 00 08 E9 03 82 00 00 00 00 00 00 00 00 00 00 00 00 00 00 00 00 00 00 B2 65
16:08:13.613 设备发送:06 03 06 84 00 04 05 1F
16:08:15.610 设备接收:FF FF FF FF FF FF FF
16:08:15.626 设备发送:06 03 04 04 00 01 C5 4C
16:08:17.640 设备接收:FF FF FF FF FF FF FF
16:08:17.656 设备发送:07 03 04 84 00 04 05 76
16:08:19.645 设备接收:FF FF FF FF FF FF FF FF 07 03 08 13 85 01 56 FF E1 01 62 B7 08
16:08:19.661 设备发送:07 03 04 8D 00 21 14 AF
16:08:21.659 设备接收:FF FF FF FF FF FF FF 07 03 42 08 E9 02 0D 00 00 00 00 00 00 00 00 00 00 00 00 00 00 00 00 00 00 08 E4 02 14 00 00 00 00 00 00 00 00 00 00 00 00 00 00 00 00 00 00 08 EB 02 0A 00 00 00 00 00 00 00 00 00 00 00 00 00 00 00 00 00 00 D8 8A
16:08:21.697 设备发送:07 03 06 84 00 04 04 CE
16:08:23.689 设备接收:FF FF FF FF FF FF FF 07 03 08 00 00 35 18 00 07 0B 98 19 A3
16:08:23.704 设备发送:07 03 04 04 00 01 C4 9D
16:08:25.699 设备接收:FF FF FF FF FF FF FF 07 03 02 00 02 B1 85
16:08:25.747 设备发送:08 03 04 84 00 04 05 89
16:08:27.719 设备接收:FF FF FF FF FF FF 08 03 08 13 85 02 E3 00 00 02 E3 AA 47
16:08:27.735 设备发送:08 03 04 8D 00 21 14 50
16:08:29.755 设备接收:FF FF FF FF FF FF FF 08 03 42 08 DA 04 65 00 00 00 00 00 00 00 00 00 00 00 00 00 00 00 00 00 00 08 D7 04 57 00 00 00 00 00 00 00 00 00 00 00 00 00 00 00 00 00 00 08 E3 04 A8 00 00 00 00 00 00 00 00 00 00 00 00 00 00 00 00 00 00 63 19
16:08:29.770 设备发送:08 03 06 84 00 04 04 31
16:08:31.765 设备接收:FF FF FF FF FF FF FF 08 03 08 00 00 70 43 00 0F 59 32 7E 32
16:08:31.781 设备发送:08 03 04 04 00 01 C4 62
16:08:33.794 设备接收:FF FF FF FF FF FF FF 08 03 02 00 02 E5 84
16:08:33.810 设备发送:09 03 04 84 00 04 04 58
16:08:35.792 设备接收:FF FF FF FF FF FF FF FF 09 03 08 13 85 02 A1 00 18 02 A1 D6 82
16:08:35.838 设备发送:09 03 04 8D 00 21 15 81
16:08:37.837 设备接收:FF FF FF FF FF FF FF 09 03 42 08 DC 03 F0 00 00 00 00 00 00 00 00 00 00 00 00 00 00 00 00 00 00 08 D9 04 0B 00 00 00 00 00 00 00 00 00 00 00 00 00 00 00 00 00 00 08 E8 04 21 00 00 00 00 00 00 00 00 00 00 00 00 00 00 00 00 00 00 60 A0
16:08:37.856 设备发送:09 03 06 84 00 04 05 E0
16:08:39.851 设备接收:FF FF FF FF FF FF FF 09 03 08 00 00 65 23 00 0D F7 5D 65 8F
16:08:39.867 设备发送:09 03 04 04 00 01 C5 B3
16:08:41.885 设备接收:FF FF FF FF FF FF FF 09 03 02 00 02 D8 44
16:08:41.916 设备发送:0A 03 04 84 00 04 04 6B
16:08:43.891 设备接收:FF FF FF FF FF FF FF 0A 03 08 13 84 00 6E FF D3 00 A0 1D BE
16:08:43.913 设备发送:0A 03 04 8D 00 21 15 B2
16:08:45.889 设备接收:FF FF FF FF FF FF 0A 03 42 08 EC 00 EC 00 00 00 00 00 00 00 00 00 00 00 00 00 00 00 00 00 00 08 E4 00 EF 00 00 00 00 00 00 00 00 00 00 00 00 00 00 00 00 00 00 08 EB 00 EA 00 00 00 00 00 00 00 00 00 00 00 00 00 00 00 00 00 00 09 32
16:08:45.920 设备发送:0A 03 06 84 00 04 05 D3
16:08:47.935 设备接收:FF FF FF
16:08:47.950 设备发送:0A 03 04 04 00 01 C5 80
16:08:49.940 设备接收:FF FF FF 1F D9 3F
16:08:49.987 设备发送:01 03 04 84 00 04 05 10
16:08:51.956 设备接收:FF FF FF FF FF FF FF FF
16:08:51.972 设备发送:01 03 04 8D 00 21 14 C9
16:08:54.002 设备接收:FF FF FF FF FF FF FF 01 03 42 08 DE 04 F9 00 00 00 00 00 00 00 00 00 00 00 00 00 00 00 00 00 00 08 DD 05 09 00 00 00 00 00 00 00 00 00 00 00 00 00 00 00 00 00 00 08 E8 05 23 00 00 00 00 00 00 00 00 00 00 00 00 00 00 00 00 00 00 CE 0E
16:08:54.018 设备发送:01 03 06 84 00 04 04 A8
16:08:56.003 设备接收:FF FF FF FF FF FF FF 01 03 08 00 00 8A 15 00 12 C6 D7 34 85
16:08:56.035 设备发送:01 03 04 04 00 01 C4 FB
16:08:58.011 设备接收:FF FF FF FF FF FF FF
16:08:58.042 设备发送:02 03 04 84 00 04 05 23
16:09:00.062 设备接收:FF FF FF FF FF FF FF
16:09:00.078 设备发送:02 03 04 8D 00 21 14 FA
16:09:02.074 设备接收:FF FF FF FF FF FF 02 03 42 08 E0 04 A5 00 00 00 00 00 00 00 00 00 00 00 00 00 00 00 00 00 00 08 DC 04 A7 00 00 00 00 00 00 00 00 00 00 00 00 00 00 00 00 00 00 08 E6 04 DB 00 00 00 00 00 00 00 00 00 00 00 00 00 00 00 00 00 00 6F 43
16:09:02.090 设备发送:02 03 06 84 00 04 04 9B
16:09:04.087 设备接收:FF FF FF FF FF FF
16:09:04.102 设备发送:02 03 04 04 00 01 C4 C8
16:09:06.117 设备接收:FF FF FF FF FF FF FF
16:09:06.132 设备发送:03 03 04 84 00 04 04 F2
16:09:08.119 设备接收:FF FF FF FF FF FF FF 03 03 08 13 85 04 76 FF E1 04 77 E1 35
16:09:08.150 设备发送:03 03 04 8D 00 21 15 2B
16:09:10.148 设备接收:FF FF FF FF FF FF FF FF 03 03 42 08 DF 06 A7 00 00 00 00 00 00 00 00 00 00 00 00 00 00 00 00 00 00 08 DF 06 A9 00 00 00 00 00 00 00 00 00 00 00 00 00 00 00 00 00 00 08 E7 06 D3 00 00 00 00 00 00 00 00 00 00 00 00 00 00 00 00 00 00 77 F4
16:09:10.163 设备发送:03 03 06 84 00 04 05 4A
16:09:12.164 设备接收:FF FF FF FF FF FF FF FF 03 03 08 00 00 92 50 00 13 92 6D 1F 99
16:09:12.180 设备发送:03 03 04 04 00 01 C5 19
16:09:14.182 设备接收:FF FF FF FF FF FF FF
16:09:14.197 设备发送:04 03 04 84 00 04 05 45
16:09:16.201 设备接收:FF FF FF FF FF FF FF
16:09:16.216 设备发送:04 03 04 8D 00 21 14 9C
16:09:18.215 设备接收:FF FF FF FF FF FF 04 03 42 08 DC 05 0F 00 00 00 00 00 00 00 00 00 00 00 00 00 00 00 00 00 00 08 D6 05 00 00 00 00 00 00 00 00 00 00 00 00 00 00 00 00 00 00 00 08 E6 05 23 00 00 00 00 00 00 00 00 00 00 00 00 00 00 00 00 00 00 A7 C1
16:09:18.231 设备发送:04 03 06 84 00 04 04 FD
16:09:20.230 设备接收:FF FF FF FF FF FF
16:09:20.262 设备发送:04 03 04 04 00 01 C4 AE
16:09:22.276 设备接收:FF FF FF FF FF FF FF
16:09:22.292 设备发送:05 03 04 84 00 04 04 94
16:09:24.300 设备接收:FF FF FF FF FF FF FF 05 03 08 13 86 02 BB 00 15 02 BC D2 DA
16:09:24.315 设备发送:05 03 04 8D 00 21 15 4D
16:09:26.316 设备接收:FF FF FF FF FF FF FF FF 05 03 42 08 DE 04 33 00 00 00 00 00 00 00 00 00 00 00 00 00 00 00 00 00 00 08 DC 04 29 00 00 00 00 00 00 00 00 00 00 00 00 00 00 00 00 00 00 08 E7 04 56 00 00 00 00 00 00 00 00 00 00 00 00 00 00 00 00 00 00 06 72
16:09:26.333 设备发送:05 03 06 84 00 04 05 2C
16:09:28.314 设备接收:FF FF FF FF FF FF FF FF
16:09:28.345 设备发送:05 03 04 04 00 01 C5 7F
16:09:30.355 设备接收:FF FF FF FF FF FF FF
16:09:30.371 设备发送:06 03 04 84 00 04 04 A7
16:09:32.355 设备接收:FF FF FF
16:09:32.401 设备发送:06 03 04 8D 00 21 15 7E
16:09:34.383 设备接收:FF FF FF FF FF FF FF 06 03 42 08 E1 03 2C 00 00 00 00 00 00 00 00 00 00 00 00 00 00 00 00 00 00 08 DC 03 31 00 00 00 00 00 00 00 00 00 00 00 00 00 00 00 00 00 00 08 E8 03 5B 00 00 00 00 00 00 00 00 00 00 00 00 00 00 00 00 00 00 40 71
16:09:34.399 设备发送:06 03 06 84 00 04 05 1F
16:09:36.413 设备接收:FF FF FF FF FF FF FF
16:09:36.444 设备发送:06 03 04 04 00 01 C5 4C
16:09:38.426 设备接收:FF FF FF DF F3 87 5E
16:09:38.442 设备发送:07 03 04 84 00 04 05 76
16:09:40.454 设备接收:FF FF FF FF FF FF FF FF 07 03 08 13 87 01 44 FF CF 01 56 4D 15
16:09:40.470 设备发送:07 03 04 8D 00 21 14 AF
16:09:42.475 设备接收:FF FF FF FF FF FF FF 07 03 42 08 EB 01 F1 00 00 00 00 00 00 00 00 00 00 00 00 00 00 00 00 00 00 08 E4 01 F7 00 00 00 00 00 00 00 00 00 00 00 00 00 00 00 00 00 00 08 E8 01 ED 00 00 00 00 00 00 00 00 00 00 00 00 00 00 00 00 00 00 55 C4
16:09:42.486 设备发送:07 03 06 84 00 04 04 CE
16:09:44.500 设备接收:FF FF FF FF FF FF FF 07 03 08 00 00 35 1F 00 07 0B 98 AC 63
16:09:44.516 设备发送:07 03 04 04 00 01 C4 9D
16:09:46.489 设备接收:FF FF FF FF FF FF FF 07 03 02 00 02 B1 85
16:09:46.508 设备发送:08 03 04 84 00 04 05 89
16:09:48.533 设备接收:FF FF FF FF FF FF 08 03 08 13 87 02 A2 FF FE 02 A2 24 5C
16:09:48.566 设备发送:08 03 04 8D 00 21 14 50
16:09:50.547 设备接收:FF FF FF FF FF FF FF 08 03 42 08 DE 04 37 00 00 00 00 00 00 00 00 00 00 00 00 00 00 00 00 00 00 08 D6 04 23 00 00 00 00 00 00 00 00 00 00 00 00 00 00 00 00 00 00 08 E4 04 6B 00 00 00 00 00 00 00 00 00 00 00 00 00 00 00 00 00 00 B0 EB
16:09:50.563 设备发送:08 03 06 84 00 04 04 31
16:09:52.572 设备接收:FF FF FF FF FF FF FF 08 03 08 00 00 70 53 00 0F 59 34 3F F3
16:09:52.604 设备发送:08 03 04 04 00 01 C4 62
16:09:54.578 设备接收:FF FF FF FF FF FF FF 08 03 02 00 02 E5 84
16:09:54.626 设备发送:09 03 04 84 00 04 04 58
16:09:56.605 设备接收:FF FF FF FF FF FF FF FF 09 03 08 13 86 02 72 FF E8 02 72 11 EA
16:09:56.621 设备发送:09 03 04 8D 00 21 15 81
16:09:58.623 设备接收:FF FF FF FF FF FF FF 09 03 42 08 E0 03 B7 00 00 00 00 00 00 00 00 00 00 00 00 00 00 00 00 00 00 08 D9 03 D4 00 00 00 00 00 00 00 00 00 00 00 00 00 00 00 00 00 00 08 E7 03 EE 00 00 00 00 00 00 00 00 00 00 00 00 00 00 00 00 00 00 D7 BC
16:09:58.642 设备发送:09 03 06 84 00 04 05 E0
16:10:00.640 设备接收:FF FF FF FF FF FF FF 09 03 08 00 00 65 32 00 0D F7 5E D9 8D
16:10:00.670 设备发送:09 03 04 04 00 01 C5 B3
16:10:02.659 设备接收:FF FF FF FF FF FF FF 09 03 02 00 02 D8 44
16:10:02.690 设备发送:0A 03 04 84 00 04 04 6B
16:10:04.673 设备接收:FF FF FF CF FF FF FE
16:10:04.704 设备发送:0A 03 04 8D 00 21 15 B2
16:10:06.702 设备接收:FF FF FF FF FF FF 0A 03 42 08 EB 00 E7 00 00 00 00 00 00 00 00 00 00 00 00 00 00 00 00 00 00 08 E5 00 EA 00 00 00 00 00 00 00 00 00 00 00 00 00 00 00 00 00 00 08 ED 00 E6 00 00 00 00 00 00 00 00 00 00 00 00 00 00 00 00 00 00 FB 7F
16:10:06.733 设备发送:0A 03 06 84 00 04 05 D3
16:10:08.736 设备接收:FF FF FF FF FF FF 00 16 FC 00 03 26 90 08 1D
16:10:08.752 设备发送:0A 03 04 04 00 01 C5 80
16:10:10.749 设备接收:FF FF FF 7F FA B3
16:10:10.769 设备发送:01 03 04 84 00 04 05 10
16:10:12.762 设备接收:FF FF FF FF FF FF FF FF
16:10:12.778 设备发送:01 03 04 8D 00 21 14 C9
16:10:14.789 设备接收:FF FF FF FF FF FF FF
16:10:14.805 设备发送:01 03 06 84 00 04 04 A8
16:10:16.803 设备接收:FF FF FF FF FF FF FF
16:10:16.819 设备发送:01 03 04 04 00 01 C4 FB
16:10:18.818 设备接收:FF FF FF FF FF FF FF
16:10:18.834 设备发送:02 03 04 84 00 04 05 23
16:10:20.857 设备接收:FF FF FF FF FF FF FF
16:10:20.873 设备发送:02 03 04 8D 00 21 14 FA
16:10:22.868 设备接收:FF FF FF FF FF FF 02 03 42 08 E3 04 5C 00 00 00 00 00 00 00 00 00 00 00 00 00 00 00 00 00 00 08 DC 04 56 00 00 00 00 00 00 00 00 00 00 00 00 00 00 00 00 00 00 08 E8 04 7C 00 00 00 00 00 00 00 00 00 00 00 00 00 00 00 00 00 00 3A 81
16:10:22.884 设备发送:02 03 06 84 00 04 04 9B
16:10:24.893 设备接收:FF FF FF FF FF FF
16:10:24.909 设备发送:02 03 04 04 00 01 C4 C8
16:10:26.891 设备接收:FF FF FF FF FF FF FF
16:10:26.939 设备发送:03 03 04 84 00 04 04 F2
16:10:28.913 设备接收:FF FF FF FF FF FF FF 03 03 08 13 85 04 1A FF F6 04 1A 00 D5
16:10:28.928 设备发送:03 03 04 8D 00 21 15 2B
16:10:30.936 设备接收:FF FF FF FF FF FF FF FF 03 03 42 08 DA 06 19 00 00 00 00 00 00 00 00 00 00 00 00 00 00 00 00 00 00 08 DF 06 24 00 00 00 00 00 00 00 00 00 00 00 00 00 00 00 00 00 00 08 E8 06 4F 00 00 00 00 00 00 00 00 00 00 00 00 00 00 00 00 00 00 C5 DA
16:10:30.952 设备发送:03 03 06 84 00 04 05 4A
16:10:32.964 设备接收:FF FF FF FF FF FF FF FF 03 03 08 00 00 92 68 00 13 92 70 7E 55
16:10:32.983 设备发送:03 03 04 04 00 01 C5 19
16:10:34.977 设备接收:FF FF FF FF FF FF FF
16:10:34.993 设备发送:04 03 04 84 00 04 05 45
16:10:37.020 设备接收:FF FF FF FF FF FF FF
16:10:37.036 设备发送:04 03 04 8D 00 21 14 9C
16:10:39.036 设备接收:FF FF FF FF FF FF 04 03 42 08 E2 04 BF 00 00 00 00 00 00 00 00 00 00 00 00 00 00 00 00 00 00 08 D9 04 AA 00 00 00 00 00 00 00 00 00 00 00 00 00 00 00 00 00 00 08 E8 04 D0 00 00 00 00 00 00 00 00 00 00 00 00 00 00 00 00 00 00 1E AF
16:10:39.052 设备发送:04 03 06 84 00 04 04 FD
16:10:41.050 设备接收:FF FF FF FF FF FF
16:10:41.065 设备发送:04 03 04 04 00 01 C4 AE
16:10:43.070 设备接收:FF FF FF FF FF FF FF
16:10:43.085 设备发送:05 03 04 84 00 04 04 94
16:10:45.078 设备接收:FF FF FF FF FF FF FF 05 03 08 13 85 02 90 FF E6 02 91 C5 E6
16:10:45.096 设备发送:05 03 04 8D 00 21 15 4D
16:10:47.096 设备接收:FF FF FF FF FF FF FF FF 05 03 42 08 E0 03 F4 00 00 00 00 00 00 00 00 00 00 00 00 00 00 00 00 00 00 08 DB 03 EE 00 00 00 00 00 00 00 00 00 00 00 00 00 00 00 00 00 00 08 E7 04 1A 00 00 00 00 00 00 00 00 00 00 00 00 00 00 00 00 00 00 25 93
16:10:47.111 设备发送:05 03 06 84 00 04 05 2C
16:10:49.146 设备接收:FF FF FF FF FF FF FF FF 05 03 08 00 00 67 1F 00 0E 41 9C 4C C8
16:10:49.161 设备发送:05 03 04 04 00 01 C5 7F
16:10:51.142 设备接收:FF FF FF FF F7 FD 56
16:10:51.173 设备发送:06 03 04 84 00 04 04 A7
16:10:53.160 设备接收:FF FF FF
16:10:53.175 设备发送:06 03 04 8D 00 21 15 7E
16:10:55.167 设备接收:FF FF FF FF FF FF FF 06 03 42 08 E1 03 06 00 00 00 00 00 00 00 00 00 00 00 00 00 00 00 00 00 00 08 DC 03 15 00 00 00 00 00 00 00 00 00 00 00 00 00 00 00 00 00 00 08 E8 03 49 00 00 00 00 00 00 00 00 00 00 00 00 00 00 00 00 00 00 99 D4
16:10:55.213 设备发送:06 03 06 84 00 04 05 1F
16:10:57.198 设备接收:FF FF FF FF FF FF FF 06 03 08 00 00 62 E4 00 0E 33 AF C2 B8
16:10:57.213 设备发送:06 03 04 04 00 01 C5 4C
16:10:59.229 设备接收:FF FF FF FF FF FF FF
16:10:59.260 设备发送:07 03 04 84 00 04 05 76
16:11:01.240 设备接收:FF FF FF FF FF FF FF FF 07 03 08 13 85 01 38 FF CF 01 4A 3E D6
16:11:01.256 设备发送:07 03 04 8D 00 21 14 AF
16:11:03.277 设备接收:FF FF FF FF FF FF FF 07 03 42 08 EE 01 DE 00 00 00 00 00 00 00 00 00 00 00 00 00 00 00 00 00 00 08 E4 01 E2 00 00 00 00 00 00 00 00 00 00 00 00 00 00 00 00 00 00 08 EC 01 D9 00 00 00 00 00 00 00 00 00 00 00 00 00 00 00 00 00 00 C5 B6
16:11:03.289 设备发送:07 03 06 84 00 04 04 CE
16:11:05.272 设备接收:FF FF FF FF FF FF FF 07 03 08 00 00 35 26 00 07 0B 99 F1 A6
16:11:05.304 设备发送:07 03 04 04 00 01 C4 9D
16:11:07.308 设备接收:FF FF FF FF FF FF FF 07 03 02 00 02 B1 85
16:11:07.323 设备发送:08 03 04 84 00 04 05 89
16:11:09.321 设备接收:FF FF FF FF FF FF 08 03 08 13 85 02 9C 00 01 02 9C AF AD
16:11:09.343 设备发送:08 03 04 8D 00 21 14 50
16:11:11.349 设备接收:FF FF FF FF FF FF FF 08 03 42 08 E0 04 0F 00 00 00 00 00 00 00 00 00 00 00 00 00 00 00 00 00 00 08 D7 03 FE 00 00 00 00 00 00 00 00 00 00 00 00 00 00 00 00 00 00 08 E4 04 4C 00 00 00 00 00 00 00 00 00 00 00 00 00 00 00 00 00 00 08 CC
16:11:11.365 设备发送:08 03 06 84 00 04 04 31
16:11:13.364 设备接收:FF FF FF FF FF FF FF 08 03 08 00 00 70 62 00 0F 59 36 C3 F6
16:11:13.380 设备发送:08 03 04 04 00 01 C4 62
16:11:15.380 设备接收:FF FF FF FF FF FF FF 08 03 02 00 02 E5 84
16:11:15.396 设备发送:09 03 04 84 00 04 04 58
16:11:17.412 设备接收:FF FF FF FF FF FF FF FF 09 03 08 13 85 02 66 FF E8 02 66 12 E6
16:11:17.428 设备发送:09 03 04 8D 00 21 15 81
16:11:19.410 设备接收:FF FF FF FF FF FF FF 09 03 42 08 E4 03 A0 00 00 00 00 00 00 00 00 00 00 00 00 00 00 00 00 00 00 08 DB 03 BB 00 00 00 00 00 00 00 00 00 00 00 00 00 00 00 00 00 00 08 E9 03 CE 00 00 00 00 00 00 00 00 00 00 00 00 00 00 00 00 00 00 79 A9
16:11:19.441 设备发送:09 03 06 84 00 04 05 E0
16:11:21.422 设备接收:FF FF FF FF FF FF FF 09 03 08 00 00 65 40 00 0D F7 60 60 56
16:11:21.486 设备发送:09 03 04 04 00 01 C5 B3
16:11:23.473 设备接收:FF FF FF FF FF FF FF 09 03 02 00 02 D8 44
16:11:23.489 设备发送:0A 03 04 84 00 04 04 6B
16:11:25.496 设备接收:FF FF FF FF 7F FF AF
16:11:25.511 设备发送:0A 03 04 8D 00 21 15 B2
16:11:27.523 设备接收:FF FF FF FF FF FF 0A 03 42 08 EA 00 EB 00 00 00 00 00 00 00 00 00 00 00 00 00 00 00 00 00 00 08 E0 00 EE 00 00 00 00 00 00 00 00 00 00 00 00 00 00 00 00 00 00 08 EA 00 E6 00 00 00 00 00 00 00 00 00 00 00 00 00 00 00 00 00 00 63 29
16:11:27.539 设备发送:0A 03 06 84 00 04 05 D3
16:11:29.535 设备接收:FF FF FF
16:11:29.567 设备发送:0A 03 04 04 00 01 C5 80
16:11:31.523 设备接收:FF FF FF FF FF FF FF
16:11:31.586 设备发送:01 03 04 84 00 04 05 10
16:11:33.568 设备接收:FF FF FF FF FF FF FF FF 01 03 08 13 85 03 14 FF FD 03 14 91 2D
16:11:33.584 设备发送:01 03 04 8D 00 21 14 C9
16:11:35.582 设备接收:FF FF FF FF FF FF FF 01 03 42 08 E1 04 9E 00 00 00 00 00 00 00 00 00 00 00 00 00 00 00 00 00 00 08 DC 04 AA 00 00 00 00 00 00 00 00 00 00 00 00 00 00 00 00 00 00 08 E8 04 C4 00 00 00 00 00 00 00 00 00 00 00 00 00 00 00 00 00 00 E0 F7
16:11:35.598 设备发送:01 03 06 84 00 04 04 A8
16:11:37.617 设备接收:FF FF FF FF FF FF FF 01 03 08 00 00 8A 39 00 12 C6 DB A5 46
16:11:37.623 设备发送:01 03 04 04 00 01 C4 FB
16:11:39.640 设备接收:FF FF FF FF FF FF FF
16:11:39.656 设备发送:02 03 04 84 00 04 05 23
16:11:41.642 设备接收:FF FF FF FF FF FF FF
16:11:41.660 设备发送:02 03 04 8D 00 21 14 FA
16:11:43.657 设备接收:FF FF FF FF FF FF 02 03 42 08 DF 04 4D 00 00 00 00 00 00 00 00 00 00 00 00 00 00 00 00 00 00 08 D9 04 4B 00 00 00 00 00 00 00 00 00 00 00 00 00 00 00 00 00 00 08 E5 04 82 00 00 00 00 00 00 00 00 00 00 00 00 00 00 00 00 00 00 74 D7
16:11:43.673 设备发送:02 03 06 84 00 04 04 9B
16:11:45.699 设备接收:FF FF FF FF FF FF
16:11:45.714 设备发送:02 03 04 04 00 01 C4 C8
16:11:47.703 设备接收:FF FF FF FF FF FF FF
16:11:47.719 设备发送:03 03 04 84 00 04 04 F2
16:11:49.729 设备接收:FF FF FF FF FF FF FF 03 03 08 13 87 04 03 00 10 04 04 6F 3C
16:11:49.745 设备发送:03 03 04 8D 00 21 15 2B
16:11:51.732 设备接收:FF FF FF FF FF FF FF FF 03 03 42 08 DD 05 F3 00 00 00 00 00 00 00 00 00 00 00 00 00 00 00 00 00 00 08 DC 05 FA 00 00 00 00 00 00 00 00 00 00 00 00 00 00 00 00 00 00 08 E8 06 2B 00 00 00 00 00 00 00 00 00 00 00 00 00 00 00 00 00 00 E7 88
16:11:51.748 设备发送:03 03 06 84 00 04 05 4A
16:11:53.772 设备接收:FF FF FF FF FF FF FF FF 03 03 08 00 00 92 80 00 13 92 72 9F 83
16:11:53.788 设备发送:03 03 04 04 00 01 C5 19
16:11:55.773 设备接收:FF FF FF FF FF FF FF
16:11:55.819 设备发送:04 03 04 84 00 04 05 45
16:11:57.799 设备接收:FF FF FF FF FF FF FF
16:11:57.832 设备发送:04 03 04 8D 00 21 14 9C
16:11:59.831 设备接收:FF FF FF FF FF FF 04 03 42 08 DF 04 B2 00 00 00 00 00 00 00 00 00 00 00 00 00 00 00 00 00 00 08 D8 04 9E 00 00 00 00 00 00 00 00 00 00 00 00 00 00 00 00 00 00 08 E8 04 C4 00 00 00 00 00 00 00 00 00 00 00 00 00 00 00 00 00 00 61 CE
16:11:59.847 设备发送:04 03 06 84 00 04 04 FD
16:12:01.845 设备接收:FF FF FF FF FF FF
16:12:01.860 设备发送:04 03 04 04 00 01 C4 AE
16:12:03.860 设备接收:FF FF FF FF FF FF FF
16:12:03.876 设备发送:05 03 04 84 00 04 04 94
16:12:05.877 设备接收:FF FF FF FF FF FF FF 05 03 08 13 89 02 80 00 01 02 80 88 0A
16:12:05.892 设备发送:05 03 04 8D 00 21 15 4D
16:12:07.902 设备接收:FF FF FF FF FF FF FF FF 05 03 42 08 DE 03 D7 00 00 00 00 00 00 00 00 00 00 00 00 00 00 00 00 00 00 08 DC 03 D2 00 00 00 00 00 00 00 00 00 00 00 00 00 00 00 00 00 00 08 E8 04 04 00 00 00 00 00 00 00 00 00 00 00 00 00 00 00 00 00 00 7B 03
16:12:07.918 设备发送:05 03 06 84 00 04 05 2C
16:12:09.915 设备接收:FF FF FF FF FF FF FF FF 05 03 08 00 00 67 2E 00 0E 41 9E B0 CD
16:12:09.947 设备发送:05 03 04 04 00 01 C5 7F
16:12:11.932 设备接收:FF FF FF FF FF FF FF
16:12:11.947 设备发送:06 03 04 84 00 04 04 A7
16:12:13.960 设备接收:FF FF FF FD 4A FF
16:12:13.976 设备发送:06 03 04 8D 00 21 15 7E
16:12:15.991 设备接收:FF FF FF FF FF FF FF 06 03 42 08 E2 03 05 00 00 00 00 00 00 00 00 00 00 00 00 00 00 00 00 00 00 08 DC 03 07 00 00 00 00 00 00 00 00 00 00 00 00 00 00 00 00 00 00 08 E9 03 21 00 00 00 00 00 00 00 00 00 00 00 00 00 00 00 00 00 00 00 36
16:12:16.007 设备发送:06 03 06 84 00 04 05 1F
16:12:17.995 设备接收:FF FF FF FF FF FF FF
16:12:18.027 设备发送:06 03 04 04 00 01 C5 4C
16:12:20.016 设备接收:FF FF FF FF FF FF FF
16:12:20.035 设备发送:07 03 04 84 00 04 05 76
16:12:22.044 设备接收:FF FF FF FF FF FF FF FF 07 03 08 13 89 01 32 FF D8 01 41 9B 14
16:12:22.060 设备发送:07 03 04 8D 00 21 14 AF
16:12:24.076 设备接收:FF FF FF FF FF FF FF 07 03 42 08 EE 01 CE 00 00 00 00 00 00 00 00 00 00 00 00 00 00 00 00 00 00 08 E4 01 D7 00 00 00 00 00 00 00 00 00 00 00 00 00 00 00 00 00 00 08 EC 01 CD 00 00 00 00 00 00 00 00 00 00 00 00 00 00 00 00 00 00 42 B8
16:12:24.091 设备发送:07 03 06 84 00 04 04 CE
16:12:26.091 设备接收:FF FF FF FF FF FF FF 07 03 08 00 00 35 2D 00 07 0B 9A 14 66
16:12:26.107 设备发送:07 03 04 04 00 01 C4 9D
16:12:28.093 设备接收:FF FF FF FF FF FF FF 07 03 02 00 02 B1 85
16:12:28.109 设备发送:08 03 04 84 00 04 05 89
16:12:30.100 设备接收:FF FF FF FF FF FF 08 03 08 13 8A 02 7E 00 01 02 7E 28 F2
16:12:30.163 设备发送:08 03 04 8D 00 21 14 50
16:12:32.148 设备接收:FF FF FF FF FF FF FF 08 03 42 08 E1 03 DB 00 00 00 00 00 00 00 00 00 00 00 00 00 00 00 00 00 00 08 D9 03 D1 00 00 00 00 00 00 00 00 00 00 00 00 00 00 00 00 00 00 08 E7 04 1F 00 00 00 00 00 00 00 00 00 00 00 00 00 00 00 00 00 00 62 71
16:12:32.179 设备发送:08 03 06 84 00 04 04 31
16:12:34.163 设备接收:FF FF FF FF FF FF FF 08 03 08 00 00 70 71 00 0F 59 37 87 F5
16:12:34.194 设备发送:08 03 04 04 00 01 C4 62
16:12:36.175 设备接收:FF FF FF FF FF FF FF 08 03 02 00 02 E5 84
16:12:36.191 设备发送:09 03 04 84 00 04 04 58
16:12:38.207 设备接收:FF FF FF FF FF FF FF FF 09 03 08 13 89 02 51 00 1A 02 51 FB 13
16:12:38.238 设备发送:09 03 04 8D 00 21 15 81
16:12:40.236 设备接收:FF FF FF FF FF FF FF 09 03 42 08 E1 03 82 00 00 00 00 00 00 00 00 00 00 00 00 00 00 00 00 00 00 08 DB 03 9A 00 00 00 00 00 00 00 00 00 00 00 00 00 00 00 00 00 00 08 E9 03 A6 00 00 00 00 00 00 00 00 00 00 00 00 00 00 00 00 00 00 86 45
16:12:40.252 设备发送:09 03 06 84 00 04 05 E0
16:12:42.236 设备接收:FF FF FF FF FF FF FF 09 03 08 00 00 65 4D 00 0D F7 61 8C 57
16:12:42.252 设备发送:09 03 04 04 00 01 C5 B3
16:12:44.278 设备接收:FF FF FF FF FF FF FF 09 03 02 00 02 D8 44
16:12:44.293 设备发送:0A 03 04 84 00 04 04 6B
16:12:46.296 设备接收:FF FF FF FF FF FF FF
16:12:46.312 设备发送:0A 03 04 8D 00 21 15 B2
16:12:48.316 设备接收:FF FF FF FF FF FF 0A 03 42 08 ED 00 DD 00 00 00 00 00 00 00 00 00 00 00 00 00 00 00 00 00 00 08 E5 00 DD 00 00 00 00 00 00 00 00 00 00 00 00 00 00 00 00 00 00 08 ED 00 D8 00 00 00 00 00 00 00 00 00 00 00 00 00 00 00 00 00 00 69 3F
16:12:48.331 设备发送:0A 03 06 84 00 04 05 D3
16:12:50.319 设备接收:FF FF FF FF F3 FF
16:12:50.328 设备发送:0A 03 04 04 00 01 C5 80
16:12:52.365 设备接收:FF FF FF EF F3 FA FF
16:12:52.381 设备发送:01 03 04 84 00 04 05 10
16:12:54.370 设备接收:FF FF FF FF FF FF FF FF 01 03 08 13 88 02 EE FF E2 02 EF E5 FD
16:12:54.386 设备发送:01 03 04 8D 00 21 14 C9
16:12:56.398 设备接收:FF FF FF FF FF FF FF 01 03 42 08 E2 04 61 00 00 00 00 00 00 00 00 00 00 00 00 00 00 00 00 00 00 08 DE 04 77 00 00 00 00 00 00 00 00 00 00 00 00 00 00 00 00 00 00 08 EA 04 8F 00 00 00 00 00 00 00 00 00 00 00 00 00 00 00 00 00 00 24 00
16:12:56.413 设备发送:01 03 06 84 00 04 04 A8
16:12:58.394 设备接收:FF FF FF FF FF FF FF
16:12:58.412 设备发送:01 03 04 04 00 01 C4 FB
16:13:00.406 设备接收:FF FF FF FF FF FF FF
16:13:00.422 设备发送:02 03 04 84 00 04 05 23
16:13:02.452 设备接收:FF FF FF FF FF FF FF
16:13:02.468 设备发送:02 03 04 8D 00 21 14 FA
16:13:04.452 设备接收:FF FF FF FF FF FF 02 03 42 08 E0 04 1C 00 00 00 00 00 00 00 00 00 00 00 00 00 00 00 00 00 00 08 DE 04 24 00 00 00 00 00 00 00 00 00 00 00 00 00 00 00 00 00 00 08 E9 04 57 00 00 00 00 00 00 00 00 00 00 00 00 00 00 00 00 00 00 8B 1A
16:13:04.474 设备发送:02 03 06 84 00 04 04 9B
16:13:06.500 设备接收:FF FF FF FF FF FF 02 03 08 00 00 85 6B 00 13 14 15 9F C5
16:13:06.516 设备发送:02 03 04 04 00 01 C4 C8
16:13:08.497 设备接收:FF FF FF FF FF FF FF
16:13:08.513 设备发送:03 03 04 84 00 04 04 F2
16:13:10.522 设备接收:FF FF FF FF FF FF FF 03 03 08 13 89 03 BE FF E0 03 BF 9F 34
16:13:10.537 设备发送:03 03 04 8D 00 21 15 2B
16:13:12.537 设备接收:FF FF FF FF FF FF FF FF 03 03 42 08 DD 05 8F 00 00 00 00 00 00 00 00 00 00 00 00 00 00 00 00 00 00 08 E0 05 95 00 00 00 00 00 00 00 00 00 00 00 00 00 00 00 00 00 00 08 EA 05 CC 00 00 00 00 00 00 00 00 00 00 00 00 00 00 00 00 00 00 C8 B3
16:13:12.551 设备发送:03 03 06 84 00 04 05 4A
16:13:14.540 设备接收:FF FF FF FF FF FF FF FF
16:13:14.586 设备发送:03 03 04 04 00 01 C5 19
16:13:16.587 设备接收:FF FF FF FF FF FF FF
16:13:16.617 设备发送:04 03 04 84 00 04 05 45
16:13:18.619 设备接收:FF FF FF FF FF FF FF
16:13:18.634 设备发送:04 03 04 8D 00 21 14 9C
16:13:20.645 设备接收:FF FF FF FF FF FF 04 03 42 08 E0 04 71 00 00 00 00 00 00 00 00 00 00 00 00 00 00 00 00 00 00 08 DB 04 64 00 00 00 00 00 00 00 00 00 00 00 00 00 00 00 00 00 00 08 E8 04 87 00 00 00 00 00 00 00 00 00 00 00 00 00 00 00 00 00 00 0E 63
16:13:20.661 设备发送:04 03 06 84 00 04 04 FD
16:13:22.649 设备接收:FF FF FF FF FF FF
16:13:22.663 设备发送:04 03 04 04 00 01 C4 AE
16:13:24.642 设备接收:FF FF FF FF FF FF FF
16:13:24.704 设备发送:05 03 04 84 00 04 04 94
16:13:26.677 设备接收:FF FF FF FF FF FF FF 05 03 08 13 8A 02 55 00 16 02 55 C7 43
16:13:26.693 设备发送:05 03 04 8D 00 21 15 4D
16:13:28.710 设备接收:FF FF FF FF FF FF FF FF 05 03 42 08 DE 03 9A 00 00 00 00 00 00 00 00 00 00 00 00 00 00 00 00 00 00 08 DD 03 97 00 00 00 00 00 00 00 00 00 00 00 00 00 00 00 00 00 00 08 E8 03 C8 00 00 00 00 00 00 00 00 00 00 00 00 00 00 00 00 00 00 99 AE
16:13:28.741 设备发送:05 03 06 84 00 04 05 2C
16:13:30.726 设备接收:FF FF FF FF FF FF FF FF 05 03 08 00 00 67 3C 00 0E 41 9F C9 0E
16:13:30.742 设备发送:05 03 04 04 00 01 C5 7F
16:13:32.755 设备接收:FF FF FF FF F8 E7 DF
16:13:32.770 设备发送:06 03 04 84 00 04 04 A7
16:13:34.756 设备接收:FF FF FF FF FF FF
16:13:34.778 设备发送:06 03 04 8D 00 21 15 7E
16:13:36.792 设备接收:FF FF FF FF FF FF FF 06 03 42 08 DE 02 DC 00 00 00 00 00 00 00 00 00 00 00 00 00 00 00 00 00 00 08 DB 02 E6 00 00 00 00 00 00 00 00 00 00 00 00 00 00 00 00 00 00 08 E7 03 0F 00 00 00 00 00 00 00 00 00 00 00 00 00 00 00 00 00 00 98 AC
16:13:36.810 设备发送:06 03 06 84 00 04 05 1F
16:13:38.800 设备接收:FF FF FF FF FF FF FF
16:13:38.879 设备发送:06 03 04 04 00 01 C5 4C
16:13:40.820 设备接收:FF FF FF FF FF FF FF
16:13:40.836 设备发送:07 03 04 84 00 04 05 76
16:13:42.856 设备接收:FF FF FF FF FF FF FF FF 07 03 08 13 8C 01 23 FF E1 01 31 E3 FE
16:13:42.872 设备发送:07 03 04 8D 00 21 14 AF
16:13:44.845 设备接收:FF FF FF FF FF FF FF 07 03 42 08 EE 01 BC 00 00 00 00 00 00 00 00 00 00 00 00 00 00 00 00 00 00 08 E3 01 C6 00 00 00 00 00 00 00 00 00 00 00 00 00 00 00 00 00 00 08 E9 01 B8 00 00 00 00 00 00 00 00 00 00 00 00 00 00 00 00 00 00 52 5E
16:13:44.860 设备发送:07 03 06 84 00 04 04 CE
16:13:46.882 设备接收:FF FF FF FF FF FF FF 07 03 08 00 00 35 34 00 07 0B 9A 09 A4
16:13:46.913 设备发送:07 03 04 04 00 01 C4 9D
16:13:48.901 设备接收:FF FF FF FF FF FF FF 07 03 02 00 02 B1 85
16:13:48.916 设备发送:08 03 04 84 00 04 05 89
16:13:50.916 设备接收:FF FF FF FF FF FF 08 03 08 13 8B 02 48 00 00 02 48 21 E0
16:13:50.932 设备发送:08 03 04 8D 00 21 14 50
16:13:52.920 设备接收:FF FF FF FF FF FF FF 08 03 42 08 DA 03 9C 00 00 00 00 00 00 00 00 00 00 00 00 00 00 00 00 00 00 08 D5 03 8A 00 00 00 00 00 00 00 00 00 00 00 00 00 00 00 00 00 00 08 E2 03 D5 00 00 00 00 00 00 00 00 00 00 00 00 00 00 00 00 00 00 83 89
16:13:52.969 设备发送:08 03 06 84 00 04 04 31
16:13:54.975 设备接收:FF FF FF FF FF FF FF 08 03 08 00 00 70 7F 00 0F 59 38 AE 30
16:13:54.991 设备发送:08 03 04 04 00 01 C4 62
16:13:56.968 设备接收:FF FF FF FF FF FF FF 08 03 02 00 02 E5 84
16:13:56.983 设备发送:09 03 04 84 00 04 04 58
16:13:58.990 设备接收:FF FF FF FF FF FF FF FF 09 03 08 13 8A 02 27 FF E5 02 28 C0 1E
16:13:59.005 设备发送:09 03 04 8D 00 21 15 81
16:14:01.011 设备接收:FF FF FF FF FF FF FF 09 03 42 08 E3 03 53 00 00 00 00 00 00 00 00 00 00 00 00 00 00 00 00 00 00 08 DC 03 6D 00 00 00 00 00 00 00 00 00 00 00 00 00 00 00 00 00 00 08 E8 03 7D 00 00 00 00 00 00 00 00 00 00 00 00 00 00 00 00 00 00 26 B3
16:14:01.067 设备发送:09 03 06 84 00 04 05 E0
16:14:03.044 设备接收:FF FF FF FF FF FF FF 09 03 08 00 00 65 5A 00 0D F7 62 B8 55
16:14:03.059 设备发送:09 03 04 04 00 01 C5 B3
16:14:05.074 设备接收:FF FF FF FF FF FF FF 09 03 02 00 02 D8 44
16:14:05.093 设备发送:0A 03 04 84 00 04 04 6B
16:14:07.083 设备接收:FF FF FF FF FF FF FF 61 FF DB 00 92 85 A8
16:14:07.099 设备发送:0A 03 04 8D 00 21 15 B2
16:14:09.115 设备接收:FF FF FF FF FF FF 0A 03 42 08 EB 00 DE 00 00 00 00 00 00 00 00 00 00 00 00 00 00 00 00 00 00 08 E2 00 E1 00 00 00 00 00 00 00 00 00 00 00 00 00 00 00 00 00 00 08 EB 00 DD 00 00 00 00 00 00 00 00 00 00 00 00 00 00 00 00 00 00 7E DC
16:14:09.130 设备发送:0A 03 06 84 00 04 05 D3
16:14:11.114 设备接收:FF FF FF FF FF FF
16:14:11.130 设备发送:0A 03 04 04 00 01 C5 80
16:14:13.136 设备接收:FF FF FF FF FF FF FF 0A 03 02 00 02 9C 44
16:14:13.155 设备发送:01 03 04 84 00 04 05 10
16:14:15.156 设备接收:FF FF FF FF FF FF FF FF
16:14:15.186 设备发送:01 03 04 8D 00 21 14 C9
16:14:17.185 设备接收:FF FF FF FF FF FF FF 01 03 42 08 DF 04 2F 00 00 00 00 00 00 00 00 00 00 00 00 00 00 00 00 00 00 08 DE 04 43 00 00 00 00 00 00 00 00 00 00 00 00 00 00 00 00 00 00 08 EB 04 5D 00 00 00 00 00 00 00 00 00 00 00 00 00 00 00 00 00 00 BF B8
16:14:17.201 设备发送:01 03 06 84 00 04 04 A8
16:14:18.49800

