
15:00:43.530 设备接收:08 03 08 13 8B 0D 10 FF E2 0D 10 94 FA
15:00:43.553 设备发送:08 03 04 8D 00 21 14 50
15:00:44.345 设备接收:08 03 42 08 F1 13 24 00 00 00 00 00 00 00 00 00 00 00 00 00 00 00 00 00 00 08 E8 13 18 00 00 00 00 00 00 00 00 00 00 00 00 00 00 00 00 00 00 08 FA 13 40 00 00 00 00 00 00 00 00 00 00 00 00 00 00 00 00 00 00 C7 2D
15:00:44.364 设备发送:08 03 06 84 00 04 04 31
15:00:45.180 设备接收:08 03 08 00 00 80 50 00 0F 1B 4D 9E 41
15:00:45.196 设备发送:08 03 04 04 00 01 C4 62
15:00:46.009 设备接收:08 03 02 00 02 E5 84
15:00:46.025 设备发送:09 03 04 84 00 04 04 58
15:00:46.837 设备接收:09 03 08 13 8A 0B F7 FF BC 0B F7 96 8E
15:00:46.852 设备发送:09 03 04 8D 00 21 15 81
15:00:47.629 设备接收:09 03 42 08 F7 11 61 00 00 00 00 00 00 00 00 00 00 00 00 00 00 00 00 00 00 08 EF 11 76 00 00 00 00 00 00 00 00 00 00 00 00 00 00 00 00 00 00 09 01 11 75 00 00 00 00 00 00 00 00 00 00 00 00 00 00 00 00 00 00 71 09
15:00:47.645 设备发送:09 03 06 84 00 04 05 E0
15:00:48.461 设备接收:09 03 08 00 00 73 F5 00 0D BF 44 D9 61
15:00:48.492 设备发送:09 03 04 04 00 01 C5 B3
15:00:49.274 设备接收:09 03 02 00 02 D8 44
15:00:49.306 设备发送:0A 03 04 84 00 04 04 6B
15:00:50.115 设备接收:0A 03 08 13 8A 02 2D FF CF 02 38 77 5F
15:00:50.130 设备发送:0A 03 04 8D 00 21 15 B2
15:00:50.943 设备接收:0A 03 42 08 FF 03 2D 00 00 00 00 00 00 00 00 00 00 00 00 00 00 00 00 00 00 08 F9 03 30 00 00 00 00 00 00 00 00 00 00 00 00 00 00 00 00 00 00 09 02 03 2A 00 00 00 00 00 00 00 00 00 00 00 00 00 00 00 00 00 00 16 E3
15:00:50.958 设备发送:0A 03 06 84 00 04 05 D3
15:00:51.738 设备接收:0A 03 08 00 00 1B 02 00 03 19 FC 31 09
15:00:51.786 设备发送:0A 03 04 04 00 01 C5 80
15:00:52.593 设备接收:0A 03 02 00 02 9C 44
15:00:52.608 设备发送:01 03 04 84 00 04 05 10
15:00:53.419 设备接收:01 03 08 13 8A 0F F7 FF 9F 0F F8 0E 64
15:00:53.440 设备发送:01 03 04 8D 00 21 14 C9
15:00:54.219 设备接收:01 03 42 08 FE 17 0F 00 00 00 00 00 00 00 00 00 00 00 00 00 00 00 00 00 00 09 0F 17 18 00 00 00 00 00 00 00 00 00 00 00 00 00 00 00 00 00 00 09 0E 17 2C 00 00 00 00 00 00 00 00 00 00 00 00 00 00 00 00 00 00 A5 10
15:00:54.234 设备发送:01 03 06 84 00 04 04 A8
15:00:55.013 设备接收:01 03 08 00 00 92 63 00 12 7D 6B 8D D7
15:00:55.059 设备发送:01 03 04 04 00 01 C4 FB
15:00:55.869 设备接收:01 03 02 00 02 39 85
15:00:55.884 设备发送:02 03 04 84 00 04 05 23
15:00:56.697 设备接收:02 03 08 13 8A 11 7A FF DB 11 7A E7 55
15:00:56.713 设备发送:02 03 04 8D 00 21 14 FA
15:00:57.495 设备接收:02 03 42 09 00 19 32 00 00 00 00 00 00 00 00 00 00 00 00 00 00 00 00 00 00 09 13 19 37 00 00 00 00 00 00 00 00 00 00 00 00 00 00 00 00 00 00 09 0D 19 4D 00 00 00 00 00 00 00 00 00 00 00 00 00 00 00 00 00 00 A6 33
15:00:57.510 设备发送:02 03 06 84 00 04 04 9B
15:00:58.324 设备接收:02 03 08 00 00 96 42 00 12 CB A8 09 21
15:00:58.340 设备发送:02 03 04 04 00 01 C4 C8
15:00:59.150 设备接收:02 03 02 00 02 7D 85
15:00:59.165 设备发送:03 03 04 84 00 04 04 F2
15:00:59.945 设备接收:03 03 08 13 8A 13 2D 00 21 13 2D C7 3C
15:00:59.961 设备发送:03 03 04 8D 00 21 15 2B
15:01:00.776 设备接收:03 03 42 08 FE 1B 9F 00 00 00 00 00 00 00 00 00 00 00 00 00 00 00 00 00 00 09 18 1B 98 00 00 00 00 00 00 00 00 00 00 00 00 00 00 00 00 00 00 09 11 1B B0 00 00 00 00 00 00 00 00 00 00 00 00 00 00 00 00 00 00 03 3A
15:01:00.808 设备发送:03 03 06 84 00 04 05 4A
15:01:01.586 设备接收:03 03 08 00 00 A3 F8 00 13 42 97 A7 E3
15:01:01.617 设备发送:03 03 04 04 00 01 C5 19
15:01:02.426 设备接收:03 03 02 00 02 40 45
15:01:02.442 设备发送:04 03 04 84 00 04 05 45
15:01:03.249 设备接收:04 03 08 13 89 0F EA FF D9 0F EA A1 72
15:01:03.265 设备发送:04 03 04 8D 00 21 14 9C
15:01:04.076 设备接收:04 03 42 09 05 17 01 00 00 00 00 00 00 00 00 00 00 00 00 00 00 00 00 00 00 08 F7 16 FF 00 00 00 00 00 00 00 00 00 00 00 00 00 00 00 00 00 00 09 13 17 05 00 00 00 00 00 00 00 00 00 00 00 00 00 00 00 00 00 00 E3 5D
15:01:04.107 设备发送:04 03 06 84 00 04 04 FD
15:01:04.872 设备接收:04 03 08 00 00 88 4C 00 10 9F B2 63 1D
15:01:04.920 设备发送:04 03 04 04 00 01 C4 AE
15:01:05.729 设备接收:04 03 02 00 02 F5 85
15:01:05.745 设备发送:05 03 04 84 00 04 04 94
15:01:06.552 设备接收:05 03 08 13 89 0D 0B FF E5 0D 0B 19 5E
15:01:06.568 设备发送:05 03 04 8D 00 21 15 4D
15:01:07.345 设备接收:05 03 42 08 FE 12 E0 00 00 00 00 00 00 00 00 00 00 00 00 00 00 00 00 00 00 09 06 12 D3 00 00 00 00 00 00 00 00 00 00 00 00 00 00 00 00 00 00 09 0C 12 E1 00 00 00 00 00 00 00 00 00 00 00 00 00 00 00 00 00 00 95 3C
15:01:07.360 设备发送:05 03 06 84 00 04 05 2C
15:01:08.171 设备接收:05 03 08 00 00 72 46 00 0E 09 22 E4 70
15:01:08.187 设备发送:05 03 04 04 00 01 C5 7F
15:01:09.001 设备接收:05 03 02 00 02 C8 45
15:01:09.016 设备发送:06 03 04 84 00 04 04 A7
15:01:09.827 设备接收:06 03 08 13 88 0B 3C 00 16 0B 3C 71 29
15:01:09.843 设备发送:06 03 04 8D 00 21 15 7E
15:01:10.621 设备接收:06 03 42 08 FE 10 47 00 00 00 00 00 00 00 00 00 00 00 00 00 00 00 00 00 00 09 00 10 44 00 00 00 00 00 00 00 00 00 00 00 00 00 00 00 00 00 00 09 09 10 69 00 00 00 00 00 00 00 00 00 00 00 00 00 00 00 00 00 00 DC EE
15:01:10.668 设备发送:06 03 06 84 00 04 05 1F
15:01:11.448 设备接收:06 03 08 00 00 6E A2 00 0D FE 1D 6F 5E
15:01:11.496 设备发送:06 03 04 04 00 01 C5 4C
15:01:12.277 设备接收:06 03 02 00 02 8C 45
15:01:12.293 设备发送:07 03 04 84 00 04 05 76
15:01:13.101 设备接收:07 03 08 13 88 06 D4 FF D7 06 DB 31 ED
15:01:13.133 设备发送:07 03 04 8D 00 21 14 AF
15:01:13.943 设备接收:07 03 42 09 02 09 E6 00 00 00 00 00 00 00 00 00 00 00 00 00 00 00 00 00 00 08 FD 09 EB 00 00 00 00 00 00 00 00 00 00 00 00 00 00 00 00 00 00 09 01 09 EE 00 00 00 00 00 00 00 00 00 00 00 00 00 00 00 00 00 00 63 EE
15:01:13.960 设备发送:07 03 06 84 00 04 04 CE
15:01:14.771 设备接收:07 03 08 00 00 3C F6 00 06 EE 6A 6B F8
15:01:14.787 设备发送:07 03 04 04 00 01 C4 9D
15:01:15.567 设备接收:07 03 02 00 02 B1 85
15:01:15.582 设备发送:08 03 04 84 00 04 05 89
15:01:16.416 设备接收:08 03 08 13 86 0C D7 FF B2 0C D8 FC 2D
15:01:16.431 设备发送:08 03 04 8D 00 21 14 50
15:01:17.201 设备接收:08 03 42 08 EF 12 C8 00 00 00 00 00 00 00 00 00 00 00 00 00 00 00 00 00 00 08 E9 12 C9 00 00 00 00 00 00 00 00 00 00 00 00 00 00 00 00 00 00 08 F9 12 F0 00 00 00 00 00 00 00 00 00 00 00 00 00 00 00 00 00 00 05 10
15:01:17.276 设备发送:08 03 06 84 00 04 04 31
15:01:18.026 设备接收:08 03 08 00 00 80 6E 00 0F 1B 50 77 8D
15:01:18.041 设备发送:08 03 04 04 00 01 C4 62
15:01:18.851 设备接收:08 03 02 00 02 E5 84
15:01:18.867 设备发送:09 03 04 84 00 04 04 58
15:01:19.681 设备接收:09 03 08 13 86 0B BA 00 18 0B BA C7 42
15:01:19.696 设备发送:09 03 04 8D 00 21 15 81
15:01:20.506 设备接收:09 03 42 08 F8 11 17 00 00 00 00 00 00 00 00 00 00 00 00 00 00 00 00 00 00 08 ED 11 23 00 00 00 00 00 00 00 00 00 00 00 00 00 00 00 00 00 00 09 00 11 2E 00 00 00 00 00 00 00 00 00 00 00 00 00 00 00 00 00 00 AC C6
15:01:20.521 设备发送:09 03 06 84 00 04 05 E0
15:01:21.334 设备接收:09 03 08 00 00 74 11 00 0D BF 47 E8 C1
15:01:21.350 设备发送:09 03 04 04 00 01 C5 B3
15:01:22.133 设备接收:09 03 02 00 02 D8 44
15:01:22.148 设备发送:0A 03 04 84 00 04 04 6B
15:01:22.974 设备接收:0A 03 08 13 85 02 1D FF DF 02 27 88 56
15:01:22.990 设备发送:0A 03 04 8D 00 21 15 B2
15:01:23.796 设备接收:0A 03 42 08 FD 03 27 00 00 00 00 00 00 00 00 00 00 00 00 00 00 00 00 00 00 08 F6 03 28 00 00 00 00 00 00 00 00 00 00 00 00 00 00 00 00 00 00 08 FF 03 25 00 00 00 00 00 00 00 00 00 00 00 00 00 00 00 00 00 00 46 C9
15:01:23.812 设备发送:0A 03 06 84 00 04 05 D3
15:01:24.625 设备接收:0A 03 08 00 00 1B 07 00 03 19 FD 3C C9
15:01:24.641 设备发送:0A 03 04 04 00 01 C5 80
15:01:25.419 设备接收:0A 03 02 00 02 9C 44
15:01:25.435 设备发送:01 03 04 84 00 04 05 10
15:01:26.247 设备接收:01 03 08 13 85 0F 71 FF A1 0F 72 98 D1
15:01:26.263 设备发送:01 03 04 8D 00 21 14 C9
15:01:27.060 设备接收:01 03 42 08 FC 16 57 00 00 00 00 00 00 00 00 00 00 00 00 00 00 00 00 00 00 09 09 16 64 00 00 00 00 00 00 00 00 00 00 00 00 00 00 00 00 00 00 09 0A 16 72 00 00 00 00 00 00 00 00 00 00 00 00 00 00 00 00 00 00 D6 4D
15:01:27.075 设备发送:01 03 06 84 00 04 04 A8
15:01:27.888 设备接收:01 03 08 00 00 92 88 00 12 7D 6F A8 03
15:01:27.903 设备发送:01 03 04 04 00 01 C4 FB
15:01:28.699 设备接收:01 03 02 00 02 39 85
15:01:28.715 设备发送:02 03 04 84 00 04 05 23
15:01:29.525 设备接收:02 03 08 13 85 11 03 FF D9 11 04 A4 7F
15:01:29.541 设备发送:02 03 04 8D 00 21 14 FA
15:01:30.324 设备接收:02 03 42 09 01 18 80 00 00 00 00 00 00 00 00 00 00 00 00 00 00 00 00 00 00 09 12 18 95 00 00 00 00 00 00 00 00 00 00 00 00 00 00 00 00 00 00 09 0D 18 98 00 00 00 00 00 00 00 00 00 00 00 00 00 00 00 00 00 00 DC AA
15:01:30.370 设备发送:02 03 06 84 00 04 04 9B
15:01:31.179 设备接收:02 03 08 00 00 96 6A 00 12 CB AC 68 E4
15:01:31.195 设备发送:02 03 04 04 00 01 C4 C8
15:01:31.976 设备接收:02 03 02 00 02 7D 85
15:01:31.992 设备发送:03 03 04 84 00 04 04 F2
15:01:32.816 设备接收:03 03 08 13 85 12 B7 FF 8C 12 B8 01 FB
15:01:32.831 设备发送:03 03 04 8D 00 21 15 2B
15:01:33.658 设备接收:03 03 42 08 FA 1B 01 00 00 00 00 00 00 00 00 00 00 00 00 00 00 00 00 00 00 09 15 1A FE 00 00 00 00 00 00 00 00 00 00 00 00 00 00 00 00 00 00 09 11 1B 18 00 00 00 00 00 00 00 00 00 00 00 00 00 00 00 00 00 00 D5 C0
15:01:33.673 设备发送:03 03 06 84 00 04 05 4A
15:01:34.437 设备接收:03 03 08 00 00 A4 25 00 13 42 9C 0B 80
15:01:34.485 设备发送:03 03 04 04 00 01 C5 19
15:01:35.295 设备接收:03 03 02 00 02 40 45
15:01:35.311 设备发送:04 03 04 84 00 04 05 45
15:01:36.074 设备接收:04 03 08 13 85 0F 96 00 17 0F 96 6C B2
15:01:36.121 设备发送:04 03 04 8D 00 21 14 9C
15:01:36.934 设备接收:04 03 42 09 00 16 91 00 00 00 00 00 00 00 00 00 00 00 00 00 00 00 00 00 00 08 F3 16 90 00 00 00 00 00 00 00 00 00 00 00 00 00 00 00 00 00 00 09 0F 16 96 00 00 00 00 00 00 00 00 00 00 00 00 00 00 00 00 00 00 5B F1
15:01:36.949 设备发送:04 03 06 84 00 04 04 FD
15:01:37.761 设备接收:04 03 08 00 00 88 70 00 10 9F B5 72 DA
15:01:37.776 设备发送:04 03 04 04 00 01 C4 AE
15:01:38.558 设备接收:04 03 02 00 02 F5 85
15:01:38.573 设备发送:05 03 04 84 00 04 04 94
15:01:39.399 设备接收:05 03 08 13 85 0C B3 FF E9 0C B3 B5 75
15:01:39.415 设备发送:05 03 04 8D 00 21 15 4D
15:01:40.193 设备接收:05 03 42 08 FB 12 63 00 00 00 00 00 00 00 00 00 00 00 00 00 00 00 00 00 00 09 06 12 59 00 00 00 00 00 00 00 00 00 00 00 00 00 00 00 00 00 00 09 0B 12 6B 00 00 00 00 00 00 00 00 00 00 00 00 00 00 00 00 00 00 8E 2D
15:01:40.208 设备发送:05 03 06 84 00 04 05 2C
15:01:41.021 设备接收:05 03 08 00 00 72 65 00 0E 09 25 60 75
15:01:41.052 设备发送:05 03 04 04 00 01 C5 7F
15:01:41.831 设备接收:05 03 02 00 02 C8 45
15:01:41.847 设备发送:06 03 04 84 00 04 04 A7
15:01:42.642 设备接收:06 03 08 13 84 0A E4 FF C2 0A E5 2C CD
15:01:42.673 设备发送:06 03 04 8D 00 21 15 7E
15:01:43.486 设备接收:06 03 42 08 FB 0F C6 00 00 00 00 00 00 00 00 00 00 00 00 00 00 00 00 00 00 09 00 0F CE 00 00 00 00 00 00 00 00 00 00 00 00 00 00 00 00 00 00 09 09 0F F0 00 00 00 00 00 00 00 00 00 00 00 00 00 00 00 00 00 00 A9 CE
15:01:43.501 设备发送:06 03 06 84 00 04 05 1F
15:01:44.326 设备接收:06 03 08 00 00 6E BB 00 0D FE 1F F3 5D
15:01:44.342 设备发送:06 03 04 04 00 01 C5 4C
15:01:45.109 设备接收:06 03 02 00 02 8C 45
15:01:45.125 设备发送:07 03 04 84 00 04 05 76
15:01:45.966 设备接收:07 03 08 13 85 06 B7 FF D8 06 BD 99 0C
15:01:45.981 设备发送:07 03 04 8D 00 21 14 AF
15:01:46.776 设备接收:07 03 42 08 FF 09 BA 00 00 00 00 00 00 00 00 00 00 00 00 00 00 00 00 00 00 08 FC 09 C4 00 00 00 00 00 00 00 00 00 00 00 00 00 00 00 00 00 00 09 01 09 C4 00 00 00 00 00 00 00 00 00 00 00 00 00 00 00 00 00 00 7D 89
15:01:46.791 设备发送:07 03 06 84 00 04 04 CE
15:01:47.586 设备接收:07 03 08 00 00 3D 06 00 06 EE 6B EB FC
15:01:47.601 设备发送:07 03 04 04 00 01 C4 9D
15:01:48.401 设备接收:07 03 02 00 02 B1 85
15:01:48.417 设备发送:08 03 04 84 00 04 05 89
15:01:49.259 设备接收:08 03 08 13 85 0C 9D FF E6 0C 9D D6 C0
15:01:49.275 设备发送:08 03 04 8D 00 21 14 50
15:01:50.055 设备接收:08 03 42 08 F4 12 65 00 00 00 00 00 00 00 00 00 00 00 00 00 00 00 00 00 00 08 EA 12 59 00 00 00 00 00 00 00 00 00 00 00 00 00 00 00 00 00 00 08 FA 12 81 00 00 00 00 00 00 00 00 00 00 00 00 00 00 00 00 00 00 1D 9C
15:01:50.070 设备发送:08 03 06 84 00 04 04 31
15:01:50.870 设备接收:08 03 08 00 00 80 8C 00 0F 1B 53 CF 9A
15:01:50.885 设备发送:08 03 04 04 00 01 C4 62
15:01:51.697 设备接收:08 03 02 00 02 E5 84
15:01:51.712 设备发送:09 03 04 84 00 04 04 58
15:01:52.508 设备接收:09 03 08 13 85 0B 89 FF BF 0B 8A 71 A5
15:01:52.524 设备发送:09 03 04 8D 00 21 15 81
15:01:53.350 设备接收:09 03 42 08 F6 10 BD 00 00 00 00 00 00 00 00 00 00 00 00 00 00 00 00 00 00 08 F1 10 D5 00 00 00 00 00 00 00 00 00 00 00 00 00 00 00 00 00 00 09 01 10 DC 00 00 00 00 00 00 00 00 00 00 00 00 00 00 00 00 00 00 DE 3B
15:01:53.365 设备发送:09 03 06 84 00 04 05 E0
15:01:54.146 设备接收:09 03 08 00 00 74 2C 00 0D BF 4A 44 C1
15:01:54.192 设备发送:09 03 04 04 00 01 C5 B3
15:01:54.973 设备接收:09 03 02 00 02 D8 44
15:01:55.004 设备发送:0A 03 04 84 00 04 04 6B
15:01:55.798 设备接收:0A 03 08 13 85 02 1C FF D7 02 27 34 54
15:01:55.814 设备发送:0A 03 04 8D 00 21 15 B2
15:01:56.653 设备接收:0A 03 42 08 FD 03 1F 00 00 00 00 00 00 00 00 00 00 00 00 00 00 00 00 00 00 08 F8 03 1F 00 00 00 00 00 00 00 00 00 00 00 00 00 00 00 00 00 00 09 00 03 1D 00 00 00 00 00 00 00 00 00 00 00 00 00 00 00 00 00 00 2E E7
15:01:56.669 设备发送:0A 03 06 84 00 04 05 D3
15:01:57.437 设备接收:0A 03 08 00 00 1B 0C 00 03 19 FD 99 08
15:01:57.453 设备发送:0A 03 04 04 00 01 C5 80
15:01:58.280 设备接收:0A 03 02 00 02 9C 44
15:01:58.296 设备发送:01 03 04 84 00 04 05 10
15:01:59.075 设备接收:01 03 08 13 85 0F 76 FF A2 0F 77 1D 12
15:01:59.091 设备发送:01 03 04 8D 00 21 14 C9
15:01:59.919 设备接收:01 03 42 08 FA 16 1E 00 00 00 00 00 00 00 00 00 00 00 00 00 00 00 00 00 00 09 0D 16 39 00 00 00 00 00 00 00 00 00 00 00 00 00 00 00 00 00 00 09 0D 16 4B 00 00 00 00 00 00 00 00 00 00 00 00 00 00 00 00 00 00 78 26
15:01:59.935 设备发送:01 03 06 84 00 04 04 A8
15:02:00.716 设备接收:01 03 08 00 00 92 AB 00 12 7D 72 AD CD
15:02:00.732 设备发送:01 03 04 04 00 01 C4 FB
15:02:01.531 设备接收:01 03 02 00 02 39 85
15:02:01.562 设备发送:02 03 04 84 00 04 05 23
15:02:02.392 设备接收:02 03 08 13 85 10 F0 FF D9 10 F0 A1 AC
15:02:02.408 设备发送:02 03 04 8D 00 21 14 FA
15:02:03.192 设备接收:02 03 42 08 FC 18 62 00 00 00 00 00 00 00 00 00 00 00 00 00 00 00 00 00 00 09 11 18 85 00 00 00 00 00 00 00 00 00 00 00 00 00 00 00 00 00 00 09 0C 18 8C 00 00 00 00 00 00 00 00 00 00 00 00 00 00 00 00 00 00 D7 B6
15:02:03.208 设备发送:02 03 06 84 00 04 04 9B
15:02:03.999 设备接收:02 03 08 00 00 96 91 00 12 CB B0 8C F9
15:02:04.015 设备发送:02 03 04 04 00 01 C4 C8
15:02:04.839 设备接收:02 03 02 00 02 7D 85
15:02:04.855 设备发送:03 03 04 84 00 04 04 F2
15:02:05.635 设备接收:03 03 08 13 85 12 9F 00 1C 12 9F 11 DE
15:02:05.650 设备发送:03 03 04 8D 00 21 15 2B
15:02:06.461 设备接收:03 03 42 08 FE 1A DA 00 00 00 00 00 00 00 00 00 00 00 00 00 00 00 00 00 00 09 14 1A D2 00 00 00 00 00 00 00 00 00 00 00 00 00 00 00 00 00 00 09 10 1A EA 00 00 00 00 00 00 00 00 00 00 00 00 00 00 00 00 00 00 D3 D6
15:02:06.492 设备发送:03 03 06 84 00 04 05 4A
15:02:07.269 设备接收:03 03 08 00 00 A4 50 00 13 42 A0 86 5A
15:02:07.316 设备发送:03 03 04 04 00 01 C5 19
15:02:08.126 设备接收:03 03 02 00 02 40 45
15:02:08.141 设备发送:04 03 04 84 00 04 05 45
15:02:08.904 设备接收:04 03 08 13 86 0F 84 FF A1 0F 85 77 8E
15:02:08.935 设备发送:04 03 04 8D 00 21 14 9C
15:02:09.747 设备接收:04 03 42 09 04 16 7B 00 00 00 00 00 00 00 00 00 00 00 00 00 00 00 00 00 00 08 F4 16 79 00 00 00 00 00 00 00 00 00 00 00 00 00 00 00 00 00 00 09 0F 16 79 00 00 00 00 00 00 00 00 00 00 00 00 00 00 00 00 00 00 44 BA
15:02:09.762 设备发送:04 03 06 84 00 04 04 FD
15:02:10.557 设备接收:04 03 08 00 00 88 94 00 10 9F B9 02 C9
15:02:10.573 设备发送:04 03 04 04 00 01 C4 AE
15:02:11.386 设备接收:04 03 02 00 02 F5 85
15:02:11.401 设备发送:05 03 04 84 00 04 04 94
15:02:12.194 设备接收:05 03 08 13 86 0C A0 FF E8 0C A0 13 BB
15:02:12.210 设备发送:05 03 04 8D 00 21 15 4D
15:02:13.037 设备接收:05 03 42 08 FD 12 48 00 00 00 00 00 00 00 00 00 00 00 00 00 00 00 00 00 00 09 05 12 38 00 00 00 00 00 00 00 00 00 00 00 00 00 00 00 00 00 00 09 09 12 51 00 00 00 00 00 00 00 00 00 00 00 00 00 00 00 00 00 00 0F 66
15:02:13.053 设备发送:05 03 06 84 00 04 05 2C
15:02:13.832 设备接收:05 03 08 00 00 72 83 00 0E 09 28 A8 66
15:02:13.851 设备发送:05 03 04 04 00 01 C5 7F
15:02:14.660 设备接收:05 03 02 00 02 C8 45
15:02:14.691 设备发送:06 03 04 84 00 04 04 A7
15:02:15.474 设备接收:06 03 08 13 86 0A BF 00 14 0A BF 3B 17
15:02:15.493 设备发送:06 03 04 8D 00 21 15 7E
15:02:16.284 设备接收:06 03 42 08 FE 0F 96 00 00 00 00 00 00 00 00 00 00 00 00 00 00 00 00 00 00 09 01 0F 91 00 00 00 00 00 00 00 00 00 00 00 00 00 00 00 00 00 00 09 09 0F B7 00 00 00 00 00 00 00 00 00 00 00 00 00 00 00 00 00 00 8D 3A
15:02:16.331 设备发送:06 03 06 84 00 04 05 1F
15:02:17.155 设备接收:06 03 08 00 00 6E D5 00 0D FE 22 DB 45
15:02:17.171 设备发送:06 03 04 04 00 01 C5 4C
15:02:17.950 设备接收:06 03 02 00 02 8C 45
15:02:17.965 设备发送:07 03 04 84 00 04 05 76
15:02:18.760 设备接收:07 03 08 13 87 06 A3 FF C9 06 A9 DA C5
15:02:18.791 设备发送:07 03 04 8D 00 21 14 AF
15:02:19.590 设备接收:07 03 42 08 FE 09 95 00 00 00 00 00 00 00 00 00 00 00 00 00 00 00 00 00 00 08 FD 09 9C 00 00 00 00 00 00 00 00 00 00 00 00 00 00 00 00 00 00 09 01 09 9F 00 00 00 00 00 00 00 00 00 00 00 00 00 00 00 00 00 00 E2 03
15:02:19.606 设备发送:07 03 06 84 00 04 04 CE
15:02:20.387 设备接收:07 03 08 00 00 3D 15 00 06 EE 6D EE 3D
15:02:20.450 设备发送:07 03 04 04 00 01 C4 9D
15:02:21.229 设备接收:07 03 02 00 02 B1 85
15:02:21.260 设备发送:08 03 04 84 00 04 05 89
15:02:22.072 设备接收:08 03 08 13 87 0C 7B FF E5 0C 7B 8D 5C
15:02:22.088 设备发送:08 03 04 8D 00 21 14 50
15:02:22.867 设备接收:08 03 42 08 F0 12 39 00 00 00 00 00 00 00 00 00 00 00 00 00 00 00 00 00 00 08 E9 12 3D 00 00 00 00 00 00 00 00 00 00 00 00 00 00 00 00 00 00 08 F9 12 68 00 00 00 00 00 00 00 00 00 00 00 00 00 00 00 00 00 00 FB 24
15:02:22.882 设备发送:08 03 06 84 00 04 04 31
15:02:23.679 设备接收:08 03 08 00 00 80 A9 00 0F 1B 56 42 5E
15:02:23.726 设备发送:08 03 04 04 00 01 C4 62
15:02:24.503 设备接收:08 03 02 00 02 E5 84
15:02:24.535 设备发送:09 03 04 84 00 04 04 58
15:02:25.314 设备接收:09 03 08 13 87 0B 7B 00 16 0B 7B 4A 00
15:02:25.361 设备发送:09 03 04 8D 00 21 15 81
15:02:26.156 设备接收:09 03 42 08 FA 10 AD 00 00 00 00 00 00 00 00 00 00 00 00 00 00 00 00 00 00 08 F0 10 BD 00 00 00 00 00 00 00 00 00 00 00 00 00 00 00 00 00 00 09 01 10 C4 00 00 00 00 00 00 00 00 00 00 00 00 00 00 00 00 00 00 25 54
15:02:26.171 设备发送:09 03 06 84 00 04 05 E0
15:02:26.983 设备接收:09 03 08 00 00 74 47 00 0D BF 4C E1 0A
15:02:26.998 设备发送:09 03 04 04 00 01 C5 B3
15:02:27.795 设备接收:09 03 02 00 02 D8 44
15:02:27.811 设备发送:0A 03 04 84 00 04 04 6B
15:02:28.591 设备接收:0A 03 08 13 87 02 0B FF DE 02 14 F3 80
15:02:28.626 设备发送:0A 03 04 8D 00 21 15 B2
15:02:29.433 设备接收:0A 03 42 08 FC 03 05 00 00 00 00 00 00 00 00 00 00 00 00 00 00 00 00 00 00 08 F5 03 05 00 00 00 00 00 00 00 00 00 00 00 00 00 00 00 00 00 00 08 FF 03 02 00 00 00 00 00 00 00 00 00 00 00 00 00 00 00 00 00 00 51 61
15:02:29.448 设备发送:0A 03 06 84 00 04 05 D3
15:02:30.261 设备接收:0A 03 08 00 00 1B 11 00 03 19 FE 35 0B
15:02:30.276 设备发送:0A 03 04 04 00 01 C5 80
15:02:31.068 设备接收:0A 03 02 00 02 9C 44
15:02:31.084 设备发送:01 03 04 84 00 04 05 10
15:02:31.926 设备接收:01 03 08 13 88 0F 3E FF DE 0F 3E 21 F2
15:02:31.942 设备发送:01 03 04 8D 00 21 14 C9
15:02:32.722 设备接收:01 03 42 08 FC 16 02 00 00 00 00 00 00 00 00 00 00 00 00 00 00 00 00 00 00 09 0A 16 12 00 00 00 00 00 00 00 00 00 00 00 00 00 00 00 00 00 00 09 0C 16 25 00 00 00 00 00 00 00 00 00 00 00 00 00 00 00 00 00 00 84 FB
15:02:32.753 设备发送:01 03 06 84 00 04 04 A8
15:02:33.566 设备接收:01 03 08 00 00 92 CF 00 12 7D 76 DD C6
15:02:33.581 设备发送:01 03 04 04 00 01 C4 FB
15:02:34.357 设备接收:01 03 02 00 02 39 85
15:02:34.373 设备发送:02 03 04 84 00 04 05 23
15:02:35.199 设备接收:02 03 08 13 88 10 A5 00 1C 10 A5 91 76
15:02:35.214 设备发送:02 03 04 8D 00 21 14 FA
15:02:36.007 设备接收:02 03 42 08 FE 18 05 00 00 00 00 00 00 00 00 00 00 00 00 00 00 00 00 00 00 09 10 18 0A 00 00 00 00 00 00 00 00 00 00 00 00 00 00 00 00 00 00 09 0C 18 2B 00 00 00 00 00 00 00 00 00 00 00 00 00 00 00 00 00 00 B6 FB
15:02:36.022 设备发送:02 03 06 84 00 04 04 9B
15:02:36.833 设备接收:02 03 08 00 00 96 B9 00 12 CB B4 ED 3C
15:02:36.848 设备发送:02 03 04 04 00 01 C4 C8
15:02:37.643 设备接收:02 03 02 00 02 7D 85
15:02:37.659 设备发送:03 03 04 84 00 04 04 F2
15:02:38.457 设备接收:03 03 08 13 88 12 87 FF 91 12 88 0D 2D
15:02:38.472 设备发送:03 03 04 8D 00 21 15 2B
15:02:39.284 设备接收:03 03 42 08 FA 1A C5 00 00 00 00 00 00 00 00 00 00 00 00 00 00 00 00 00 00 09 12 1A B8 00 00 00 00 00 00 00 00 00 00 00 00 00 00 00 00 00 00 09 0E 1A D7 00 00 00 00 00 00 00 00 00 00 00 00 00 00 00 00 00 00 9A 70
15:02:39.300 设备发送:03 03 06 84 00 04 05 4A
15:02:40.093 设备接收:03 03 08 00 00 A4 7B 00 13 42 A4 A3 9F
15:02:40.109 设备发送:03 03 04 04 00 01 C5 19
15:02:40.924 设备接收:03 03 02 00 02 40 45
15:02:40.940 设备发送:04 03 04 84 00 04 05 45
15:02:41.737 设备接收:04 03 08 13 88 0F 67 00 16 0F 67 5D E3
15:02:41.753 设备发送:04 03 04 8D 00 21 14 9C
15:02:42.563 设备接收:04 03 42 09 00 16 4F 00 00 00 00 00 00 00 00 00 00 00 00 00 00 00 00 00 00 08 F4 16 45 00 00 00 00 00 00 00 00 00 00 00 00 00 00 00 00 00 00 09 0E 16 53 00 00 00 00 00 00 00 00 00 00 00 00 00 00 00 00 00 00 23 14
15:02:42.578 设备发送:04 03 06 84 00 04 04 FD
15:02:43.390 设备接收:04 03 08 00 00 88 B9 00 10 9F BD AF 0C
15:02:43.406 设备发送:04 03 04 04 00 01 C4 AE
15:02:44.217 设备接收:04 03 02 00 02 F5 85
15:02:44.233 设备发送:05 03 04 84 00 04 04 94
15:02:45.028 设备接收:05 03 08 13 87 0C 85 FF E8 0C 85 8F 67
15:02:45.044 设备发送:05 03 04 8D 00 21 15 4D
15:02:45.839 设备接收:05 03 42 08 FA 12 26 00 00 00 00 00 00 00 00 00 00 00 00 00 00 00 00 00 00 09 04 12 1D 00 00 00 00 00 00 00 00 00 00 00 00 00 00 00 00 00 00 09 08 12 21 00 00 00 00 00 00 00 00 00 00 00 00 00 00 00 00 00 00 32 7F
15:02:45.901 设备发送:05 03 06 84 00 04 05 2C
15:02:46.665 设备接收:05 03 08 00 00 72 A0 00 0E 09 2B 2D A0
15:02:46.680 设备发送:05 03 04 04 00 01 C5 7F
15:02:47.490 设备接收:05 03 02 00 02 C8 45
15:02:47.522 设备发送:06 03 04 84 00 04 04 A7
15:02:48.333 设备接收:06 03 08 13 88 0A 90 FF C5 0A 91 E1 20
15:02:48.349 设备发送:06 03 04 8D 00 21 15 7E
15:02:49.128 设备接收:06 03 42 08 FB 0F 5D 00 00 00 00 00 00 00 00 00 00 00 00 00 00 00 00 00 00 08 FE 0F 55 00 00 00 00 00 00 00 00 00 00 00 00 00 00 00 00 00 00 09 06 0F 7A 00 00 00 00 00 00 00 00 00 00 00 00 00 00 00 00 00 00 55 82
15:02:49.143 设备发送:06 03 06 84 00 04 05 1F
15:02:49.954 设备接收:06 03 08 00 00 6E EE 00 0D FE 24 BE 82
15:02:49.969 设备发送:06 03 04 04 00 01 C5 4C
15:02:50.811 设备接收:06 03 02 00 02 8C 45
15:02:50.826 设备发送:07 03 04 84 00 04 05 76
15:02:51.579 设备接收:07 03 08 13 87 06 8E FF C9 06 95 76 D2
15:02:51.626 设备发送:07 03 04 8D 00 21 14 AF
15:02:52.421 设备接收:07 03 42 09 01 09 80 00 00 00 00 00 00 00 00 00 00 00 00 00 00 00 00 00 00 09 00 09 89 00 00 00 00 00 00 00 00 00 00 00 00 00 00 00 00 00 00 09 03 09 8C 00 00 00 00 00 00 00 00 00 00 00 00 00 00 00 00 00 00 CC 62
15:02:52.452 设备发送:07 03 06 84 00 04 04 CE
15:02:53.247 设备接收:07 03 08 00 00 3D 24 00 06 EE 6E D3 F8
15:02:53.264 设备发送:07 03 04 04 00 01 C4 9D
15:02:54.057 设备接收:07 03 02 00 02 B1 85
15:02:54.072 设备发送:08 03 04 84 00 04 05 89
15:02:54.883 设备接收:08 03 08 13 87 0C 69 FF E7 0C 69 14 92
15:02:54.914 设备发送:08 03 04 8D 00 21 14 50
15:02:55.712 设备接收:08 03 42 08 EF 12 1D 00 00 00 00 00 00 00 00 00 00 00 00 00 00 00 00 00 00 08 E9 12 1B 00 00 00 00 00 00 00 00 00 00 00 00 00 00 00 00 00 00 08 F8 12 45 00 00 00 00 00 00 00 00 00 00 00 00 00 00 00 00 00 00 B0 8A
15:02:55.727 设备发送:08 03 06 84 00 04 04 31
15:02:56.523 设备接收:08 03 08 00 00 80 C6 00 0F 1B 59 D6 53
15:02:56.539 设备发送:08 03 04 04 00 01 C4 62
15:02:57.356 设备接收:08 03 02 00 02 E5 84
15:02:57.371 设备发送:09 03 04 84 00 04 04 58
15:02:58.167 设备接收:09 03 08 13 87 0B 5E FF C1 0B 5F 87 F0
15:02:58.183 设备发送:09 03 04 8D 00 21 15 81
15:02:58.977 设备接收:09 03 42 08 FA 10 7F 00 00 00 00 00 00 00 00 00 00 00 00 00 00 00 00 00 00 08 F0 10 92 00 00 00 00 00 00 00 00 00 00 00 00 00 00 00 00 00 00 09 01 10 98 00 00 00 00 00 00 00 00 00 00 00 00 00 00 00 00 00 00 44 46
15:02:58.993 设备发送:09 03 06 84 00 04 05 E0
15:02:59.802 设备接收:09 03 08 00 00 74 61 00 0D BF 4F A8 CC
15:02:59.818 设备发送:09 03 04 04 00 01 C5 B3
15:03:00.600 设备接收:09 03 02 00 02 D8 44
15:03:00.648 设备发送:0A 03 04 84 00 04 04 6B
15:03:01.430 设备接收:0A 03 08 13 86 02 14 FF D0 02 20 16 96
15:03:01.478 设备发送:0A 03 04 8D 00 21 15 B2
15:03:02.254 设备接收:0A 03 42 08 FC 03 16 00 00 00 00 00 00 00 00 00 00 00 00 00 00 00 00 00 00 08 F5 03 18 00 00 00 00 00 00 00 00 00 00 00 00 00 00 00 00 00 00 08 FE 03 12 00 00 00 00 00 00 00 00 00 00 00 00 00 00 00 00 00 00 15 06
15:03:02.286 设备发送:0A 03 06 84 00 04 05 D3
15:03:03.079 设备接收:0A 03 08 00 00 1B 16 00 03 19 FE 80 CB
15:03:03.110 设备发送:0A 03 04 04 00 01 C5 80
15:03:03.906 设备接收:0A 03 02 00 02 9C 44
15:03:03.922 设备发送:01 03 04 84 00 04 05 10
15:03:04.734 设备接收:01 03 08 13 86 0F 2D 00 14 0F 2D 1A 16
15:03:04.749 设备发送:01 03 04 8D 00 21 14 C9
15:03:05.529 设备接收:01 03 42 08 FB 15 ED 00 00 00 00 00 00 00 00 00 00 00 00 00 00 00 00 00 00 09 09 15 FC 00 00 00 00 00 00 00 00 00 00 00 00 00 00 00 00 00 00 09 0B 16 09 00 00 00 00 00 00 00 00 00 00 00 00 00 00 00 00 00 00 DC 41
15:03:05.544 设备发送:01 03 06 84 00 04 04 A8
15:03:06.341 设备接收:01 03 08 00 00 92 F3 00 12 7D 79 CD C7
15:03:06.388 设备发送:01 03 04 04 00 01 C4 FB
15:03:07.184 设备接收:01 03 02 00 02 39 85
15:03:07.200 设备发送:02 03 04 84 00 04 05 23
15:03:07.982 设备接收:02 03 08 13 87 10 A2 FF 9D 10 A3 3B 88
15:03:08.028 设备发送:02 03 04 8D 00 21 14 FA
15:03:08.824 设备接收:02 03 42 08 FF 17 FE 00 00 00 00 00 00 00 00 00 00 00 00 00 00 00 00 00 00 09 10 18 12 00 00 00 00 00 00 00 00 00 00 00 00 00 00 00 00 00 00 09 0B 18 26 00 00 00 00 00 00 00 00 00 00 00 00 00 00 00 00 00 00 F9 A3
15:03:08.839 设备发送:02 03 06 84 00 04 04 9B
15:03:09.636 设备接收:02 03 08 00 00 96 E0 00 12 CB B8 F1 34
15:03:09.652 设备发送:02 03 04 04 00 01 C4 C8
15:03:10.446 设备接收:02 03 02 00 02 7D 85
15:03:10.477 设备发送:03 03 04 84 00 04 04 F2
15:03:11.285 设备接收:03 03 08 13 87 12 62 FF D8 12 62 EF A2
15:03:11.301 设备发送:03 03 04 8D 00 21 15 2B
15:03:12.084 设备接收:03 03 42 08 FD 1A 87 00 00 00 00 00 00 00 00 00 00 00 00 00 00 00 00 00 00 09 14 1A 7C 00 00 00 00 00 00 00 00 00 00 00 00 00 00 00 00 00 00 09 0F 1A 97 00 00 00 00 00 00 00 00 00 00 00 00 00 00 00 00 00 00 A7 FC
15:03:12.132 设备发送:03 03 06 84 00 04 05 4A
15:03:12.925 设备接收:03 03 08 00 00 A4 A6 00 13 42 A9 8E 49
15:03:12.941 设备发送:03 03 04 04 00 01 C5 19
15:03:13.754 设备接收:03 03 02 00 02 40 45
15:03:13.770 设备发送:04 03 04 84 00 04 05 45
15:03:14.561 设备接收:04 03 08 13 87 0F 3E FF A2 0F 3F CF 26
15:03:14.592 设备发送:04 03 04 8D 00 21 14 9C
15:03:15.407 设备接收:04 03 42 09 01 16 15 00 00 00 00 00 00 00 00 00 00 00 00 00 00 00 00 00 00 08 F3 16 0C 00 00 00 00 00 00 00 00 00 00 00 00 00 00 00 00 00 00 09 0C 16 15 00 00 00 00 00 00 00 00 00 00 00 00 00 00 00 00 00 00 A2 26
15:03:15.423 设备发送:04 03 06 84 00 04 04 FD
15:03:16.215 设备接收:04 03 08 00 00 88 DC 00 10 9F C0 23 25
15:03:16.247 设备发送:04 03 04 04 00 01 C4 AE
15:03:17.043 设备接收:04 03 02 00 02 F5 85
15:03:17.058 设备发送:05 03 04 84 00 04 04 94
15:03:17.843 设备接收:05 03 08 13 87 0C 5F 00 17 0C 5F 57 0B
15:03:17.890 设备发送:05 03 04 8D 00 21 15 4D
15:03:18.688 设备接收:05 03 42 08 FC 11 F0 00 00 00 00 00 00 00 00 00 00 00 00 00 00 00 00 00 00 09 04 11 DC 00 00 00 00 00 00 00 00 00 00 00 00 00 00 00 00 00 00 09 07 11 EF 00 00 00 00 00 00 00 00 00 00 00 00 00 00 00 00 00 00 96 F7
15:03:18.704 设备发送:05 03 06 84 00 04 05 2C
15:03:19.484 设备接收:05 03 08 00 00 72 BD 00 0E 09 2E 01 A1
15:03:19.499 设备发送:05 03 04 04 00 01 C5 7F
15:03:20.300 设备接收:05 03 02 00 02 C8 45
15:03:20.346 设备发送:06 03 04 84 00 04 04 A7
15:03:21.146 设备接收:06 03 08 13 87 0A 61 00 14 0A 61 03 9C
15:03:21.162 设备发送:06 03 04 8D 00 21 15 7E
15:03:21.961 设备接收:06 03 42 08 FC 0F 12 00 00 00 00 00 00 00 00 00 00 00 00 00 00 00 00 00 00 08 FE 0F 16 00 00 00 00 00 00 00 00 00 00 00 00 00 00 00 00 00 00 09 05 0F 3D 00 00 00 00 00 00 00 00 00 00 00 00 00 00 00 00 00 00 7A AF
15:03:22.008 设备发送:06 03 06 84 00 04 05 1F
15:03:22.784 设备接收:06 03 08 00 00 6F 06 00 0D FE 27 9F 45
15:03:22.817 设备发送:06 03 04 04 00 01 C5 4C
15:03:23.611 设备接收:06 03 02 00 02 8C 45
15:03:23.626 设备发送:07 03 04 84 00 04 05 76
15:03:24.426 设备接收:07 03 08 13 87 06 79 FF D7 06 80 22 CE
15:03:24.442 设备发送:07 03 04 8D 00 21 14 AF
15:03:25.252 设备接收:07 03 42 09 01 09 62 00 00 00 00 00 00 00 00 00 00 00 00 00 00 00 00 00 00 08 FC 09 66 00 00 00 00 00 00 00 00 00 00 00 00 00 00 00 00 00 00 08 FF 09 66 00 00 00 00 00 00 00 00 00 00 00 00 00 00 00 00 00 00 1B 3E
15:03:25.267 设备发送:07 03 06 84 00 04 04 CE
15:03:26.050 设备接收:07 03 08 00 00 3D 34 00 06 EE 70 92 33
15:03:26.099 设备发送:07 03 04 04 00 01 C4 9D
15:03:26.891 设备接收:07 03 02 00 02 B1 85
15:03:26.908 设备发送:08 03 04 84 00 04 05 89
15:03:27.702 设备接收:08 03 08 13 87 0C 36 FF E6 0C 36 91 67
15:03:27.780 设备发送:08 03 04 8D 00 21 14 50
15:03:28.513 设备接收:08 03 42 08 F1 11 E7 00 00 00 00 00 00 00 00 00 00 00 00 00 00 00 00 00 00 08 E7 11 E0 00 00 00 00 00 00 00 00 00 00 00 00 00 00 00 00 00 00 08 F6 12 0B 00 00 00 00 00 00 00 00 00 00 00 00 00 00 00 00 00 00 D0 9F
15:03:28.574 设备发送:08 03 06 84 00 04 04 31
15:03:29.375 设备接收:08 03 08 00 00 80 E3 00 0F 1B 5C 5B 97
15:03:29.390 设备发送:08 03 04 04 00 01 C4 62
15:03:30.173 设备接收:08 03 02 00 02 E5 84
15:03:30.189 设备发送:09 03 04 84 00 04 04 58
15:03:30.988 设备接收:09 03 08 13 87 0B 3A 00 15 0B 3A 46 3F
15:03:31.004 设备发送:09 03 04 8D 00 21 15 81
15:03:31.816 设备接收:09 03 42 08 F3 10 60 00 00 00 00 00 00 00 00 00 00 00 00 00 00 00 00 00 00 08 EF 10 74 00 00 00 00 00 00 00 00 00 00 00 00 00 00 00 00 00 00 09 00 10 7B 00 00 00 00 00 00 00 00 00 00 00 00 00 00 00 00 00 00 84 E8
15:03:31.832 设备发送:09 03 06 84 00 04 05 E0
15:03:32.626 设备接收:09 03 08 00 00 74 7C 00 0D BF 52 84 C7
15:03:32.641 设备发送:09 03 04 04 00 01 C5 B3
15:03:33.454 设备接收:09 03 02 00 02 D8 44
15:03:33.471 设备发送:0A 03 04 84 00 04 04 6B
15:03:34.298 设备接收:0A 03 08 13 87 02 13 FF D7 02 1D C3 86
15:03:34.313 设备发送:0A 03 04 8D 00 21 15 B2
15:03:35.092 设备接收:0A 03 42 08 FB 03 08 00 00 00 00 00 00 00 00 00 00 00 00 00 00 00 00 00 00 08 F6 03 0C 00 00 00 00 00 00 00 00 00 00 00 00 00 00 00 00 00 00 08 FD 03 07 00 00 00 00 00 00 00 00 00 00 00 00 00 00 00 00 00 00 15 2B
15:03:35.139 设备发送:0A 03 06 84 00 04 05 D3
15:03:35.919 设备接收:0A 03 08 00 00 1B 1B 00 03 19 FF 6C CA
15:03:35.952 设备发送:0A 03 04 04 00 01 C5 80
15:03:36.743 设备接收:0A 03 02 00 02 9C 44
15:03:36.774 设备发送:01 03 04 84 00 04 05 10
15:03:37.571 设备接收:01 03 08 13 87 0F 1B 00 19 0F 1B D3 07
15:03:37.587 设备发送:01 03 04 8D 00 21 14 C9
15:03:38.382 设备接收:01 03 42 08 F9 15 AC 00 00 00 00 00 00 00 00 00 00 00 00 00 00 00 00 00 00 09 09 15 C1 00 00 00 00 00 00 00 00 00 00 00 00 00 00 00 00 00 00 09 09 15 D1 00 00 00 00 00 00 00 00 00 00 00 00 00 00 00 00 00 00 56 82
15:03:38.398 设备发送:01 03 06 84 00 04 04 A8
15:03:39.211 设备接收:01 03 08 00 00 93 16 00 12 7D 7D 80 03
15:03:39.227 设备发送:01 03 04 04 00 01 C4 FB
15:03:40.025 设备接收:01 03 02 00 02 39 85
15:03:40.040 设备发送:02 03 04 84 00 04 05 23
15:03:40.867 设备接收:02 03 08 13 86 10 6E 00 1C 10 6E 9A F1
15:03:40.883 设备发送:02 03 04 8D 00 21 14 FA
15:03:41.679 设备接收:02 03 42 08 FC 17 B8 00 00 00 00 00 00 00 00 00 00 00 00 00 00 00 00 00 00 09 0F 17 BA 00 00 00 00 00 00 00 00 00 00 00 00 00 00 00 00 00 00 09 09 17 C0 00 00 00 00 00 00 00 00 00 00 00 00 00 00 00 00 00 00 FF C7
15:03:41.694 设备发送:02 03 06 84 00 04 04 9B
15:03:42.475 设备接收:02 03 08 00 00 97 06 00 12 CB BC F8 F0
15:03:42.522 设备发送:02 03 04 04 00 01 C4 C8
15:03:43.320 设备接收:02 03 02 00 02 7D 85
15:03:43.335 设备发送:03 03 04 84 00 04 04 F2
15:03:44.116 设备接收:03 03 08 13 85 12 43 FF D9 12 43 E1 BD
15:03:44.132 设备发送:03 03 04 8D 00 21 15 2B
15:03:44.965 设备接收:03 03 42 08 F7 1A 59 00 00 00 00 00 00 00 00 00 00 00 00 00 00 00 00 00 00 09 15 1A 5B 00 00 00 00 00 00 00 00 00 00 00 00 00 00 00 00 00 00 09 0E 1A 76 00 00 00 00 00 00 00 00 00 00 00 00 00 00 00 00 00 00 82 43
15:03:44.980 设备发送:03 03 06 84 00 04 05 4A
15:03:45.756 设备接收:03 03 08 00 00 A4 D1 00 13 42 AD 7B 81
15:03:45.788 设备发送:03 03 04 04 00 01 C5 19
15:03:46.599 设备接收:03 03 02 00 02 40 45
15:03:46.630 设备发送:04 03 04 84 00 04 05 45
15:03:47.409 设备接收:04 03 08 13 85 0F 31 00 17 0F 31 18 D1
15:03:47.425 设备发送:04 03 04 8D 00 21 14 9C
15:03:48.223 设备接收:04 03 42 08 F9 16 02 00 00 00 00 00 00 00 00 00 00 00 00 00 00 00 00 00 00 08 F2 16 08 00 00 00 00 00 00 00 00 00 00 00 00 00 00 00 00 00 00 09 09 16 0E 00 00 00 00 00 00 00 00 00 00 00 00 00 00 00 00 00 00 08 A1
15:03:48.238 设备发送:04 03 06 84 00 04 04 FD
15:03:49.065 设备接收:04 03 08 00 00 89 00 00 10 9F C4 F2 E4
15:03:49.080 设备发送:04 03 04 04 00 01 C4 AE
15:03:49.857 设备接收:04 03 02 00 02 F5 85
15:03:49.872 设备发送:05 03 04 84 00 04 04 94
15:03:50.697 设备接收:05 03 08 13 85 0C 45 FF BB 0C 46 1C F6
15:03:50.712 设备发送:05 03 04 8D 00 21 15 4D
15:03:51.492 设备接收:05 03 42 08 F3 11 E1 00 00 00 00 00 00 00 00 00 00 00 00 00 00 00 00 00 00 08 FC 11 D0 00 00 00 00 00 00 00 00 00 00 00 00 00 00 00 00 00 00 08 FE 11 DF 00 00 00 00 00 00 00 00 00 00 00 00 00 00 00 00 00 00 78 9A
15:03:51.539 设备发送:05 03 06 84 00 04 05 2C
15:03:52.351 设备接收:05 03 08 00 00 72 DA 00 0E 09 31 75 A1
15:03:52.366 设备发送:05 03 04 04 00 01 C5 7F
15:03:53.146 设备接收:05 03 02 00 02 C8 45
15:03:53.178 设备发送:06 03 04 84 00 04 04 A7
15:03:53.989 设备接收:06 03 08 13 85 0A 28 FF ED 0A 28 DC 41
15:03:54.005 设备发送:06 03 04 8D 00 21 15 7E
15:03:54.800 设备接收:06 03 42 08 F5 0E DB 00 00 00 00 00 00 00 00 00 00 00 00 00 00 00 00 00 00 08 F7 0E CC 00 00 00 00 00 00 00 00 00 00 00 00 00 00 00 00 00 00 08 FD 0F 00 00 00 00 00 00 00 00 00 00 00 00 00 00 00 00 00 00 00 DF A3
15:03:54.815 设备发送:06 03 06 84 00 04 05 1F
15:03:55.612 设备接收:06 03 08 00 00 6F 1E 00 0D FE 29 3E 83
15:03:55.628 设备发送:06 03 04 04 00 01 C5 4C
15:03:56.425 设备接收:06 03 02 00 02 8C 45
15:03:56.443 设备发送:07 03 04 84 00 04 05 76
15:03:57.270 设备接收:07 03 08 13 84 06 61 FF D7 06 67 71 86
15:03:57.285 设备发送:07 03 04 8D 00 21 14 AF
15:03:58.082 设备接收:07 03 42 08 FB 09 3F 00 00 00 00 00 00 00 00 00 00 00 00 00 00 00 00 00 00 08 F8 09 47 00 00 00 00 00 00 00 00 00 00 00 00 00 00 00 00 00 00 08 FA 09 44 00 00 00 00 00 00 00 00 00 00 00 00 00 00 00 00 00 00 8A 3D
15:03:58.098 设备发送:07 03 06 84 00 04 04 CE
15:03:58.881 设备接收:07 03 08 00 00 3D 43 00 06 EE 71 A7 F8
15:03:58.927 设备发送:07 03 04 04 00 01 C4 9D
15:03:59.707 设备接收:07 03 02 00 02 B1 85
15:03:59.738 设备发送:08 03 04 84 00 04 05 89
15:04:00.544 设备接收:08 03 08 13 85 0C 18 FF E9 0C 18 EA BE
15:04:00.559 设备发送:08 03 04 8D 00 21 14 50
15:04:01.351 设备接收:08 03 42 08 EA 11 BC 00 00 00 00 00 00 00 00 00 00 00 00 00 00 00 00 00 00 08 E1 11 AD 00 00 00 00 00 00 00 00 00 00 00 00 00 00 00 00 00 00 08 F0 11 DB 00 00 00 00 00 00 00 00 00 00 00 00 00 00 00 00 00 00 46 18
15:04:01.366 设备发送:08 03 06 84 00 04 04 31
15:04:02.184 设备接收:08 03 08 00 00 80 FF 00 0F 1B 5F CA 54
15:04:02.199 设备发送:08 03 04 04 00 01 C4 62
15:04:03.001 设备接收:08 03 02 00 02 E5 84
15:04:03.017 设备发送:09 03 04 84 00 04 04 58
15:04:03.821 设备接收:09 03 08 13 85 0B 0C FF EC 0B 0C CD C8
15:04:03.836 设备发送:09 03 04 8D 00 21 15 81
15:04:04.646 设备接收:09 03 42 08 EE 10 23 00 00 00 00 00 00 00 00 00 00 00 00 00 00 00 00 00 00 08 E6 10 32 00 00 00 00 00 00 00 00 00 00 00 00 00 00 00 00 00 00 08 F8 10 3C 00 00 00 00 00 00 00 00 00 00 00 00 00 00 00 00 00 00 0B EA
15:04:04.661 设备发送:09 03 06 84 00 04 05 E0
15:04:05.474 设备接收:09 03 08 00 00 74 96 00 0D BF 54 1D 12
15:04:05.489 设备发送:09 03 04 04 00 01 C5 B3
15:04:06.284 设备接收:09 03 02 00 02 D8 44
15:04:06.300 设备发送:0A 03 04 84 00 04 04 6B
15:04:07.113 设备接收:0A 03 08 13 85 01 F9 FF D0 02 05 48 69
15:04:07.129 设备发送:0A 03 04 8D 00 21 15 B2
15:04:07.926 设备接收:0A 03 42 08 F8 02 EF 00 00 00 00 00 00 00 00 00 00 00 00 00 00 00 00 00 00 08 F1 02 F2 00 00 00 00 00 00 00 00 00 00 00 00 00 00 00 00 00 00 08 F7 02 EE 00 00 00 00 00 00 00 00 00 00 00 00 00 00 00 00 00 00 8D 31
15:04:07.940 设备发送:0A 03 06 84 00 04 05 D3
15:04:08.738 设备接收:0A 03 08 00 00 1B 20 00 03 19 FF 89 0F
15:04:08.770 设备发送:0A 03 04 04 00 01 C5 80
15:04:09.577 设备接收:0A 03 02 00 02 9C 44
15:04:09.593 设备发送:01 03 04 84 00 04 05 10
15:04:10.373 设备接收:01 03 08 13 85 0E C8 00 18 0E C8 65 09
15:04:10.419 设备发送:01 03 04 8D 00 21 14 C9
15:04:11.215 设备接收:01 03 42 08 F3 15 68 00 00 00 00 00 00 00 00 00 00 00 00 00 00 00 00 00 00 09 02 15 73 00 00 00 00 00 00 00 00 00 00 00 00 00 00 00 00 00 00 09 03 15 86 00 00 00 00 00 00 00 00 00 00 00 00 00 00 00 00 00 00 0F 45
15:04:11.231 设备发送:01 03 06 84 00 04 04 A8
15:04:12.011 设备接收:01 03 08 00 00 93 38 00 12 7D 80 A9 84
15:04:12.042 设备发送:01 03 04 04 00 01 C4 FB
15:04:12.853 设备接收:01 03 02 00 02 39 85
15:04:12.869 设备发送:02 03 04 84 00 04 05 23
15:04:13.660 设备接收:02 03 08 13 85 10 14 FF 9F 10 15 F1 E4
15:04:13.676 设备发送:02 03 04 8D 00 21 14 FA
15:04:14.499 设备接收:02 03 42 08 F4 17 50 00 00 00 00 00 00 00 00 00 00 00 00 00 00 00 00 00 00 09 06 17 58 00 00 00 00 00 00 00 00 00 00 00 00 00 00 00 00 00 00 09 01 17 5D 00 00 00 00 00 00 00 00 00 00 00 00 00 00 00 00 00 00 2B 53
15:04:14.515 设备发送:02 03 06 84 00 04 04 9B
15:04:15.310 设备接收:02 03 08 00 00 97 2C 00 12 CB C0 E0 D7
15:04:15.325 设备发送:02 03 04 04 00 01 C4 C8
15:04:16.121 设备接收:02 03 02 00 02 7D 85
15:04:16.136 设备发送:03 03 04 84 00 04 04 F2
15:04:16.950 设备接收:03 03 08 13 85 11 E3 FF D9 11 E3 61 1F
15:04:16.986 设备发送:03 03 04 8D 00 21 15 2B
15:04:17.760 设备接收:03 03 42 08 F4 19 E9 00 00 00 00 00 00 00 00 00 00 00 00 00 00 00 00 00 00 09 0C 19 DD 00 00 00 00 00 00 00 00 00 00 00 00 00 00 00 00 00 00 09 07 19 F9 00 00 00 00 00 00 00 00 00 00 00 00 00 00 00 00 00 00 3C 76
15:04:17.775 设备发送:03 03 06 84 00 04 05 4A
15:04:18.589 设备接收:03 03 08 00 00 A4 FB 00 13 42 B1 63 8E
15:04:18.604 设备发送:03 03 04 04 00 01 C5 19
15:04:19.403 设备接收:03 03 02 00 02 40 45
15:04:19.419 设备发送:04 03 04 84 00 04 05 45
15:04:20.247 设备接收:04 03 08 13 85 0E DB FF A6 0E DC A1 39
15:04:20.262 设备发送:04 03 04 8D 00 21 14 9C
15:04:21.060 设备接收:04 03 42 08 FD 15 8C 00 00 00 00 00 00 00 00 00 00 00 00 00 00 00 00 00 00 08 EF 15 83 00 00 00 00 00 00 00 00 00 00 00 00 00 00 00 00 00 00 09 08 15 94 00 00 00 00 00 00 00 00 00 00 00 00 00 00 00 00 00 00 38 4A
15:04:21.075 设备发送:04 03 06 84 00 04 04 FD
15:04:21.842 设备接收:04 03 08 00 00 89 23 00 10 9F C7 77 22
15:04:21.904 设备发送:04 03 04 04 00 01 C4 AE
15:04:22.684 设备接收:04 03 02 00 02 F5 85
15:04:22.699 设备发送:05 03 04 84 00 04 04 94
15:04:23.496 设备接收:05 03 08 13 86 0C 0C 00 17 0C 0C 83 FA
15:04:23.543 设备发送:05 03 04 8D 00 21 15 4D
15:04:24.336 设备接收:05 03 42 08 F6 11 80 00 00 00 00 00 00 00 00 00 00 00 00 00 00 00 00 00 00 08 FF 11 70 00 00 00 00 00 00 00 00 00 00 00 00 00 00 00 00 00 00 09 02 11 84 00 00 00 00 00 00 00 00 00 00 00 00 00 00 00 00 00 00 E0 A5
15:04:24.351 设备发送:05 03 06 84 00 04 05 2C
15:04:25.132 设备接收:05 03 08 00 00 72 F6 00 0E 09 34 24 64
15:04:25.148 设备发送:05 03 04 04 00 01 C5 7F
15:04:25.978 设备接收:05 03 02 00 02 C8 45
15:04:25.993 设备发送:06 03 04 84 00 04 04 A7
15:04:26.789 设备接收:06 03 08 13 86 09 EF FF EF 09 EF BA 01
15:04:26.804 设备发送:06 03 04 8D 00 21 15 7E
15:04:27.616 设备接收:06 03 42 08 F3 0E 6E 00 00 00 00 00 00 00 00 00 00 00 00 00 00 00 00 00 00 08 F9 0E 76 00 00 00 00 00 00 00 00 00 00 00 00 00 00 00 00 00 00 09 00 0E 97 00 00 00 00 00 00 00 00 00 00 00 00 00 00 00 00 00 00 4C D3
15:04:27.637 设备发送:06 03 06 84 00 04 05 1F
15:04:28.426 设备接收:06 03 08 00 00 6F 35 00 0D FE 2B 9B 44
15:04:28.442 设备发送:06 03 04 04 00 01 C5 4C
15:04:29.251 设备接收:06 03 02 00 02 8C 45
15:04:29.271 设备发送:07 03 04 84 00 04 05 76
15:04:30.063 设备接收:07 03 08 13 86 06 2F FF D7 06 35 BB B5
15:04:30.079 设备发送:07 03 04 8D 00 21 14 AF
15:04:30.905 设备接收:07 03 42 08 FA 09 03 00 00 00 00 00 00 00 00 00 00 00 00 00 00 00 00 00 00 08 F3 09 09 00 00 00 00 00 00 00 00 00 00 00 00 00 00 00 00 00 00 08 F8 09 09 00 00 00 00 00 00 00 00 00 00 00 00 00 00 00 00 00 00 46 09
15:04:30.937 设备发送:07 03 06 84 00 04 04 CE
15:04:31.736 设备接收:07 03 08 00 00 3D 52 00 06 EE 73 DA 3A
15:04:31.751 设备发送:07 03 04 04 00 01 C4 9D
15:04:32.532 设备接收:07 03 02 00 02 B1 85
15:04:32.578 设备发送:08 03 04 84 00 04 05 89
15:04:33.358 设备接收:08 03 08 13 86 0B E1 FF EA 0B E1 76 6F
15:04:33.389 设备发送:08 03 04 8D 00 21 14 50
15:04:34.186 设备接收:08 03 42 08 EE 11 6B 00 00 00 00 00 00 00 00 00 00 00 00 00 00 00 00 00 00 08 E3 11 5C 00 00 00 00 00 00 00 00 00 00 00 00 00 00 00 00 00 00 08 F4 11 8E 00 00 00 00 00 00 00 00 00 00 00 00 00 00 00 00 00 00 0B 65
15:04:34.201 设备发送:08 03 06 84 00 04 04 31
15:04:35.001 设备接收:08 03 08 00 00 81 1B 00 0F 1B 62 7A 42
15:04:35.017 设备发送:08 03 04 04 00 01 C4 62
15:04:35.832 设备接收:08 03 02 00 02 E5 84
15:04:35.848 设备发送:09 03 04 84 00 04 04 58
15:04:36.634 设备接收:09 03 08 13 86 0A DE 00 14 0A DF B6 E3
15:04:36.683 设备发送:09 03 04 8D 00 21 15 81
15:04:37.479 设备接收:09 03 42 08 F1 0F D8 00 00 00 00 00 00 00 00 00 00 00 00 00 00 00 00 00 00 08 E7 0F EC 00 00 00 00 00 00 00 00 00 00 00 00 00 00 00 00 00 00 08 FA 0F F5 00 00 00 00 00 00 00 00 00 00 00 00 00 00 00 00 00 00 85 FC
15:04:37.494 设备发送:09 03 06 84 00 04 05 E0
15:04:38.274 设备接收:09 03 08 00 00 74 AF 00 0D BF 57 C1 16
15:04:38.289 设备发送:09 03 04 04 00 01 C5 B3
15:04:39.103 设备接收:09 03 02 00 02 D8 44
15:04:39.119 设备发送:0A 03 04 84 00 04 04 6B
15:04:39.930 设备接收:0A 03 08 13 87 02 03 FF DF 02 0D 82 4B
15:04:39.946 设备发送:0A 03 04 8D 00 21 15 B2
15:04:40.745 设备接收:0A 03 42 08 F7 02 FC 00 00 00 00 00 00 00 00 00 00 00 00 00 00 00 00 00 00 08 EF 02 FD 00 00 00 00 00 00 00 00 00 00 00 00 00 00 00 00 00 00 08 F7 02 F7 00 00 00 00 00 00 00 00 00 00 00 00 00 00 00 00 00 00 C3 57
15:04:40.777 设备发送:0A 03 06 84 00 04 05 D3
15:04:41.573 设备接收:0A 03 08 00 00 1B 24 00 03 19 FF 78 CF
15:04:41.589 设备发送:0A 03 04 04 00 01 C5 80
15:04:42.399 设备接收:0A 03 02 00 02 9C 44
15:04:42.414 设备发送:01 03 04 84 00 04 05 10
15:04:43.213 设备接收:01 03 08 13 88 0E A8 FF DF 0E A8 B8 00
15:04:43.229 设备发送:01 03 04 8D 00 21 14 C9
15:04:44.045 设备接收:01 03 42 08 F5 15 3B 00 00 00 00 00 00 00 00 00 00 00 00 00 00 00 00 00 00 09 02 15 4D 00 00 00 00 00 00 00 00 00 00 00 00 00 00 00 00 00 00 09 05 15 5D 00 00 00 00 00 00 00 00 00 00 00 00 00 00 00 00 00 00 9A 36
15:04:44.060 设备发送:01 03 06 84 00 04 04 A8
15:04:44.858 设备接收:01 03 08 00 00 93 5C 00 12 7D 84 D9 8F
15:04:44.873 设备发送:01 03 04 04 00 01 C4 FB
15:04:45.670 设备接收:01 03 02 00 02 39 85
15:04:45.701 设备发送:02 03 04 84 00 04 05 23
15:04:46.486 设备接收:02 03 08 13 88 0F E9 00 1B 0F EA 7A D2
15:04:46.533 设备发送:02 03 04 8D 00 21 14 FA
15:04:47.331 设备接收:02 03 42 08 F4 17 02 00 00 00 00 00 00 00 00 00 00 00 00 00 00 00 00 00 00 09 06 17 17 00 00 00 00 00 00 00 00 00 00 00 00 00 00 00 00 00 00 09 01 17 1A 00 00 00 00 00 00 00 00 00 00 00 00 00 00 00 00 00 00 D6 E6
15:04:47.347 设备发送:02 03 06 84 00 04 04 9B
15:04:48.143 设备接收:02 03 08 00 00 97 51 00 12 CB C3 CC DC
15:04:48.159 设备发送:02 03 04 04 00 01 C4 C8
15:04:48.970 设备接收:02 03 02 00 02 7D 85
15:04:49.002 设备发送:03 03 04 84 00 04 04 F2
15:04:49.784 设备接收:03 03 08 13 88 11 C7 FF D9 11 C7 CD C3
15:04:49.815 设备发送:03 03 04 8D 00 21 15 2B
15:04:50.595 设备接收:03 03 42 08 F2 19 C7 00 00 00 00 00 00 00 00 00 00 00 00 00 00 00 00 00 00 09 08 19 BE 00 00 00 00 00 00 00 00 00 00 00 00 00 00 00 00 00 00 09 04 19 D6 00 00 00 00 00 00 00 00 00 00 00 00 00 00 00 00 00 00 A0 5D
15:04:50.610 设备发送:03 03 06 84 00 04 05 4A
15:04:51.437 设备接收:03 03 08 00 00 A5 25 00 13 42 B5 CB 8F
15:04:51.457 设备发送:03 03 04 04 00 01 C5 19
15:04:52.232 设备接收:03 03 02 00 02 40 45
15:04:52.264 设备发送:04 03 04 84 00 04 05 45
15:04:53.074 设备接收:04 03 08 13 88 0E C0 00 14 0E C0 88 01
15:04:53.090 设备发送:04 03 04 8D 00 21 14 9C
15:04:53.907 设备接收:04 03 42 08 FB 15 79 00 00 00 00 00 00 00 00 00 00 00 00 00 00 00 00 00 00 08 ED 15 72 00 00 00 00 00 00 00 00 00 00 00 00 00 00 00 00 00 00 09 06 15 79 00 00 00 00 00 00 00 00 00 00 00 00 00 00 00 00 00 00 98 4E
15:04:53.915 设备发送:04 03 06 84 00 04 04 FD
15:04:54.695 设备接收:04 03 08 00 00 89 45 00 10 9F CB 7F 2F
15:04:54.726 设备发送:04 03 04 04 00 01 C4 AE
15:04:55.523 设备接收:04 03 02 00 02 F5 85
15:04:55.539 设备发送:05 03 04 84 00 04 04 94
15:04:56.351 设备接收:05 03 08 13 89 0B F8 FF BD 0B F9 1E DB
15:04:56.366 设备发送:05 03 04 8D 00 21 15 4D
15:04:57.180 设备接收:05 03 42 08 F4 11 6D 00 00 00 00 00 00 00 00 00 00 00 00 00 00 00 00 00 00 08 FD 11 60 00 00 00 00 00 00 00 00 00 00 00 00 00 00 00 00 00 00 09 01 11 72 00 00 00 00 00 00 00 00 00 00 00 00 00 00 00 00 00 00 0B 43
15:04:57.195 设备发送:05 03 06 84 00 04 05 2C
15:04:57.991 设备接收:05 03 08 00 00 73 12 00 0E 09 36 D4 62
15:04:58.006 设备发送:05 03 04 04 00 01 C5 7F
15:04:58.800 设备接收:05 03 02 00 02 C8 45
15:04:58.815 设备发送:06 03 04 84 00 04 04 A7
15:04:59.634 设备接收:06 03 08 13 89 09 D0 FF ED 09 D0 B0 D4
15:04:59.642 设备发送:06 03 04 8D 00 21 15 7E
15:05:00.440 设备接收:06 03 42 08 F2 0E 52 00 00 00 00 00 00 00 00 00 00 00 00 00 00 00 00 00 00 08 F6 0E 57 00 00 00 00 00 00 00 00 00 00 00 00 00 00 00 00 00 00 08 FD 0E 77 00 00 00 00 00 00 00 00 00 00 00 00 00 00 00 00 00 00 97 62
15:05:00.487 设备发送:06 03 06 84 00 04 05 1F
15:05:01.270 设备接收:06 03 08 00 00 6F 4C 00 0D FE 2E C6 8D
15:05:01.286 设备发送:06 03 04 04 00 01 C5 4C
15:05:02.084 设备接收:06 03 02 00 02 8C 45
15:05:02.132 设备发送:07 03 04 84 00 04 05 76
15:05:02.928 设备接收:07 03 08 13 89 06 1F FF E4 06 25 F5 72
15:05:02.943 设备发送:07 03 04 8D 00 21 14 AF
15:05:03.754 设备接收:07 03 42 08 FA 08 E9 00 00 00 00 00 00 00 00 00 00 00 00 00 00 00 00 00 00 08 F6 08 EE 00 00 00 00 00 00 00 00 00 00 00 00 00 00 00 00 00 00 08 F8 08 EB 00 00 00 00 00 00 00 00 00 00 00 00 00 00 00 00 00 00 12 E9
15:05:03.769 设备发送:07 03 06 84 00 04 04 CE
15:05:04.566 设备接收:07 03 08 00 00 3D 60 00 06 EE 74 A2 3C
15:05:04.582 设备发送:07 03 04 04 00 01 C4 9D
15:05:05.389 设备接收:07 03 02 00 02 B1 85
15:05:05.405 设备发送:08 03 04 84 00 04 05 89
15:05:06.188 设备接收:08 03 08 13 8A 0B C4 FF EA 0B C4 36 73
15:05:06.251 设备发送:08 03 04 8D 00 21 14 50
15:05:07.015 设备接收:08 03 42 08 EA 11 44 00 00 00 00 00 00 00 00 00 00 00 00 00 00 00 00 00 00 08 E3 11 39 00 00 00 00 00 00 00 00 00 00 00 00 00 00 00 00 00 00 08 F2 11 62 00 00 00 00 00 00 00 00 00 00 00 00 00 00 00 00 00 00 87 E7
15:05:07.061 设备发送:08 03 06 84 00 04 04 31
15:05:07.851 设备接收:08 03 08 00 00 81 37 00 0F 1B 64 6B 86
15:05:07.871 设备发送:08 03 04 04 00 01 C4 62
15:05:08.665 设备接收:08 03 02 00 02 E5 84
15:05:08.680 设备发送:09 03 04 84 00 04 04 58
15:05:09.496 设备接收:09 03 08 13 8B 0A D2 FF C3 0A D3 FA 0B
15:05:09.511 设备发送:09 03 04 8D 00 21 15 81
15:05:10.295 设备接收:09 03 42 08 ED 0F C6 00 00 00 00 00 00 00 00 00 00 00 00 00 00 00 00 00 00 08 E8 0F DF 00 00 00 00 00 00 00 00 00 00 00 00 00 00 00 00 00 00 08 F8 0F E4 00 00 00 00 00 00 00 00 00 00 00 00 00 00 00 00 00 00 66 98
15:05:10.326 设备发送:09 03 06 84 00 04 05 E0
15:05:11.135 设备接收:09 03 08 00 00 74 C9 00 0D BF 59 48 DA
15:05:11.151 设备发送:09 03 04 04 00 01 C5 B3
15:05:11.930 设备接收:09 03 02 00 02 D8 44
15:05:11.976 设备发送:0A 03 04 84 00 04 04 6B
15:05:12.756 设备接收:0A 03 08 13 8B 01 FF FF D7 02 0A DE 6C
15:05:12.772 设备发送:0A 03 04 8D 00 21 15 B2
15:05:13.596 设备接收:0A 03 42 08 F6 02 F1 00 00 00 00 00 00 00 00 00 00 00 00 00 00 00 00 00 00 08 F3 02 F4 00 00 00 00 00 00 00 00 00 00 00 00 00 00 00 00 00 00 08 F8 02 F0 00 00 00 00 00 00 00 00 00 00 00 00 00 00 00 00 00 00 F5 4F
15:05:13.611 设备发送:0A 03 06 84 00 04 05 D3
15:05:14.422 设备接收:0A 03 08 00 00 1B 29 00 03 1A 00 15 BE
15:05:14.442 设备发送:0A 03 04 04 00 01 C5 80
15:05:15.234 设备接收:0A 03 02 00 02 9C 44
15:05:15.250 设备发送:01 03 04 84 00 04 05 10
15:05:16.047 设备接收:01 03 08 13 8C 0E C0 FF A9 0E C1 BD FD
15:05:16.078 设备发送:01 03 04 8D 00 21 14 C9
15:05:16.874 设备接收:01 03 42 08 F4 15 6B 00 00 00 00 00 00 00 00 00 00 00 00 00 00 00 00 00 00 09 02 15 75 00 00 00 00 00 00 00 00 00 00 00 00 00 00 00 00 00 00 09 01 15 8B 00 00 00 00 00 00 00 00 00 00 00 00 00 00 00 00 00 00 44 74
15:05:16.890 设备发送:01 03 06 84 00 04 04 A8
15:05:17.717 设备接收:01 03 08 00 00 93 7E 00 12 7D 87 61 89
15:05:17.732 设备发送:01 03 04 04 00 01 C4 FB
15:05:18.511 设备接收:01 03 02 00 02 39 85
15:05:18.542 设备发送:02 03 04 84 00 04 05 23
15:05:19.353 设备接收:02 03 08 13 8B 0F EB FF 9F 0F EC C0 2D
15:05:19.368 设备发送:02 03 04 8D 00 21 14 FA
15:05:20.162 设备接收:02 03 42 08 F4 17 03 00 00 00 00 00 00 00 00 00 00 00 00 00 00 00 00 00 00 09 07 17 33 00 00 00 00 00 00 00 00 00 00 00 00 00 00 00 00 00 00 09 01 17 38 00 00 00 00 00 00 00 00 00 00 00 00 00 00 00 00 00 00 69 0C
15:05:20.193 设备发送:02 03 06 84 00 04 04 9B
15:05:20.971 设备接收:02 03 08 00 00 97 76 00 12 CB C7 F9 18
15:05:20.987 设备发送:02 03 04 04 00 01 C4 C8
15:05:21.784 设备接收:02 03 02 00 02 7D 85
15:05:21.831 设备发送:03 03 04 84 00 04 04 F2
15:05:22.629 设备接收:03 03 08 13 8B 11 EB FF D9 11 EB 6E D8
15:05:22.645 设备发送:03 03 04 8D 00 21 15 2B
15:05:23.453 设备接收:03 03 42 08 F4 19 F3 00 00 00 00 00 00 00 00 00 00 00 00 00 00 00 00 00 00 09 0B 19 EB 00 00 00 00 00 00 00 00 00 00 00 00 00 00 00 00 00 00 09 07 1A 06 00 00 00 00 00 00 00 00 00 00 00 00 00 00 00 00 00 00 23 B8
15:05:23.468 设备发送:03 03 06 84 00 04 05 4A
15:05:24.264 设备接收:03 03 08 00 00 A5 4E 00 13 42 B9 EE 43
15:05:24.280 设备发送:03 03 04 04 00 01 C5 19
15:05:25.073 设备接收:03 03 02 00 02 40 45
15:05:25.104 设备发送:04 03 04 84 00 04 05 45
15:05:25.916 设备接收:04 03 08 13 8B 0E DC FF A7 0E DD 6B 39
15:05:25.931 设备发送:04 03 04 8D 00 21 14 9C
15:05:26.713 设备接收:04 03 42 08 FB 15 97 00 00 00 00 00 00 00 00 00 00 00 00 00 00 00 00 00 00 08 EC 15 91 00 00 00 00 00 00 00 00 00 00 00 00 00 00 00 00 00 00 09 06 15 94 00 00 00 00 00 00 00 00 00 00 00 00 00 00 00 00 00 00 8F AA
15:05:26.744 设备发送:04 03 06 84 00 04 04 FD
15:05:27.525 设备接收:04 03 08 00 00 89 68 00 10 9F CE 13 2A
15:05:27.573 设备发送:04 03 04 04 00 01 C4 AE
15:05:28.370 设备接收:04 03 02 00 02 F5 85
15:05:28.385 设备发送:05 03 04 84 00 04 04 94
15:05:29.197 设备接收:05 03 08 13 8B 0C 12 FF EA 0C 12 D6 D4
15:05:29.212 设备发送:05 03 04 8D 00 21 15 4D
15:05:30.023 设备接收:05 03 42 08 F3 11 89 00 00 00 00 00 00 00 00 00 00 00 00 00 00 00 00 00 00 09 00 11 7D 00 00 00 00 00 00 00 00 00 00 00 00 00 00 00 00 00 00 09 02 11 92 00 00 00 00 00 00 00 00 00 00 00 00 00 00 00 00 00 00 14 B2
15:05:30.039 设备发送:05 03 06 84 00 04 05 2C
15:05:30.821 设备接收:05 03 08 00 00 73 2E 00 0E 09 39 C4 63
15:05:30.853 设备发送:05 03 04 04 00 01 C5 7F
15:05:31.632 设备接收:05 03 02 00 02 C8 45
15:05:31.663 设备发送:06 03 04 84 00 04 04 A7
15:05:32.458 设备接收:06 03 08 13 8B 09 CC FF ED 09 CC 43 1F
15:05:32.505 设备发送:06 03 04 8D 00 21 15 7E
15:05:33.288 设备接收:06 03 42 08 F4 0E 3E 00 00 00 00 00 00 00 00 00 00 00 00 00 00 00 00 00 00 08 F8 0E 45 00 00 00 00 00 00 00 00 00 00 00 00 00 00 00 00 00 00 09 01 0E 6A 00 00 00 00 00 00 00 00 00 00 00 00 00 00 00 00 00 00 B5 A8
15:05:33.304 设备发送:06 03 06 84 00 04 05 1F
15:05:34.102 设备接收:06 03 08 00 00 6F 63 00 0D FE 30 93 43
15:05:34.133 设备发送:06 03 04 04 00 01 C5 4C
15:05:34.942 设备接收:06 03 02 00 02 8C 45
15:05:34.958 设备发送:07 03 04 84 00 04 05 76
15:05:35.756 设备接收:07 03 08 13 8A 06 17 FF D7 06 1D D6 6E
15:05:35.772 设备发送:07 03 04 8D 00 21 14 AF
15:05:36.586 设备接收:07 03 42 08 FD 08 E1 00 00 00 00 00 00 00 00 00 00 00 00 00 00 00 00 00 00 08 F4 08 DF 00 00 00 00 00 00 00 00 00 00 00 00 00 00 00 00 00 00 08 F6 08 DF 00 00 00 00 00 00 00 00 00 00 00 00 00 00 00 00 00 00 E5 CF
15:05:36.601 设备发送:07 03 06 84 00 04 04 CE
15:05:37.381 设备接收:07 03 08 00 00 3D 6E 00 06 EE 76 4A 3C
15:05:37.397 设备发送:07 03 04 04 00 01 C4 9D
15:05:38.226 设备接收:07 03 02 00 02 B1 85
15:05:38.242 设备发送:08 03 04 84 00 04 05 89
15:05:39.040 设备接收:08 03 08 13 8A 0B E1 FF E8 0B E1 1B AF
15:05:39.060 设备发送:08 03 04 8D 00 21 14 50
15:05:39.849 设备接收:08 03 42 08 E9 11 78 00 00 00 00 00 00 00 00 00 00 00 00 00 00 00 00 00 00 08 E4 11 74 00 00 00 00 00 00 00 00 00 00 00 00 00 00 00 00 00 00 08 F2 11 92 00 00 00 00 00 00 00 00 00 00 00 00 00 00 00 00 00 00 56 68
15:05:39.865 设备发送:08 03 06 84 00 04 04 31
15:05:40.679 设备接收:08 03 08 00 00 81 52 00 0F 1B 67 67 8F
15:05:40.695 设备发送:08 03 04 04 00 01 C4 62
15:05:41.492 设备接收:08 03 02 00 02 E5 84
15:05:41.523 设备发送:09 03 04 84 00 04 04 58
15:05:42.305 设备接收:09 03 08 13 89 0A ED 00 16 0A ED 6D F2
15:05:42.337 设备发送:09 03 04 8D 00 21 15 81
15:05:43.135 设备接收:09 03 42 08 EF 0F E6 00 00 00 00 00 00 00 00 00 00 00 00 00 00 00 00 00 00 08 E7 0F FA 00 00 00 00 00 00 00 00 00 00 00 00 00 00 00 00 00 00 08 F9 10 07 00 00 00 00 00 00 00 00 00 00 00 00 00 00 00 00 00 00 C0 BC
15:05:43.150 设备发送:09 03 06 84 00 04 05 E0
15:05:43.950 设备接收:09 03 08 00 00 74 E2 00 0D BF 5C AC DF
15:05:43.965 设备发送:09 03 04 04 00 01 C5 B3
15:05:44.805 设备接收:09 03 02 00 02 D8 44
15:05:44.821 设备发送:0A 03 04 84 00 04 04 6B
15:05:45.587 设备接收:0A 03 08 13 89 01 FF FF D0 02 0B 8D AD
15:05:45.602 设备发送:0A 03 04 8D 00 21 15 B2
15:05:46.414 设备接收:0A 03 42 08 F7 02 F8 00 00 00 00 00 00 00 00 00 00 00 00 00 00 00 00 00 00 08 F2 02 FA 00 00 00 00 00 00 00 00 00 00 00 00 00 00 00 00 00 00 08 F8 02 F9 00 00 00 00 00 00 00 00 00 00 00 00 00 00 00 00 00 00 B3 A7
15:05:46.429 设备发送:0A 03 06 84 00 04 05 D3
15:05:47.237 设备接收:0A 03 08 00 00 1B 2E 00 03 1A 00 A0 7E
15:05:47.253 设备发送:0A 03 04 04 00 01 C5 80
15:05:48.048 设备接收:0A 03 02 00 02 9C 44
15:05:48.064 设备发送:01 03 04 84 00 04 05 10
15:05:48.889 设备接收:01 03 08 13 89 0E B6 FF A8 0E B7 F1 10
15:05:48.905 设备发送:01 03 04 8D 00 21 14 C9
15:05:49.687 设备接收:01 03 42 08 F5 15 63 00 00 00 00 00 00 00 00 00 00 00 00 00 00 00 00 00 00 09 04 15 74 00 00 00 00 00 00 00 00 00 00 00 00 00 00 00 00 00 00 09 05 15 81 00 00 00 00 00 00 00 00 00 00 00 00 00 00 00 00 00 00 2A 02
15:05:49.701 设备发送:01 03 06 84 00 04 04 A8
15:05:50.498 设备接收:01 03 08 00 00 93 9F 00 12 7D 8B DD 9A
15:05:50.546 设备发送:01 03 04 04 00 01 C4 FB
15:05:51.327 设备接收:01 03 02 00 02 39 85
15:05:51.358 设备发送:02 03 04 84 00 04 05 23
15:05:52.153 设备接收:02 03 08 13 88 10 01 00 1A 10 01 01 15
15:05:52.168 设备发送:02 03 04 8D 00 21 14 FA
15:05:52.981 设备接收:02 03 42 08 F6 17 22 00 00 00 00 00 00 00 00 00 00 00 00 00 00 00 00 00 00 09 08 17 31 00 00 00 00 00 00 00 00 00 00 00 00 00 00 00 00 00 00 09 04 17 37 00 00 00 00 00 00 00 00 00 00 00 00 00 00 00 00 00 00 3D 15
15:05:52.996 设备发送:02 03 06 84 00 04 04 9B
15:05:53.790 设备接收:02 03 08 00 00 97 9C 00 12 CB CB E0 CA
15:05:53.807 设备发送:02 03 04 04 00 01 C4 C8
15:05:54.603 设备接收:02 03 02 00 02 7D 85
15:05:54.619 设备发送:03 03 04 84 00 04 04 F2
15:05:55.445 设备接收:03 03 08 13 87 11 E7 FF D9 11 E7 B2 DC
15:05:55.463 设备发送:03 03 04 8D 00 21 15 2B
15:05:56.255 设备接收:03 03 42 08 F3 19 F1 00 00 00 00 00 00 00 00 00 00 00 00 00 00 00 00 00 00 09 09 19 E6 00 00 00 00 00 00 00 00 00 00 00 00 00 00 00 00 00 00 09 06 1A 05 00 00 00 00 00 00 00 00 00 00 00 00 00 00 00 00 00 00 CB 7F
15:05:56.270 设备发送:03 03 06 84 00 04 05 4A
15:05:57.095 设备接收:03 03 08 00 00 A5 78 00 13 42 BE 67 85
15:05:57.111 设备发送:03 03 04 04 00 01 C5 19
15:05:57.894 设备接收:03 03 02 00 02 40 45
15:05:57.925 设备发送:04 03 04 84 00 04 05 45
15:05:58.720 设备接收:04 03 08 13 86 0E E1 00 15 0E E1 4A 1E
15:05:58.735 设备发送:04 03 04 8D 00 21 14 9C
15:05:59.536 设备接收:04 03 42 08 F8 15 A9 00 00 00 00 00 00 00 00 00 00 00 00 00 00 00 00 00 00 08 E9 15 9F 00 00 00 00 00 00 00 00 00 00 00 00 00 00 00 00 00 00 09 05 15 A9 00 00 00 00 00 00 00 00 00 00 00 00 00 00 00 00 00 00 D8 AF
15:05:59.551 设备发送:04 03 06 84 00 04 04 FD
15:06:00.346 设备接收:04 03 08 00 00 89 8B 00 10 9F D2 D7 35
15:06:00.378 设备发送:04 03 04 04 00 01 C4 AE
15:06:01.174 设备接收:04 03 02 00 02 F5 85
15:06:01.189 设备发送:05 03 04 84 00 04 04 94
15:06:02.002 设备接收:05 03 08 13 84 0C 0F FF EB 0C 0F 54 1F
15:06:02.018 设备发送:05 03 04 8D 00 21 15 4D
15:06:02.831 设备接收:05 03 42 08 F0 11 88 00 00 00 00 00 00 00 00 00 00 00 00 00 00 00 00 00 00 08 FB 11 86 00 00 00 00 00 00 00 00 00 00 00 00 00 00 00 00 00 00 09 02 11 8D 00 00 00 00 00 00 00 00 00 00 00 00 00 00 00 00 00 00 CA A1
15:06:02.847 设备发送:05 03 06 84 00 04 05 2C
15:06:03.630 设备接收:05 03 08 00 00 73 4B 00 0E 09 3C 48 68
15:06:03.645 设备发送:05 03 04 04 00 01 C5 7F
15:06:04.473 设备接收:05 03 02 00 02 C8 45
15:06:04.488 设备发送:06 03 04 84 00 04 04 A7
15:06:05.270 设备接收:06 03 08 13 84 09 B4 FF ED 09 B5 DD F7
15:06:05.285 设备发送:06 03 04 8D 00 21 15 7E
15:06:06.095 设备接收:06 03 42 08 F6 0E 20 00 00 00 00 00 00 00 00 00 00 00 00 00 00 00 00 00 00 08 F7 0E 1E 00 00 00 00 00 00 00 00 00 00 00 00 00 00 00 00 00 00 09 01 0E 40 00 00 00 00 00 00 00 00 00 00 00 00 00 00 00 00 00 00 FE E4
15:06:06.110 设备发送:06 03 06 84 00 04 05 1F
15:06:06.907 设备接收:06 03 08 00 00 6F 7A 00 0D FE 32 0F 40
15:06:06.922 设备发送:06 03 04 04 00 01 C5 4C
15:06:07.721 设备接收:06 03 02 00 02 8C 45
15:06:07.768 设备发送:07 03 04 84 00 04 05 76
15:06:08.552 设备接收:07 03 08 13 85 06 0D FF E5 06 12 91 67
15:06:08.583 设备发送:07 03 04 8D 00 21 14 AF
15:06:09.376 设备接收:07 03 42 08 FC 08 CD 00 00 00 00 00 00 00 00 00 00 00 00 00 00 00 00 00 00 08 F4 08 D2 00 00 00 00 00 00 00 00 00 00 00 00 00 00 00 00 00 00 08 F8 08 CF 00 00 00 00 00 00 00 00 00 00 00 00 00 00 00 00 00 00 FB 58
15:06:09.380 设备发送:07 03 06 84 00 04 04 CE
15:06:10.214 设备接收:07 03 08 00 00 3D 7C 00 06 EE 77 33 FF
15:06:10.229 设备发送:07 03 04 04 00 01 C4 9D
15:06:11.014 设备接收:07 03 02 00 02 B1 85
15:06:11.030 设备发送:08 03 04 84 00 04 05 89
15:06:11.839 设备接收:08 03 08 13 85 0B D1 FF EB 0B D1 54 BF
15:06:11.871 设备发送:08 03 04 8D 00 21 14 50
15:06:12.663 设备接收:08 03 42 08 EA 11 65 00 00 00 00 00 00 00 00 00 00 00 00 00 00 00 00 00 00 08 E0 11 55 00 00 00 00 00 00 00 00 00 00 00 00 00 00 00 00 00 00 08 F1 11 80 00 00 00 00 00 00 00 00 00 00 00 00 00 00 00 00 00 00 0C 4D
15:06:12.701 设备发送:08 03 06 84 00 04 04 31
15:06:13.486 设备接收:08 03 08 00 00 81 6E 00 0F 1B 6A F6 4F
15:06:13.501 设备发送:08 03 04 04 00 01 C4 62
15:06:14.301 设备接收:08 03 02 00 02 E5 84
15:06:14.316 设备发送:09 03 04 84 00 04 04 58
15:06:15.119 设备接收:09 03 08 13 85 0A DD FF C4 0A DD 71 CF
15:06:15.149 设备发送:09 03 04 8D 00 21 15 81
15:06:15.949 设备接收:09 03 42 08 EE 0F E7 00 00 00 00 00 00 00 00 00 00 00 00 00 00 00 00 00 00 08 E4 0F F9 00 00 00 00 00 00 00 00 00 00 00 00 00 00 00 00 00 00 08 F6 10 00 00 00 00 00 00 00 00 00 00 00 00 00 00 00 00 00 00 00 B7 22
15:06:15.964 设备发送:09 03 06 84 00 04 05 E0
15:06:16.778 设备接收:09 03 08 00 00 74 FC 00 0D BF 5E 85 1C
15:06:16.793 设备发送:09 03 04 04 00 01 C5 B3
15:06:17.589 设备接收:09 03 02 00 02 D8 44
15:06:17.605 设备发送:0A 03 04 84 00 04 04 6B
15:06:18.432 设备接收:0A 03 08 13 85 02 00 FF D8 02 0B D4 48
15:06:18.447 设备发送:0A 03 04 8D 00 21 15 B2
15:06:19.240 设备接收:0A 03 42 08 F3 02 FB 00 00 00 00 00 00 00 00 00 00 00 00 00 00 00 00 00 00 08 EB 02 FC 00 00 00 00 00 00 00 00 00 00 00 00 00 00 00 00 00 00 08 F4 02 F7 00 00 00 00 00 00 00 00 00 00 00 00 00 00 00 00 00 00 F8 9F
15:06:19.256 设备发送:0A 03 06 84 00 04 05 D3
15:06:20.052 设备接收:0A 03 08 00 00 1B 32 00 03 1A 01 B0 7C
15:06:20.084 设备发送:0A 03 04 04 00 01 C5 80
15:06:20.865 设备接收:0A 03 02 00 02 9C 44
15:06:20.881 设备发送:01 03 04 84 00 04 05 10
15:06:21.694 设备接收:01 03 08 13 85 0E C8 FF A7 0E C9 A5 39
15:06:21.709 设备发送:01 03 04 8D 00 21 14 C9
15:06:22.521 设备接收:01 03 42 08 F4 15 5D 00 00 00 00 00 00 00 00 00 00 00 00 00 00 00 00 00 00 09 01 15 6D 00 00 00 00 00 00 00 00 00 00 00 00 00 00 00 00 00 00 09 03 15 7A 00 00 00 00 00 00 00 00 00 00 00 00 00 00 00 00 00 00 86 C8
15:06:22.553 设备发送:01 03 06 84 00 04 04 A8
15:06:23.330 设备接收:01 03 08 00 00 93 C1 00 12 7D 8E B4 54
15:06:23.346 设备发送:01 03 04 04 00 01 C4 FB
15:06:24.170 设备接收:01 03 02 00 02 39 85
15:06:24.186 设备发送:02 03 04 84 00 04 05 23
15:06:24.966 设备接收:02 03 08 13 86 0F DF FF A0 0F E0 9D 20
15:06:24.982 设备发送:02 03 04 8D 00 21 14 FA
15:06:25.808 设备接收:02 03 42 08 F5 17 08 00 00 00 00 00 00 00 00 00 00 00 00 00 00 00 00 00 00 09 06 17 0D 00 00 00 00 00 00 00 00 00 00 00 00 00 00 00 00 00 00 09 03 17 20 00 00 00 00 00 00 00 00 00 00 00 00 00 00 00 00 00 00 C8 09
15:06:25.824 设备发送:02 03 06 84 00 04 04 9B
15:06:26.606 设备接收:02 03 08 00 00 97 C1 00 12 CB CE CD 04
15:06:26.622 设备发送:02 03 04 04 00 01 C4 C8
15:06:27.451 设备接收:02 03 02 00 02 7D 85
15:06:27.467 设备发送:03 03 04 84 00 04 04 F2
15:06:28.247 设备接收:03 03 08 13 87 11 BB FF D9 11 BC 23 2A
15:06:28.279 设备发送:03 03 04 8D 00 21 15 2B
15:06:29.089 设备接收:03 03 42 08 F1 19 B7 00 00 00 00 00 00 00 00 00 00 00 00 00 00 00 00 00 00 09 08 19 AD 00 00 00 00 00 00 00 00 00 00 00 00 00 00 00 00 00 00 09 04 19 CD 00 00 00 00 00 00 00 00 00 00 00 00 00 00 00 00 00 00 82 80
15:06:29.105 设备发送:03 03 06 84 00 04 05 4A
15:06:29.890 设备接收:03 03 08 00 00 A5 A2 00 13 42 C2 3F B7
15:06:29.902 设备发送:03 03 04 04 00 01 C5 19
15:06:30.709 设备接收:03 03 02 00 02 40 45
15:06:30.733 设备发送:04 03 04 84 00 04 05 45
15:06:31.550 设备接收:04 03 08 13 86 0E C9 FF A4 0E CA 0A 34
15:06:31.699 设备发送:04 03 04 8D 00 21 14 9C
15:06:32.362 设备接收:04 03 42 08 F5 15 7F 00 00 00 00 00 00 00 00 00 00 00 00 00 00 00 00 00 00 08 EC 15 88 00 00 00 00 00 00 00 00 00 00 00 00 00 00 00 00 00 00 09 06 15 8F 00 00 00 00 00 00 00 00 00 00 00 00 00 00 00 00 00 00 79 D2
15:06:32.518 设备发送:04 03 06 84 00 04 04 FD
15:06:33.170 设备接收:04 03 08 00 00 89 AD 00 10 9F D5 9F 30
15:06:33.182 设备发送:04 03 04 04 00 01 C4 AE

