13:08:34.950 设备接收:05 03 02 00 2B 09 9B
13:08:34.966 设备发送:05 03 04 05 00 01 94 BF
13:08:39.973 设备接收:05 03 02 00 00 49 84
13:08:40.004 设备发送:06 03 04 84 00 04 04 A7
13:08:44.987 设备接收:06 03 08 13 88 17 86 FF CE 17 86 93 F2
13:08:45.034 设备发送:06 03 04 8D 00 05 15 65
13:08:50.028 设备接收:06 03 0A 09 10 21 B5 00 00 00 00 00 00 15 01
13:08:50.060 设备发送:06 03 04 98 00 05 04 A1
13:08:55.029 设备接收:06 03 0A 09 20 21 96 00 00 00 00 00 00 53 C2
13:08:55.044 设备发送:06 03 04 A3 00 05 75 6C
13:09:00.041 设备接收:06 03 0A 09 1C 21 B4 00 00 00 00 00 00 50 C1
13:09:00.057 设备发送:06 03 06 84 00 04 05 1F
13:09:05.095 设备接收:06 03 08 00 00 52 61 00 0E 9B 4A B4 DD
13:09:05.111 设备发送:06 03 04 04 00 01 C5 4C
13:09:10.102 设备接收:06 03 02 00 02 8C 45
13:09:10.117 设备发送:06 03 05 84 00 0F 44 9C
13:09:15.114 设备接收:06 03 1E 04 6E 00 06 00 00 1B A5 06 98 04 AA 1B C6 06 9F 04 B5 1A 3A 03 5A 02 40 1D 11 06 E8 05 23 14 69
13:09:15.129 设备发送:06 03 05 93 00 0F F4 98
13:09:20.152 设备接收:06 03 1E 04 6C 00 00 00 00 04 5B 00 00 00 00 16 A6 06 EA 04 02 04 5E 00 04 00 00 14 CC 06 E4 03 AB 12 25
13:09:20.167 设备发送:06 03 05 A2 00 0F A5 57
13:09:25.159 设备接收:06 03 1E 00 08 00 00 00 00 00 00 00 00 00 00 00 00 00 00 00 00 00 00 00 00 00 00 00 00 00 00 00 00 DD 75
13:09:25.175 设备发送:06 03 05 B1 00 03 54 97
13:09:30.162 设备接收:06 03 06 00 00 00 00 00 00 07 45
13:09:30.179 设备发送:06 03 04 2B 00 01 F4 85
13:09:35.183 设备接收:06 03 02 02 42 8C D5
13:09:35.213 设备发送:06 03 04 20 00 01 85 47
13:09:40.203 设备接收:06 03 02 00 24 0D 9F
13:09:40.231 设备发送:06 03 04 05 00 01 94 8C
13:09:45.233 设备接收:06 03 02 00 00 0D 84
13:09:45.248 设备发送:07 03 04 84 00 04 05 76
13:09:50.275 设备接收:07 03 08 13 87 0C 71 FF D7 0C 79 05 47
13:09:50.290 设备发送:07 03 04 8D 00 05 14 B4
13:09:55.291 设备接收:07 03 0A 09 07 11 FB 00 00 00 00 00 00 51 60
13:09:55.306 设备发送:07 03 04 98 00 05 05 70
13:10:00.294 设备接收:07 03 0A 09 07 12 01 00 00 00 00 00 00 4B 7A
13:10:00.310 设备发送:07 03 04 A3 00 05 74 BD
13:10:05.318 设备接收:07 03 0A 09 06 11 FB 00 00 00 00 00 00 5C F0
13:10:05.334 设备发送:07 03 06 84 00 04 04 CE
13:10:10.326 设备接收:07 03 08 00 00 2C 82 00 07 43 87 34 7E
13:10:10.342 设备发送:07 03 04 04 00 01 C4 9D
13:10:15.350 设备接收:07 03 02 00 02 B1 85
13:10:15.380 设备发送:07 03 05 84 00 0F 45 4D
13:10:20.366 设备接收:07 03 1E 18 2F 06 BC 04 2B 1A 01 03 5B 02 3C 19 9E 03 52 02 2D 18 02 06 C0 04 26 00 00 00 00 00 00 1B 8F
13:10:20.389 设备发送:07 03 05 93 00 0F F5 49
13:10:25.394 设备接收:07 03 1E 00 00 00 00 00 00 00 00 00 00 00 00 00 00 00 00 00 00 00 00 00 00 00 00 00 00 00 00 00 00 B0 BB
13:10:25.415 设备发送:07 03 05 A2 00 0F A4 86
13:10:30.432 设备接收:07 03 1E 00 00 00 00 00 00 00 00 00 00 00 00 00 00 00 00 00 00 00 00 00 00 00 00 00 00 00 00 00 00 B0 BB
13:10:30.453 设备发送:07 03 05 B1 00 03 55 46
13:10:35.440 设备接收:07 03 06 00 00 00 00 00 00 0A D5
13:10:35.463 设备发送:07 03 04 2B 00 01 F5 54
13:10:40.464 设备接收:07 03 02 01 81 F1 B4
13:10:40.485 设备发送:07 03 04 20 00 01 84 96
13:10:45.467 设备接收:07 03 02 00 28 30 5A
13:10:45.508 设备发送:07 03 04 05 00 01 95 5D
13:10:50.486 设备接收:07 03 02 00 00 30 44
13:10:50.537 设备发送:08 03 04 84 00 04 05 89
13:10:55.541 设备接收:08 03 08 13 86 1B 76 FF 5C 1B 78 2D 6E
13:10:55.563 设备发送:08 03 04 8D 00 05 14 4B
13:11:00.537 设备接收:08 03 0A 08 FA 27 EB 00 00 00 00 00 00 DA C1
13:11:00.548 设备发送:08 03 04 98 00 05 05 8F
13:11:05.554 设备接收:08 03 0A 08 F1 27 DE 00 00 00 00 00 00 CC F2
13:11:05.576 设备发送:08 03 04 A3 00 05 74 42
13:11:10.580 设备接收:08 03 0A 09 02 27 C7 00 00 00 00 00 00 05 02
13:11:10.612 设备发送:08 03 06 84 00 04 04 31
13:11:15.603 设备接收:08 03 08 00 00 5E DA 00 0F CF B5 4B A2
13:11:15.615 设备发送:08 03 04 04 00 01 C4 62
13:11:20.630 设备接收:08 03 02 00 02 E5 84
13:11:20.646 设备发送:08 03 05 84 00 0F 45 B2
13:11:25.663 设备接收:08 03 1E 19 9F 03 0B 01 FF 1A 60 02 76 01 A9 1A 63 02 94 01 BE 19 EF 06 05 03 FF 19 03 06 4A 04 07 0E 02
13:11:25.692 设备发送:08 03 05 93 00 0F F5 B6
13:11:30.683 设备接收:08 03 1E 1D B0 06 29 04 AF 1D B2 03 2B 02 68 19 F4 02 F6 01 F7 18 A3 03 1D 01 F6 1A 17 06 16 04 10 7E 74
13:11:30.698 设备发送:08 03 05 A2 00 0F A4 79
13:11:35.705 设备接收:08 03 1E 00 00 00 08 00 00 00 00 00 05 00 00 00 00 00 00 00 00 00 00 00 00 00 00 00 00 00 00 00 00 7E BB
13:11:35.720 设备发送:08 03 05 B1 00 03 55 B9
13:11:40.702 设备接收:08 03 06 00 00 00 00 00 00 4B 25
13:11:40.717 设备发送:08 03 04 2B 00 01 F5 AB
13:11:45.735 设备接收:08 03 02 01 75 A4 32
13:11:45.765 设备发送:08 03 04 20 00 01 84 69
13:11:50.755 设备接收:08 03 02 00 1B 24 4E
13:11:50.769 设备发送:08 03 04 05 00 01 95 A2
13:11:55.771 设备接收:08 03 02 00 00 64 45
13:11:55.786 设备发送:09 03 04 84 00 04 04 58
13:12:00.808 设备接收:09 03 08 13 8B 17 D4 FF CD 17 D4 58 D7
13:12:00.828 设备发送:09 03 04 8D 00 05 15 9A
13:12:05.802 设备接收:09 03 0A 09 01 22 71 00 00 00 00 00 00 04 87
13:12:05.833 设备发送:09 03 04 98 00 05 04 5E
13:12:10.862 设备接收:09 03 0A 08 F5 22 90 00 00 00 00 00 00 92 88
13:12:10.878 设备发送:09 03 04 A3 00 05 75 93
13:12:15.864 设备接收:09 03 0A 09 09 22 84 00 00 00 00 00 00 C6 48
13:12:15.878 设备发送:09 03 06 84 00 04 05 E0
13:12:20.882 设备接收:09 03 08 00 00 54 D0 00 0E 61 DB 7B B9
13:12:20.897 设备发送:09 03 04 04 00 01 C5 B3
13:12:25.914 设备接收:09 03 02 00 02 D8 44
13:12:25.944 设备发送:09 03 05 84 00 0F 44 63
13:12:30.924 设备接收:09 03 1E 1D 78 02 51 01 BF 1D 8D 02 5E 01 CA 1D 8B 02 93 01 F2 1D 56 02 D6 02 21 1D 6A 02 70 01 D5 5B 33
13:12:30.955 设备发送:09 03 05 93 00 0F F4 67
13:12:35.957 设备接收:09 03 1E 1D E3 05 91 04 42 1D 62 02 BF 02 11 1D 7E 06 18 04 99 1D 3A 02 CF 02 1A 1D 74 02 CD 02 1D 4B 78
13:12:35.973 设备发送:09 03 05 A2 00 0F A5 A8
13:12:40.964 设备接收:09 03 1E 00 02 00 00 00 00 00 00 00 04 00 00 00 00 00 00 00 00 00 00 00 00 00 00 00 00 00 00 00 00 7C FE
13:12:40.979 设备发送:09 03 05 B1 00 03 54 68
13:12:46.016 设备接收:09 03 06 00 00 00 00 00 00 46 B5
13:12:46.031 设备发送:09 03 04 2B 00 01 F4 7A
13:12:51.037 设备接收:09 03 02 01 9A D8 7E
13:12:51.052 设备发送:09 03 04 20 00 01 85 B8
13:12:56.039 设备接收:09 03 02 00 2B 19 9A
13:12:56.055 设备发送:09 03 04 05 00 01 94 73
13:13:01.085 设备接收:09 03 02 00 00 59 85
13:13:01.100 设备发送:0A 03 04 84 00 04 04 6B
13:13:06.098 设备发送:0A 03 04 84 00 04 04 6B
13:13:11.125 设备发送:0A 03 04 84 00 04 04 6B
13:13:16.156 设备发送:0A 03 04 8D 00 05 15 A9
13:13:21.145 设备发送:0A 03 04 8D 00 05 15 A9
13:13:26.199 设备发送:0A 03 04 8D 00 05 15 A9
13:13:31.212 设备发送:0A 03 04 98 00 05 04 6D
13:13:36.235 设备发送:0A 03 04 98 00 05 04 6D
13:13:41.232 设备发送:0A 03 04 98 00 05 04 6D
13:13:46.268 设备发送:0A 03 04 A3 00 05 75 A0
13:13:51.269 设备发送:0A 03 04 A3 00 05 75 A0
13:13:56.286 设备发送:0A 03 04 A3 00 05 75 A0
13:14:01.335 设备发送:0A 03 06 84 00 04 05 D3
13:14:06.347 设备发送:0A 03 06 84 00 04 05 D3
13:14:11.373 设备发送:0A 03 06 84 00 04 05 D3
13:14:16.389 设备发送:0A 03 04 04 00 01 C5 80
13:14:21.422 设备发送:0A 03 04 04 00 01 C5 80
13:14:26.432 设备发送:0A 03 04 04 00 01 C5 80
13:14:31.445 设备发送:0A 03 05 84 00 0F 44 50
13:14:36.485 设备发送:0A 03 05 84 00 0F 44 50
13:14:41.484 设备发送:0A 03 05 84 00 0F 44 50
13:14:46.496 设备发送:0A 03 05 93 00 0F F4 54
13:14:51.516 设备发送:0A 03 05 93 00 0F F4 54
13:14:56.537 设备发送:0A 03 05 93 00 0F F4 54
13:15:01.582 设备发送:0A 03 05 A2 00 0F A5 9B
13:15:06.596 设备发送:0A 03 05 A2 00 0F A5 9B
13:15:11.605 设备发送:0A 03 05 A2 00 0F A5 9B
13:15:16.613 设备发送:0A 03 05 B1 00 03 54 5B
13:15:21.641 设备发送:0A 03 05 B1 00 03 54 5B
13:15:26.668 设备发送:0A 03 05 B1 00 03 54 5B
13:15:31.673 设备发送:0A 03 04 2B 00 01 F4 49
13:15:36.690 设备发送:0A 03 04 2B 00 01 F4 49
13:15:41.739 设备发送:0A 03 04 2B 00 01 F4 49
13:15:46.751 设备发送:0A 03 04 20 00 01 85 8B
13:15:51.761 设备发送:0A 03 04 20 00 01 85 8B
13:15:56.803 设备发送:0A 03 04 20 00 01 85 8B
13:16:01.811 设备发送:0A 03 04 05 00 01 94 40
13:16:06.810 设备发送:0A 03 04 05 00 01 94 40
13:16:11.861 设备发送:0A 03 04 05 00 01 94 40
13:16:16.851 设备发送:01 03 04 84 00 04 05 10
13:16:21.864 设备接收:01 03 08 13 89 1E 65 FF C0 1E 65 7A 13
13:16:21.885 设备发送:01 03 04 8D 00 05 14 D2
13:16:26.885 设备接收:01 03 0A 09 09 2B 5F 00 00 00 00 00 00 72 67
13:16:26.901 设备发送:01 03 04 98 00 05 05 16
13:16:31.913 设备接收:01 03 0A 09 2C 2B 2E 00 00 00 00 00 00 B5 F1
13:16:31.932 设备发送:01 03 04 A3 00 05 74 DB
13:16:36.935 设备接收:01 03 0A 09 17 2B 7F 00 00 00 00 00 00 D2 05
13:16:36.950 设备发送:01 03 06 84 00 04 04 A8
13:16:41.973 设备接收:01 03 08 00 00 74 13 00 13 57 14 D5 5A
13:16:41.985 设备发送:01 03 04 04 00 01 C4 FB
13:16:46.977 设备接收:01 03 02 00 02 39 85
13:16:46.992 设备发送:01 03 05 84 00 0F 45 2B
13:16:51.987 设备接收:01 03 1E 1E D8 06 A4 05 3F 21 0E 05 96 04 BA 21 12 05 89 04 AF 1E DC 06 B9 05 4F 16 AD 03 6C 01 FC 58 5F
13:16:52.017 设备发送:01 03 05 93 00 0F F5 2F
13:16:57.018 设备接收:01 03 1E 00 00 00 00 00 00 19 AF 07 01 04 9B 1B B3 03 70 02 70 1B D3 03 6C 02 70 00 00 00 03 00 00 31 77
13:16:57.034 设备发送:01 03 05 A2 00 0F A4 E0
13:17:02.052 设备接收:01 03 1E 00 00 00 00 00 00 00 00 00 00 00 00 00 00 00 00 00 00 00 00 00 00 00 00 00 00 00 00 00 00 D8 BA
13:17:02.068 设备发送:01 03 05 B1 00 03 55 20
13:17:07.071 设备接收:01 03 06 00 00 00 00 00 00 21 75
13:17:07.088 设备发送:01 03 04 2B 00 01 F5 32
13:17:12.092 设备接收:01 03 02 02 46 38 D6
13:17:12.107 设备发送:01 03 04 20 00 01 84 F0
13:17:17.097 设备接收:01 03 02 00 1F F9 8C
13:17:17.129 设备发送:01 03 04 05 00 01 95 3B
13:17:22.130 设备接收:01 03 02 00 00 B8 44
13:17:22.145 设备发送:02 03 04 84 00 04 05 23
13:17:27.136 设备接收:02 03 08 13 8B 1D B5 FF C4 1D B5 D7 DB
13:17:27.152 设备发送:02 03 04 8D 00 05 14 E1
13:17:32.146 设备接收:02 03 0A 09 08 2A 65 00 00 00 00 00 00 21 FB
13:17:32.162 设备发送:02 03 04 98 00 05 05 25
13:17:37.162 设备接收:02 03 0A 09 30 2A 7A 00 00 00 00 00 00 FC FB
13:17:37.177 设备发送:02 03 04 A3 00 05 74 E8
13:17:42.212 设备接收:02 03 0A 09 18 2A 6B 00 00 00 00 00 00 03 FB
13:17:42.227 设备发送:02 03 06 84 00 04 04 9B
13:17:47.210 设备接收:02 03 08 00 00 71 4A 00 13 9D F6 10 AF
13:17:47.226 设备发送:02 03 04 04 00 01 C4 C8
13:17:52.246 设备接收:02 03 02 00 02 7D 85
13:17:52.260 设备发送:02 03 05 84 00 0F 45 18
13:17:57.262 设备接收:02 03 1E 1E DA 03 3B 02 8D 1E AD 03 38 02 87 1E AE 03 40 02 8E 1F 26 06 5C 05 12 1E B1 03 31 02 82 B0 A4
13:17:57.296 设备发送:02 03 05 93 00 0F F5 1C
13:18:02.296 设备接收:02 03 1E 1E D4 03 26 02 7C 1E C8 03 3A 02 8B 1E DB 06 88 05 29 1E 88 03 49 02 91 1E AF 03 5E 02 A5 B0 BC
13:18:02.317 设备发送:02 03 05 A2 00 0F A4 D3
13:18:07.295 设备接收:02 03 1E 00 00 00 04 00 00 00 00 00 00 00 00 00 00 00 00 00 00 00 00 00 00 00 00 00 00 00 00 00 00 92 31
13:18:07.310 设备发送:02 03 05 B1 00 03 55 13
13:18:12.318 设备接收:02 03 06 00 00 00 00 00 00 35 85
13:18:12.334 设备发送:02 03 04 2B 00 01 F5 01
13:18:17.359 设备接收:02 03 02 02 33 BD 31
13:18:17.375 设备发送:02 03 04 20 00 01 84 C3
13:18:22.352 设备接收:02 03 02 00 47 BC 76
13:18:22.383 设备发送:02 03 04 05 00 01 95 08
13:18:27.390 设备接收:02 03 02 00 00 FC 44
13:18:27.404 设备发送:03 03 04 84 00 04 04 F2
13:18:32.391 设备接收:03 03 08 13 87 1D FF 00 33 1D FF 86 F8
13:18:32.422 设备发送:03 03 04 8D 00 05 15 30
13:18:37.401 设备接收:03 03 0A 09 00 2B 50 00 00 00 00 00 00 E0 75
13:18:37.433 设备发送:03 03 04 98 00 05 04 F4
13:18:42.447 设备接收:03 03 0A 09 2D 2A FC 00 00 00 00 00 00 8C E2
13:18:42.463 设备发送:03 03 04 A3 00 05 75 39
13:18:47.455 设备接收:03 03 0A 09 1A 2A CC 00 00 00 00 00 00 CE D0
13:18:47.471 设备发送:03 03 06 84 00 04 05 4A
13:18:52.479 设备接收:03 03 08 00 00 79 09 00 14 2B C0 17 63
13:18:52.495 设备发送:03 03 04 04 00 01 C5 19
13:18:57.488 设备接收:03 03 02 00 02 40 45
13:18:57.520 设备发送:03 03 05 84 00 0F 44 C9
13:19:02.506 设备接收:03 03 1E 1F 21 06 DD 05 78 1E E5 06 E9 05 77 20 D3 05 AA 04 C3 20 D4 05 C0 04 D5 16 B1 06 F3 04 09 4C A9
13:19:02.524 设备发送:03 03 05 93 00 0F F4 CD
13:19:07.534 设备接收:03 03 1E 05 3C 00 00 00 00 14 15 02 F3 01 84 1B 3D 03 7C 02 6E 1B 5C 03 76 02 6D 05 43 00 00 00 00 99 D0
13:19:07.550 设备发送:03 03 05 A2 00 0F A5 02
13:19:12.558 设备接收:03 03 1E 00 0E 00 00 00 00 00 00 00 00 00 00 00 00 00 00 00 00 00 00 00 00 00 00 00 00 00 00 00 00 81 70
13:19:12.574 设备发送:03 03 05 B1 00 03 54 C2
13:19:17.574 设备接收:03 03 06 00 00 00 00 00 00 38 15
13:19:17.590 设备发送:03 03 04 2B 00 01 F4 D0
13:19:22.585 设备接收:03 03 02 02 44 C0 D7
13:19:22.600 设备发送:03 03 04 20 00 01 85 12
13:19:27.624 设备接收:03 03 02 00 20 C0 5C
13:19:27.640 设备发送:03 03 04 05 00 01 94 D9
13:19:32.632 设备接收:03 03 02 00 00 C1 84
13:19:32.648 设备发送:04 03 04 84 00 04 05 45
13:19:37.666 设备发送:04 03 04 84 00 04 05 45
13:19:42.687 设备发送:04 03 04 84 00 04 05 45
13:19:47.716 设备发送:04 03 04 8D 00 05 14 87
13:19:52.726 设备发送:04 03 04 8D 00 05 14 87
13:19:57.745 设备发送:04 03 04 8D 00 05 14 87
13:20:02.761 设备发送:04 03 04 98 00 05 05 43
13:20:07.810 设备发送:04 03 04 98 00 05 05 43
13:20:12.820 设备发送:04 03 04 98 00 05 05 43
13:20:17.831 设备发送:04 03 04 A3 00 05 74 8E
13:20:22.849 设备发送:04 03 04 A3 00 05 74 8E
13:20:27.853 设备发送:04 03 04 A3 00 05 74 8E
13:20:32.910 设备发送:04 03 06 84 00 04 04 FD
13:20:37.913 设备发送:04 03 06 84 00 04 04 FD
13:20:42.933 设备发送:04 03 06 84 00 04 04 FD
13:20:47.950 设备发送:04 03 04 04 00 01 C4 AE
13:20:52.969 设备发送:04 03 04 04 00 01 C4 AE
13:20:57.988 设备发送:04 03 04 04 00 01 C4 AE
13:21:03.022 设备发送:04 03 05 84 00 0F 45 7E
13:21:08.044 设备发送:04 03 05 84 00 0F 45 7E
13:21:13.062 设备发送:04 03 05 84 00 0F 45 7E
13:21:18.057 设备发送:04 03 05 93 00 0F F5 7A
13:21:23.094 设备发送:04 03 05 93 00 0F F5 7A
13:21:28.111 设备发送:04 03 05 93 00 0F F5 7A
13:21:33.154 设备发送:04 03 05 A2 00 0F A4 B5
13:21:38.167 设备发送:04 03 05 A2 00 0F A4 B5
13:21:43.151 设备发送:04 03 05 A2 00 0F A4 B5
13:21:48.182 设备发送:04 03 05 B1 00 03 55 75
13:21:53.226 设备发送:04 03 05 B1 00 03 55 75
13:21:58.225 设备发送:04 03 05 B1 00 03 55 75
13:22:03.227 设备发送:04 03 04 2B 00 01 F5 67
13:22:08.253 设备发送:04 03 04 2B 00 01 F5 67
13:22:13.262 设备发送:04 03 04 2B 00 01 F5 67
13:22:18.329 设备发送:04 03 04 20 00 01 84 A5
13:22:23.330 设备发送:04 03 04 20 00 01 84 A5
13:22:28.338 设备发送:04 03 04 20 00 01 84 A5
13:22:33.365 设备发送:04 03 04 05 00 01 95 6E
13:22:38.389 设备发送:04 03 04 05 00 01 95 6E
13:22:43.401 设备发送:04 03 04 05 00 01 95 6E
13:22:48.433 设备发送:05 03 04 84 00 04 04 94
13:22:53.428 设备接收:05 03 08 13 89 16 C8 FF CD 16 C8 94 0D
13:22:53.444 设备发送:05 03 04 8D 00 05 15 56
13:22:58.441 设备接收:05 03 0A 09 08 20 B4 00 00 00 00 00 00 6B CE
13:22:58.480 设备发送:05 03 04 98 00 05 04 92
13:23:03.473 设备接收:05 03 0A 09 1E 20 9A 00 00 00 00 00 00 43 AC
13:23:03.489 设备发送:05 03 04 A3 00 05 75 5F
13:23:08.490 设备接收:05 03 0A 09 18 20 A3 00 00 00 00 00 00 C1 0F
13:23:08.505 设备发送:05 03 06 84 00 04 05 2C
13:23:13.514 设备接收:05 03 08 00 00 5A 4E 00 0E AE 19 38 7A
13:23:13.529 设备发送:05 03 04 04 00 01 C5 7F
13:23:18.511 设备接收:05 03 02 00 02 C8 45
13:23:18.541 设备发送:05 03 05 84 00 0F 44 AF
13:23:23.536 设备接收:05 03 1E 04 82 00 00 00 00 16 67 06 C6 03 E2 16 B9 06 84 03 CA 16 F0 06 63 03 C0 1D 10 03 23 02 55 45 3C
13:23:23.550 设备发送:05 03 05 93 00 0F F4 AB
13:23:28.566 设备接收:05 03 1E 1D 37 03 32 02 64 04 6D 00 00 00 00 18 5E 06 8F 04 17 04 7B 00 00 00 00 15 01 06 5F 03 6D C8 84
13:23:28.581 设备发送:05 03 05 A2 00 0F A5 64
13:23:33.596 设备接收:05 03 1E 00 06 00 00 00 00 00 00 00 03 00 00 00 00 00 00 00 00 00 00 00 00 00 00 00 00 00 00 00 00 DA 4C
13:23:33.615 设备发送:05 03 05 B1 00 03 54 A4
13:23:38.596 设备接收:05 03 06 00 00 00 00 00 00 13 B5
13:23:38.644 设备发送:05 03 04 2B 00 01 F4 B6
13:23:43.629 设备接收:05 03 02 02 5A C8 DF
13:23:43.644 设备发送:05 03 04 20 00 01 85 74
13:23:48.655 设备接收:05 03 02 00 24 49 9F
13:23:48.671 设备发送:05 03 04 05 00 01 94 BF
13:23:53.684 设备接收:05 03 02 00 00 49 84
13:23:53.700 设备发送:06 03 04 84 00 04 04 A7
13:23:58.684 设备接收:06 03 08 13 87 16 79 FF D0 16 7A 18 E0
13:23:58.703 设备发送:06 03 04 8D 00 05 15 65
13:24:03.722 设备接收:06 03 0A 09 07 20 4E 00 00 00 00 00 00 75 F2
13:24:03.737 设备发送:06 03 04 98 00 05 04 A1
13:24:08.733 设备接收:06 03 0A 09 1C 20 44 00 00 00 00 00 00 61 02
13:24:08.751 设备发送:06 03 04 A3 00 05 75 6C
13:24:13.765 设备接收:06 03 0A 09 18 20 53 00 00 00 00 00 00 34 C3
13:24:13.781 设备发送:06 03 06 84 00 04 05 1F
13:24:18.782 设备接收:06 03 08 00 00 58 35 00 0E 9B E0 05 C4
13:24:18.801 设备发送:06 03 04 04 00 01 C5 4C
13:24:23.810 设备发送:06 03 04 04 00 01 C5 4C
13:24:28.821 设备接收:06 03 02 00 02 8C 45
13:24:28.836 设备发送:06 03 05 84 00 0F 44 9C
13:24:33.836 设备接收:06 03 1E 04 72 00 03 00 00 1B A6 06 4C 04 75 1B C8 06 56 04 82 1A 65 03 33 02 29 1D 3C 06 8F 04 E9 D8 93
13:24:33.852 设备发送:06 03 05 93 00 0F F4 98
13:24:38.854 设备接收:06 03 1E 04 6F 00 00 00 00 04 5E 00 00 00 00 16 A9 06 9B 03 D5 04 60 00 03 00 00 14 CE 06 91 03 7F 9E 13
13:24:38.869 设备发送:06 03 05 A2 00 0F A5 57
13:24:43.876 设备接收:06 03 1E 00 08 00 00 00 00 00 00 00 00 00 00 00 00 00 00 00 00 00 00 00 00 00 00 00 00 00 00 00 00 DD 75
13:24:43.905 设备发送:06 03 05 B1 00 03 54 97
13:24:48.890 设备接收:06 03 06 00 00 00 00 00 00 07 45
13:24:48.906 设备发送:06 03 04 2B 00 01 F4 85
13:24:53.910 设备接收:06 03 02 02 42 8C D5
13:24:53.924 设备发送:06 03 04 20 00 01 85 47
13:24:58.950 设备接收:06 03 02 00 27 4D 9E
13:24:58.962 设备发送:06 03 04 05 00 01 94 8C
13:25:03.980 设备接收:06 03 02 00 00 0D 84
13:25:03.995 设备发送:07 03 04 84 00 04 05 76
13:25:08.980 设备接收:07 03 08 13 8B 0B EE FF F0 0B F4 2E B2
13:25:09.002 设备发送:07 03 04 8D 00 05 14 B4
13:25:13.994 设备接收:07 03 0A 09 03 11 3D 00 00 00 00 00 00 C5 AC
13:25:14.009 设备发送:07 03 04 98 00 05 05 70
13:25:19.013 设备接收:07 03 0A 09 01 11 45 00 00 00 00 00 00 24 CB
13:25:19.027 设备发送:07 03 04 A3 00 05 74 BD
13:25:24.020 设备接收:07 03 0A 09 01 11 43 00 00 00 00 00 00 42 CB
13:25:24.077 设备发送:07 03 06 84 00 04 04 CE
13:25:29.059 设备接收:07 03 08 00 00 2F 99 00 07 43 D6 91 B3
13:25:29.073 设备发送:07 03 04 04 00 01 C4 9D
13:25:34.063 设备接收:07 03 02 00 02 B1 85
13:25:34.078 设备发送:07 03 05 84 00 0F 45 4D
13:25:39.119 设备接收:07 03 1E 18 7E 06 64 04 02 19 DB 03 3E 02 25 19 C8 03 2D 02 18 18 7B 06 5A 03 FB 00 00 00 00 00 00 96 22
13:25:39.135 设备发送:07 03 05 93 00 0F F5 49
13:25:44.120 设备接收:07 03 1E 00 00 00 00 00 00 00 00 00 00 00 00 00 00 00 00 00 00 00 00 00 00 00 00 00 00 00 00 00 00 B0 BB
13:25:44.135 设备发送:07 03 05 A2 00 0F A4 86
13:25:49.145 设备接收:07 03 1E 00 00 00 00 00 00 00 00 00 00 00 00 00 00 00 00 00 00 00 00 00 00 00 00 00 00 00 00 00 00 B0 BB
13:25:49.178 设备发送:07 03 05 B1 00 03 55 46
13:25:54.145 设备接收:07 03 06 00 00 00 00 00 00 0A D5
13:25:54.223 设备发送:07 03 04 2B 00 01 F5 54
13:25:59.171 设备接收:07 03 02 01 81 F1 B4
13:25:59.202 设备发送:07 03 04 20 00 01 84 96
13:26:04.208 设备接收:07 03 02 00 28 30 5A
13:26:04.239 设备发送:07 03 04 05 00 01 95 5D
13:26:09.252 设备接收:07 03 02 00 00 30 44
13:26:09.268 设备发送:08 03 04 84 00 04 05 89
13:26:14.248 设备接收:08 03 08 13 88 19 7B 00 2A 19 7C 3F E0
13:26:14.263 设备发送:08 03 04 8D 00 05 14 4B
13:26:19.292 设备接收:08 03 0A 08 F2 25 08 00 00 00 00 00 00 EE 16
13:26:19.306 设备发送:08 03 04 98 00 05 05 8F
13:26:24.321 设备接收:08 03 0A 08 E3 25 35 00 00 00 00 00 00 C2 85
13:26:24.337 设备发送:08 03 04 A3 00 05 74 42
13:26:29.300 设备接收:08 03 0A 08 FA 25 6B 00 00 00 00 00 00 DA D0
13:26:29.316 设备发送:08 03 06 84 00 04 04 31
13:26:34.326 设备接收:08 03 08 00 00 65 95 00 0F D0 61 12 88
13:26:34.341 设备发送:08 03 04 04 00 01 C4 62
13:26:39.324 设备接收:08 03 02 00 02 E5 84
13:26:39.355 设备发送:08 03 05 84 00 0F 45 B2
13:26:44.375 设备接收:08 03 1E 13 64 03 1E 01 8C 1A 61 02 58 01 95 1A 89 02 6F 01 A7 19 ED 05 C2 03 D2 19 50 05 F1 03 D9 42 93
13:26:44.391 设备发送:08 03 05 93 00 0F F5 B6
13:26:49.372 设备接收:08 03 1E 1C 48 05 F6 04 51 1D B0 03 04 02 4B 1A 1B 02 D3 01 E3 18 F2 02 F0 01 E0 19 C8 05 E3 03 E2 B4 10
13:26:49.389 设备发送:08 03 05 A2 00 0F A4 79
13:26:54.399 设备接收:08 03 1E 00 00 00 08 00 00 00 00 00 04 00 00 00 00 00 00 00 00 00 00 00 00 00 00 00 00 00 00 00 00 6E 6A
13:26:54.413 设备发送:08 03 05 B1 00 03 55 B9
13:26:59.423 设备接收:08 03 06 00 00 00 00 00 00 4B 25
13:26:59.438 设备发送:08 03 04 2B 00 01 F5 AB
13:27:04.457 设备接收:08 03 02 01 75 A4 32
13:27:04.473 设备发送:08 03 04 20 00 01 84 69
13:27:09.467 设备接收:08 03 02 00 29 A5 9B
13:27:09.482 设备发送:08 03 04 05 00 01 95 A2
13:27:14.495 设备接收:08 03 02 00 00 64 45
13:27:14.510 设备发送:09 03 04 84 00 04 04 58
13:27:19.529 设备接收:09 03 08 13 8A 16 E3 FF D0 16 E3 6C 42
13:27:19.561 设备发送:09 03 04 8D 00 05 15 9A
13:27:24.558 设备接收:09 03 0A 08 FE 21 2C 00 00 00 00 00 00 DC 66
13:27:24.573 设备发送:09 03 04 98 00 05 04 5E
13:27:29.575 设备接收:09 03 0A 08 ED 21 26 00 00 00 00 00 00 AF 56
13:27:29.590 设备发送:09 03 04 A3 00 05 75 93
13:27:34.623 设备接收:09 03 0A 08 FE 21 30 00 00 00 00 00 00 01 A7
13:27:34.639 设备发送:09 03 06 84 00 04 05 E0
13:27:39.628 设备接收:09 03 08 00 00 5A BA 00 0E 62 72 A2 10
13:27:39.643 设备发送:09 03 04 04 00 01 C5 B3
13:27:44.623 设备接收:09 03 02 00 02 D8 44
13:27:44.638 设备发送:09 03 05 84 00 0F 44 63
13:27:49.632 设备接收:09 03 1E 1D 77 02 37 01 AB 1D 8D 02 45 01 B8 1D 8B 02 77 01 DD 1D A6 02 B2 02 0C 1D 69 02 55 01 C1 2F DC
13:27:49.664 设备发送:09 03 05 93 00 0F F4 67
13:27:54.692 设备接收:09 03 1E 1D BE 05 65 04 1B 1D 3D 02 A6 01 FB 1D 3A 05 EC 04 6E 1D 8D 02 AA 02 04 1D 2D 02 B6 02 07 D5 00
13:27:54.708 设备发送:09 03 05 A2 00 0F A5 A8
13:27:59.725 设备接收:09 03 1E 00 03 00 00 00 00 00 01 00 03 00 00 00 00 00 00 00 00 00 00 00 00 00 00 00 00 00 00 00 00 07 D4
13:27:59.742 设备发送:09 03 05 B1 00 03 54 68
13:28:04.740 设备接收:09 03 06 00 00 00 00 00 00 46 B5
13:28:04.755 设备发送:09 03 04 2B 00 01 F4 7A
13:28:09.735 设备接收:09 03 02 01 9A D8 7E
13:28:09.766 设备发送:09 03 04 20 00 01 85 B8
13:28:14.761 设备接收:09 03 02 00 2E D9 99
13:28:14.776 设备发送:09 03 04 05 00 01 94 73
13:28:19.795 设备接收:09 03 02 00 00 59 85
13:28:19.826 设备发送:0A 03 04 84 00 04 04 6B
13:28:24.820 设备发送:0A 03 04 84 00 04 04 6B
13:28:29.853 设备发送:0A 03 04 84 00 04 04 6B
13:28:34.912 设备发送:0A 03 04 8D 00 05 15 A9
13:28:39.891 设备发送:0A 03 04 8D 00 05 15 A9
13:28:44.899 设备发送:0A 03 04 8D 00 05 15 A9
13:28:49.938 设备发送:0A 03 04 98 00 05 04 6D
13:28:54.946 设备发送:0A 03 04 98 00 05 04 6D
13:28:59.961 设备发送:0A 03 04 98 00 05 04 6D
13:29:04.967 设备发送:0A 03 04 A3 00 05 75 A0
13:29:10.016 设备发送:0A 03 04 A3 00 05 75 A0
13:29:15.029 设备发送:0A 03 04 A3 00 05 75 A0
13:29:20.057 设备发送:0A 03 06 84 00 04 05 D3
13:29:25.077 设备发送:0A 03 06 84 00 04 05 D3
13:29:30.086 设备发送:0A 03 06 84 00 04 05 D3
13:29:35.127 设备发送:0A 03 04 04 00 01 C5 80
13:29:40.123 设备发送:0A 03 04 04 00 01 C5 80
13:29:45.164 设备发送:0A 03 04 04 00 01 C5 80
13:29:50.158 设备发送:0A 03 05 84 00 0F 44 50
13:29:55.190 设备发送:0A 03 05 84 00 0F 44 50
13:30:00.193 设备发送:0A 03 05 84 00 0F 44 50
13:30:05.220 设备发送:0A 03 05 93 00 0F F4 54
13:30:10.248 设备发送:0A 03 05 93 00 0F F4 54
13:30:15.273 设备发送:0A 03 05 93 00 0F F4 54
13:30:20.281 设备发送:0A 03 05 A2 00 0F A5 9B
13:30:25.331 设备发送:0A 03 05 A2 00 0F A5 9B
13:30:30.335 设备发送:0A 03 05 A2 00 0F A5 9B
13:30:35.341 设备发送:0A 03 05 B1 00 03 54 5B
13:30:40.377 设备发送:0A 03 05 B1 00 03 54 5B
13:30:45.403 设备发送:0A 03 05 B1 00 03 54 5B
13:30:50.408 设备发送:0A 03 04 2B 00 01 F4 49
13:30:55.441 设备发送:0A 03 04 2B 00 01 F4 49
13:31:00.437 设备发送:0A 03 04 2B 00 01 F4 49
13:31:05.462 设备发送:0A 03 04 20 00 01 85 8B
13:31:10.485 设备发送:0A 03 04 20 00 01 85 8B
13:31:15.516 设备发送:0A 03 04 20 00 01 85 8B
13:31:20.530 设备发送:0A 03 04 05 00 01 94 40
13:31:25.535 设备发送:0A 03 04 05 00 01 94 40
13:31:30.567 设备发送:0A 03 04 05 00 01 94 40
13:31:35.584 设备发送:01 03 04 84 00 04 05 10
13:31:40.610 设备接收:01 03 08 13 86 1D A9 FF 50 1D AB 14 79
13:31:40.625 设备发送:01 03 04 8D 00 05 14 D2
13:31:45.606 设备接收:01 03 0A 09 06 2A 73 00 00 00 00 00 00 1F 99
13:31:45.679 设备发送:01 03 04 98 00 05 05 16
13:31:50.612 设备接收:01 03 0A 09 26 2A 6C 00 00 00 00 00 00 68 99
13:31:50.628 设备发送:01 03 04 A3 00 05 74 DB
13:31:55.646 设备接收:01 03 0A 09 19 2A 22 00 00 00 00 00 00 D3 6C
13:31:55.661 设备发送:01 03 06 84 00 04 04 A8
13:32:00.692 设备接收:01 03 08 00 00 7B B7 00 13 57 D8 A4 29
13:32:00.707 设备发送:01 03 04 04 00 01 C4 FB
13:32:05.686 设备接收:01 03 02 00 02 39 85
13:32:05.717 设备发送:01 03 05 84 00 0F 45 2B
13:32:10.707 设备接收:01 03 1E 1E FE 06 80 05 28 21 31 05 59 04 8B 21 36 05 41 04 78 1F 01 06 8D 05 33 16 D4 03 56 01 F3 C2 40
13:32:10.725 设备发送:01 03 05 93 00 0F F5 2F
13:32:15.715 设备接收:01 03 1E 00 00 00 00 00 00 19 FB 06 D4 04 8B 1B 63 03 6C 02 66 1B AB 03 68 02 6A 00 00 00 03 00 00 07 7A
13:32:15.745 设备发送:01 03 05 A2 00 0F A4 E0
13:32:20.739 设备接收:01 03 1E 00 00 00 00 00 00 00 00 00 00 00 00 00 00 00 00 00 00 00 00 00 00 00 00 00 00 00 00 00 00 D8 BA
13:32:20.754 设备发送:01 03 05 B1 00 03 55 20
13:32:25.764 设备接收:01 03 06 00 00 00 00 00 00 21 75
13:32:25.795 设备发送:01 03 04 2B 00 01 F5 32
13:32:30.796 设备接收:01 03 02 02 46 38 D6
13:32:30.811 设备发送:01 03 04 20 00 01 84 F0
13:32:35.793 设备接收:01 03 02 00 1E 38 4C
13:32:35.809 设备发送:01 03 04 05 00 01 95 3B
13:32:40.861 设备接收:01 03 02 00 00 B8 44
13:32:40.882 设备发送:02 03 04 84 00 04 05 23
13:32:45.851 设备接收:02 03 08 13 86 1D 66 FF C2 1D 66 2F 55
13:32:45.883 设备发送:02 03 04 8D 00 05 14 E1
13:32:50.877 设备接收:02 03 0A 09 05 29 EE 00 00 00 00 00 00 02 76
13:32:50.903 设备发送:02 03 04 98 00 05 05 25
13:32:55.901 设备接收:02 03 0A 09 2F 2A 31 00 00 00 00 00 00 8B CF
13:32:55.915 设备发送:02 03 04 A3 00 05 74 E8
13:33:00.948 设备接收:02 03 0A 09 17 2A 24 00 00 00 00 00 00 FC CF
13:33:00.968 设备发送:02 03 06 84 00 04 04 9B
13:33:05.942 设备接收:02 03 08 00 00 78 D9 00 13 9E B7 54 EB
13:33:05.958 设备发送:02 03 04 04 00 01 C4 C8
13:33:10.954 设备接收:02 03 02 00 02 7D 85
13:33:10.969 设备发送:02 03 05 84 00 0F 45 18
13:33:15.986 设备接收:02 03 1E 1F 29 03 2B 02 87 1E D7 03 2E 02 82 1E D4 03 36 02 89 1E FE 06 5C 05 0B 1E B0 03 2A 02 7D 2F E9
13:33:16.000 设备发送:02 03 05 93 00 0F F5 1C
13:33:20.991 设备接收:02 03 1E 1E D5 03 21 02 79 1E C9 03 34 02 86 1E B4 06 89 05 23 1E D7 03 3D 02 8E 1E 87 03 5F 02 A2 BE 07
13:33:21.005 设备发送:02 03 05 A2 00 0F A4 D3
13:33:25.996 设备接收:02 03 1E 00 00 00 04 00 00 00 00 00 00 00 00 00 00 00 00 00 00 00 00 00 00 00 00 00 00 00 00 00 00 92 31
13:33:26.032 设备发送:02 03 05 B1 00 03 55 13
13:33:31.036 设备接收:02 03 06 00 00 00 00 00 00 35 85
13:33:31.052 设备发送:02 03 04 2B 00 01 F5 01
13:33:36.045 设备接收:02 03 02 02 33 BD 31
13:33:36.077 设备发送:02 03 04 20 00 01 84 C3
13:33:41.087 设备接收:02 03 02 00 46 7D B6
13:33:41.109 设备发送:02 03 04 05 00 01 95 08
13:33:46.085 设备接收:02 03 02 00 00 FC 44
13:33:46.117 设备发送:03 03 04 84 00 04 04 F2
13:33:51.099 设备接收:03 03 08 13 86 1E 0C FF BF 1E 0C 23 54
13:33:51.115 设备发送:03 03 04 8D 00 05 15 30
13:33:56.120 设备接收:03 03 0A 09 00 2B 63 00 00 00 00 00 00 E3 76
13:33:56.136 设备发送:03 03 04 98 00 05 04 F4
13:34:01.151 设备接收:03 03 0A 09 2B 2B 40 00 00 00 00 00 00 1B 45
13:34:01.166 设备发送:03 03 04 A3 00 05 75 39
13:34:06.161 设备接收:03 03 0A 09 1A 2B 2D 00 00 00 00 00 00 FE 12
13:34:06.178 设备发送:03 03 06 84 00 04 05 4A
13:34:11.194 设备接收:03 03 08 00 00 80 B7 00 14 2C 85 E8 D2
13:34:11.210 设备发送:03 03 04 04 00 01 C5 19
13:34:16.194 设备接收:03 03 02 00 02 40 45
13:34:16.240 设备发送:03 03 05 84 00 0F 44 C9
13:34:21.246 设备接收:03 03 1E 1E 82 06 F4 05 6E 1E E2 06 E2 05 71 20 D0 05 B2 04 C9 20 D0 05 C8 04 DB 16 B3 06 EC 04 06 68 CC
13:34:21.261 设备发送:03 03 05 93 00 0F F4 CD
13:34:26.258 设备接收:03 03 1E 05 3D 00 00 00 00 13 D4 03 B6 01 E2 1B DD 03 66 02 6D 1B 5C 03 7B 02 70 05 40 00 00 00 00 84 40
13:34:26.289 设备发送:03 03 05 A2 00 0F A5 02
13:34:31.254 设备接收:03 03 1E 00 0E 00 00 00 00 00 00 00 00 00 00 00 00 00 00 00 00 00 00 00 00 00 00 00 00 00 00 00 00 81 70
13:34:31.284 设备发送:03 03 05 B1 00 03 54 C2
13:34:36.274 设备接收:03 03 06 00 00 00 00 00 00 38 15
13:34:36.290 设备发送:03 03 04 2B 00 01 F4 D0
13:34:41.321 设备接收:03 03 02 02 44 C0 D7
13:34:41.343 设备发送:03 03 04 20 00 01 85 12
13:34:46.334 设备接收:03 03 02 00 1F 80 4C
13:34:46.350 设备发送:03 03 04 05 00 01 94 D9
13:34:51.362 设备接收:03 03 02 00 00 C1 84
13:34:51.393 设备发送:04 03 04 84 00 04 05 45
13:34:56.409 设备发送:04 03 04 84 00 04 05 45
13:35:01.397 设备发送:04 03 04 84 00 04 05 45
13:35:06.420 设备发送:04 03 04 8D 00 05 14 87
13:35:11.433 设备发送:04 03 04 8D 00 05 14 87
13:35:16.461 设备发送:04 03 04 8D 00 05 14 87
13:35:21.464 设备发送:04 03 04 98 00 05 05 43
13:35:26.499 设备发送:04 03 04 98 00 05 05 43
13:35:31.521 设备发送:04 03 04 98 00 05 05 43
13:35:36.560 设备发送:04 03 04 A3 00 05 74 8E
13:35:41.569 设备发送:04 03 04 A3 00 05 74 8E
13:35:46.576 设备发送:04 03 04 A3 00 05 74 8E
13:35:51.600 设备发送:04 03 06 84 00 04 04 FD
13:35:56.625 设备发送:04 03 06 84 00 04 04 FD
13:36:01.638 设备发送:04 03 06 84 00 04 04 FD
13:36:06.678 设备发送:04 03 04 04 00 01 C4 AE
13:36:11.681 设备发送:04 03 04 04 00 01 C4 AE
13:36:16.690 设备发送:04 03 04 04 00 01 C4 AE
13:36:21.710 设备发送:04 03 05 84 00 0F 45 7E
13:36:26.728 设备发送:04 03 05 84 00 0F 45 7E
13:36:31.782 设备发送:04 03 05 84 00 0F 45 7E
13:36:36.799 设备发送:04 03 05 93 00 0F F5 7A
13:36:41.786 设备发送:04 03 05 93 00 0F F5 7A
13:36:46.799 设备发送:04 03 05 93 00 0F F5 7A
13:36:51.844 设备发送:04 03 05 A2 00 0F A4 B5
13:36:56.874 设备发送:04 03 05 A2 00 0F A4 B5
13:37:01.873 设备发送:04 03 05 A2 00 0F A4 B5
13:37:06.901 设备发送:04 03 05 B1 00 03 55 75
13:37:11.926 设备发送:04 03 05 B1 00 03 55 75
13:37:16.955 设备发送:04 03 05 B1 00 03 55 75
13:37:21.969 设备发送:04 03 04 2B 00 01 F5 67
13:37:26.997 设备发送:04 03 04 2B 00 01 F5 67
13:37:32.017 设备发送:04 03 04 2B 00 01 F5 67
13:37:37.014 设备发送:04 03 04 20 00 01 84 A5
13:37:42.052 设备发送:04 03 04 20 00 01 84 A5
13:37:47.067 设备发送:04 03 04 20 00 01 84 A5
13:37:52.092 设备发送:04 03 04 05 00 01 95 6E
13:37:57.121 设备发送:04 03 04 05 00 01 95 6E
13:38:02.141 设备发送:04 03 04 05 00 01 95 6E
13:38:07.148 设备发送:05 03 04 84 00 04 04 94
13:38:12.156 设备接收:05 03 08 13 89 15 DF FF D0 15 DF 30 C5
13:38:12.186 设备发送:05 03 04 8D 00 05 15 56
13:38:17.184 设备接收:05 03 0A 09 05 1F 6C 00 00 00 00 00 00 28 07
13:38:17.200 设备发送:05 03 04 98 00 05 04 92
13:38:22.181 设备接收:05 03 0A 09 18 1F 5A 00 00 00 00 00 00 EB 54
13:38:22.197 设备发送:05 03 04 A3 00 05 75 5F
13:38:27.202 设备接收:05 03 0A 09 14 1F 55 00 00 00 00 00 00 41 54
13:38:27.218 设备发送:05 03 06 84 00 04 05 2C
13:38:32.239 设备接收:05 03 08 00 00 60 0D 00 0E AE AC B9 58
13:38:32.269 设备发送:05 03 04 04 00 01 C5 7F
13:38:37.254 设备接收:05 03 02 00 02 C8 45
13:38:37.269 设备发送:05 03 05 84 00 0F 44 AF
13:38:42.266 设备接收:05 03 1E 04 8C 00 00 00 00 16 B1 06 73 03 BF 16 DB 06 38 03 A3 16 EF 06 20 03 99 1D 59 03 00 02 41 F2 A5
13:38:42.282 设备发送:05 03 05 93 00 0F F4 AB
13:38:47.294 设备接收:05 03 1E 1D 64 03 11 02 4E 04 77 00 04 00 00 18 8A 06 3B 03 EA 04 85 00 00 00 00 15 04 06 20 03 4B 1F 2A
13:38:47.310 设备发送:05 03 05 A2 00 0F A5 64
13:38:52.299 设备接收:05 03 1E 00 05 00 00 00 00 00 00 00 04 00 00 00 00 00 00 00 00 00 00 00 00 00 00 00 00 00 00 00 00 EC F9
13:38:52.329 设备发送:05 03 05 B1 00 03 54 A4
13:38:57.318 设备接收:05 03 06 00 00 00 00 00 00 13 B5
13:38:57.334 设备发送:05 03 04 2B 00 01 F4 B6
13:39:02.340 设备接收:05 03 02 02 5A C8 DF
13:39:02.355 设备发送:05 03 04 20 00 01 85 74
13:39:07.355 设备接收:05 03 02 00 24 49 9F
13:39:07.370 设备发送:05 03 04 05 00 01 94 BF
13:39:12.401 设备接收:05 03 02 00 00 49 84
13:39:12.417 设备发送:06 03 04 84 00 04 04 A7
13:39:17.408 设备接收:06 03 08 13 87 15 86 FF D2 15 86 AD B6
13:39:17.424 设备发送:06 03 04 8D 00 05 15 65
13:39:22.446 设备接收:06 03 0A 09 05 1E F2 00 00 00 00 00 00 93 C1
13:39:22.461 设备发送:06 03 04 98 00 05 04 A1
13:39:27.456 设备发送:06 03 04 98 00 05 04 A1
13:39:32.451 设备接收:06 03 0A 09 14 1E E2 00 00 00 00 00 00 42 50
13:39:32.466 设备发送:06 03 04 A3 00 05 75 6C
13:39:37.473 设备接收:06 03 0A 09 15 1E E9 00 00 00 00 00 00 F5 00
13:39:37.503 设备发送:06 03 06 84 00 04 05 1F
13:39:42.508 设备接收:06 03 08 00 00 5D E7 00 0E 9C 71 7E 1F
13:39:42.524 设备发送:06 03 04 04 00 01 C5 4C
13:39:47.529 设备接收:06 03 02 00 02 8C 45
13:39:47.545 设备发送:06 03 05 84 00 0F 44 9C
13:39:52.525 设备接收:06 03 1E 04 75 00 07 00 00 1B F5 05 F1 04 40 1C 17 05 FA 04 4C 1A 64 03 0A 02 0E 1D 3B 06 47 04 B2 77 2A
13:39:52.586 设备发送:06 03 05 93 00 0F F4 98
13:39:57.575 设备接收:06 03 1E 04 72 00 00 00 00 04 62 00 00 00 00 16 D0 06 41 03 A7 04 65 00 04 00 00 15 1A 06 31 03 58 0B E0
13:39:57.606 设备发送:06 03 05 A2 00 0F A5 57
13:40:02.614 设备接收:06 03 1E 00 09 00 00 00 00 00 00 00 00 00 00 00 00 00 00 00 00 00 00 00 00 00 00 00 00 00 00 00 00 1D 74
13:40:02.646 设备发送:06 03 05 B1 00 03 54 97
13:40:07.614 设备接收:06 03 06 00 00 00 00 00 00 07 45
13:40:07.630 设备发送:06 03 04 2B 00 01 F4 85
13:40:12.635 设备接收:06 03 02 02 42 8C D5
13:40:12.666 设备发送:06 03 04 20 00 01 85 47
13:40:17.641 设备接收:06 03 02 00 28 0D 9A
13:40:17.690 设备发送:06 03 04 05 00 01 94 8C
13:40:22.659 设备接收:06 03 02 00 00 0D 84
13:40:22.722 设备发送:07 03 04 84 00 04 05 76
13:40:27.704 设备接收:07 03 08 13 84 0B 5F FF EF 0B 65 5D C2
13:40:27.720 设备发送:07 03 04 8D 00 05 14 B4
13:40:32.731 设备接收:07 03 0A 09 03 10 79 00 00 00 00 00 00 00 64
13:40:32.747 设备发送:07 03 04 98 00 05 05 70
13:40:37.768 设备接收:07 03 0A 09 00 10 7C 00 00 00 00 00 00 41 94
13:40:37.784 设备发送:07 03 04 A3 00 05 74 BD
13:40:42.763 设备接收:07 03 0A 08 FF 10 77 00 00 00 00 00 00 EF 65
13:40:42.780 设备发送:07 03 06 84 00 04 04 CE
13:40:47.794 设备接收:07 03 08 00 00 32 93 00 07 44 22 09 88
13:40:47.813 设备发送:07 03 04 04 00 01 C4 9D
13:40:52.813 设备接收:07 03 02 00 02 B1 85
13:40:52.829 设备发送:07 03 05 84 00 0F 45 4D
13:40:57.824 设备发送:07 03 05 93 00 0F F5 49
13:40:57.856 设备接收:07 03 1E 18 5A 06 21 03 D2 19 B4 03 1C 02 0B 19 F1 03 03 02 00 18 51 06 1B 03 CD 00 00 00 00 00 00 CC 1B
13:41:02.839 设备接收:07 03 1E 00 00 00 00 00 00 00 00 00 00 00 00 00 00 00 00 00 00 00 00 00 00 00 00 00 00 00 00 00 00 B0 BB
13:41:02.854 设备发送:07 03 05 A2 00 0F A4 86
13:41:07.871 设备发送:07 03 05 B1 00 03 55 46
13:41:07.903 设备接收:07 03 1E 00 00 00 00 00 00 00 00 00 00 00 00 00 00 00 00 00 00 00 00 00 00 00 00 00 00 00 00 00 00 B0 BB
13:41:12.903 设备接收:07 03 06 00 00 00 00 00 00 0A D5
13:41:12.934 设备发送:07 03 04 2B 00 01 F5 54
13:41:17.913 设备接收:07 03 02 01 81 F1 B4
13:41:17.928 设备发送:07 03 04 20 00 01 84 96
13:41:22.917 设备接收:07 03 02 00 25 F1 9F
13:41:22.947 设备发送:07 03 04 05 00 01 95 5D
13:41:27.952 设备接收:07 03 02 00 00 30 44
13:41:27.967 设备发送:08 03 04 84 00 04 05 89
13:41:32.997 设备接收:08 03 08 13 85 18 1D 00 28 18 1E CB 40
13:41:33.012 设备发送:08 03 04 8D 00 05 14 4B
13:41:38.015 设备接收:08 03 0A 08 F4 23 24 00 00 00 00 00 00 A8 5E
13:41:38.028 设备发送:08 03 04 98 00 05 05 8F
13:41:43.028 设备接收:08 03 0A 08 EA 23 13 00 00 00 00 00 00 6F 3D
13:41:43.043 设备发送:08 03 04 A3 00 05 74 42
13:41:48.022 设备接收:08 03 0A 08 F6 23 20 00 00 00 00 00 00 F4 FE
13:41:48.038 设备发送:08 03 06 84 00 04 04 31
13:41:53.044 设备接收:08 03 08 00 00 6B F5 00 0F D1 04 52 15
13:41:53.075 设备发送:08 03 04 04 00 01 C4 62
13:41:58.062 设备接收:08 03 02 00 02 E5 84
13:41:58.078 设备发送:08 03 05 84 00 0F 45 B2
13:42:03.103 设备接收:08 03 1E 11 FA 02 81 01 27 1A 60 02 36 01 7E 1A B0 02 49 01 8F 19 C5 05 78 03 9B 19 27 05 A6 03 A3 18 BC
13:42:03.118 设备发送:08 03 05 93 00 0F F5 B6
13:42:08.105 设备接收:08 03 1E 1C 95 05 8C 04 0F 1D 89 02 DE 02 2B 19 F2 02 AC 01 C6 18 A2 02 CF 01 C5 1A 18 05 85 03 B0 E4 DC
13:42:08.132 设备发送:08 03 05 A2 00 0F A4 79
13:42:13.131 设备接收:08 03 1E 00 00 00 09 00 00 00 00 00 03 00 00 00 00 00 00 00 00 00 00 00 00 00 00 00 00 00 00 00 00 E6 5F
13:42:13.145 设备发送:08 03 05 B1 00 03 55 B9
13:42:18.171 设备接收:08 03 06 00 00 00 00 00 00 4B 25
13:42:18.190 设备发送:08 03 04 2B 00 01 F5 AB
13:42:23.191 设备接收:08 03 02 01 75 A4 32
13:42:23.223 设备发送:08 03 04 20 00 01 84 69
13:42:28.237 设备接收:08 03 02 00 25 A5 9E
13:42:28.253 设备发送:08 03 04 05 00 01 95 A2
13:42:33.222 设备接收:08 03 02 00 00 64 45
13:42:33.238 设备发送:09 03 04 84 00 04 04 58
13:42:38.235 设备接收:09 03 08 13 85 15 AA FF D0 15 AA 8F B9
13:42:38.266 设备发送:09 03 04 8D 00 05 15 9A
13:42:43.273 设备接收:09 03 0A 08 FD 1F 7A 00 00 00 00 00 00 7C 0B
13:42:43.302 设备发送:09 03 04 98 00 05 04 5E
13:42:48.279 设备接收:09 03 0A 08 EF 1F 81 00 00 00 00 00 00 E2 64
13:42:48.307 设备发送:09 03 04 A3 00 05 75 93
13:42:53.313 设备接收:09 03 0A 09 01 1F 7A 00 00 00 00 00 00 7C CA
13:42:53.328 设备发送:09 03 06 84 00 04 05 E0
13:42:58.331 设备接收:09 03 08 00 00 60 6E 00 0E 63 04 17 2E
13:42:58.347 设备发送:09 03 04 04 00 01 C5 B3
13:43:03.336 设备接收:09 03 02 00 02 D8 44
13:43:03.368 设备发送:09 03 05 84 00 0F 44 63
13:43:08.386 设备接收:09 03 1E 1D 50 02 19 01 93 1E 04 02 17 01 9B 1D B4 02 51 01 C2 1D CF 02 8C 01 F2 1D 93 02 34 01 AB 9E FF
13:43:08.402 设备发送:09 03 05 93 00 0F F4 67
13:43:13.409 设备接收:09 03 1E 1D BA 05 2E 03 F1 1D B4 02 7B 01 E3 1D 5E 05 9D 04 38 1D 0F 02 91 01 E8 1D 29 02 95 01 EE A8 8D
13:43:13.425 设备发送:09 03 05 A2 00 0F A5 A8
13:43:18.418 设备接收:09 03 1E 00 04 00 00 00 00 00 02 00 03 00 00 00 00 00 00 00 00 00 00 00 00 00 00 00 00 00 00 00 00 13 34
13:43:18.464 设备发送:09 03 05 B1 00 03 54 68
13:43:23.471 设备接收:09 03 06 00 00 00 00 00 00 46 B5
13:43:23.487 设备发送:09 03 04 2B 00 01 F4 7A
13:43:28.469 设备接收:09 03 02 01 9A D8 7E
13:43:28.483 设备发送:09 03 04 20 00 01 85 B8
13:43:33.482 设备接收:09 03 02 00 30 59 91
13:43:33.511 设备发送:09 03 04 05 00 01 94 73
13:43:38.526 设备接收:09 03 02 00 00 59 85
13:43:38.541 设备发送:0A 03 04 84 00 04 04 6B
13:43:43.534 设备接收:0A 03 08 13 86 05 24 FF D7 05 28 E5 12
13:43:43.549 设备发送:0A 03 04 8D 00 05 15 A9
13:43:48.549 设备接收:0A 03 0A 08 FF 07 77 00 00 00 00 00 00 BC C2
13:43:48.564 设备发送:0A 03 04 98 00 05 04 6D
13:43:53.585 设备接收:0A 03 0A 08 FD 07 77 00 00 00 00 00 00 A5 A2
13:43:53.600 设备发送:0A 03 04 A3 00 05 75 A0
13:43:58.586 设备接收:0A 03 0A 09 01 07 76 00 00 00 00 00 00 B5 A3
13:43:58.602 设备发送:0A 03 06 84 00 04 05 D3
13:44:03.615 设备接收:0A 03 08 00 00 16 FC 00 03 3F 3B 42 32
13:44:03.631 设备发送:0A 03 04 04 00 01 C5 80
13:44:08.641 设备接收:0A 03 02 00 02 9C 44
13:44:08.657 设备发送:0A 03 05 84 00 0F 44 50
13:44:13.678 设备接收:0A 03 1E 18 99 02 B3 01 B3 18 5C 02 D6 01 C5 18 23 02 F2 01 D2 0B B4 00 00 00 00 00 00 00 00 00 00 3E DA
13:44:13.693 设备发送:0A 03 05 93 00 0F F4 54
13:44:18.698 设备接收:0A 03 1E 00 00 00 00 00 00 00 00 00 00 00 00 00 00 00 00 00 00 00 00 00 00 00 00 00 00 00 00 00 00 0D 79
13:44:18.727 设备发送:0A 03 05 A2 00 0F A5 9B
13:44:23.725 设备接收:0A 03 1E 00 00 00 00 00 00 00 00 00 00 00 00 00 00 00 00 00 00 00 00 00 00 00 00 00 00 00 00 00 00 0D 79
13:44:23.741 设备发送:0A 03 05 B1 00 03 54 5B
13:44:28.737 设备接收:0A 03 06 00 00 00 00 00 00 52 45
13:44:28.769 设备发送:0A 03 04 2B 00 01 F4 49
13:44:33.741 设备接收:0A 03 02 01 AD DD A8
13:44:33.758 设备发送:0A 03 04 20 00 01 85 8B
13:44:38.769 设备接收:0A 03 02 00 2B 5D 9A
13:44:38.784 设备发送:0A 03 04 05 00 01 94 40
13:44:43.815 设备发送:0A 03 04 05 00 01 94 40
13:44:48.817 设备发送:0A 03 04 05 00 01 94 40
13:44:53.859 设备发送:01 03 04 84 00 04 05 10
13:44:58.864 设备接收:01 03 08 13 85 1C A4 FF 56 1C A6 2B 3D
13:44:58.878 设备发送:01 03 04 8D 00 05 14 D2
13:45:03.900 设备发送:01 03 04 8D 00 05 14 D2
13:45:08.911 设备接收:01 03 0A 08 FD 29 11 00 00 00 00 00 00 3A BB
13:45:08.927 设备发送:01 03 04 98 00 05 05 16
13:45:13.943 设备接收:01 03 0A 09 22 28 D4 00 00 00 00 00 00 E3 8B
13:45:13.959 设备发送:01 03 04 A3 00 05 74 DB
13:45:18.934 设备接收:01 03 0A 09 16 28 D4 00 00 00 00 00 00 85 4A
13:45:18.969 设备发送:01 03 06 84 00 04 04 A8
13:45:23.944 设备接收:01 03 08 00 00 82 2F 00 13 58 7D 54 17
13:45:23.980 设备发送:01 03 04 04 00 01 C4 FB
13:45:28.974 设备接收:01 03 02 00 02 39 85
13:45:28.988 设备发送:01 03 05 84 00 0F 45 2B
13:45:34.001 设备接收:01 03 1E 1E FF 06 3F 04 F5 21 33 05 2B 04 65 21 37 05 20 04 5C 1F 28 06 4A 05 04 16 D2 03 36 01 E0 E0 E0
13:45:34.032 设备发送:01 03 05 93 00 0F F5 2F
13:45:39.025 设备发送:01 03 05 93 00 0F F5 2F
13:45:44.041 设备接收:01 03 1E 00 00 00 00 00 00 19 D6 06 98 04 5C 1B B4 03 3D 02 4C 1B FB 03 36 02 4C 00 00 00 02 00 00 74 FA
13:45:44.055 设备发送:01 03 05 A2 00 0F A4 E0
13:45:49.057 设备接收:01 03 1E 00 00 00 00 00 00 00 00 00 00 00 00 00 00 00 00 00 00 00 00 00 00 00 00 00 00 00 00 00 00 D8 BA
13:45:49.075 设备发送:01 03 05 B1 00 03 55 20
13:45:54.084 设备接收:01 03 06 00 00 00 00 00 00 21 75
13:45:54.114 设备发送:01 03 04 2B 00 01 F5 32
13:45:59.079 设备接收:01 03 02 02 46 38 D6
13:45:59.126 设备发送:01 03 04 20 00 01 84 F0
13:46:04.094 设备接收:01 03 02 00 1D 78 4D
13:46:04.110 设备发送:01 03 04 05 00 01 95 3B
13:46:09.117 设备接收:01 03 02 00 00 B8 44
13:46:09.164 设备发送:02 03 04 84 00 04 05 23
13:46:14.173 设备接收:02 03 08 13 85 1C 07 FF C6 1C 07 21 F5
13:46:14.187 设备发送:02 03 04 8D 00 05 14 E1
13:46:19.203 设备接收:02 03 0A 09 00 28 4A 00 00 00 00 00 00 19 20
13:46:19.218 设备发送:02 03 04 98 00 05 05 25
13:46:24.210 设备接收:02 03 0A 09 24 28 6C 00 00 00 00 00 00 F5 E3
13:46:24.242 设备发送:02 03 04 A3 00 05 74 E8
13:46:29.223 设备接收:02 03 0A 09 0C 28 79 00 00 00 00 00 00 4F 23
13:46:29.253 设备发送:02 03 06 84 00 04 04 9B
13:46:34.239 设备接收:02 03 08 00 00 7F 44 00 13 9F 5C F9 5F
13:46:34.255 设备发送:02 03 04 04 00 01 C4 C8
13:46:39.266 设备接收:02 03 02 00 02 7D 85
13:46:39.279 设备发送:02 03 05 84 00 0F 45 18
13:46:44.263 设备接收:02 03 1E 1F 04 03 06 02 66 1E AF 03 07 02 61 1E D7 03 0F 02 6A 1F 02 06 0F 04 CF 1E DC 03 00 02 5F 8E 26
13:46:44.276 设备发送:02 03 05 93 00 0F F5 1C
13:46:49.298 设备接收:02 03 1E 1E D5 02 FC 02 5B 1E F1 03 0C 02 69 1E B6 06 35 04 E1 1E D9 03 16 02 70 1F 01 03 2B 02 84 41 AF
13:46:49.313 设备发送:02 03 05 A2 00 0F A4 D3
13:46:54.309 设备接收:02 03 1E 00 00 00 04 00 00 00 00 00 00 00 00 00 00 00 00 00 00 00 00 00 00 00 00 00 00 00 00 00 00 92 31
13:46:54.340 设备发送:02 03 05 B1 00 03 55 13
13:46:59.314 设备接收:02 03 06 00 00 00 00 00 00 35 85
13:46:59.330 设备发送:02 03 04 2B 00 01 F5 01
13:47:04.366 设备接收:02 03 02 02 33 BD 31
13:47:04.381 设备发送:02 03 04 20 00 01 84 C3
13:47:09.365 设备接收:02 03 02 00 43 BD B5
13:47:09.380 设备发送:02 03 04 05 00 01 95 08
13:47:14.396 设备发送:03 03 04 84 00 04 04 F2
13:47:14.412 设备接收:02 03 02 00 00 FC 44
13:47:19.417 设备接收:03 03 08 13 88 1C BA 00 33 1C BA 75 85
13:47:19.433 设备发送:03 03 04 8D 00 05 15 30
13:47:24.406 设备接收:03 03 0A 09 01 29 10 00 00 00 00 00 00 2D F8
13:47:24.468 设备发送:03 03 04 98 00 05 04 F4
13:47:29.445 设备接收:03 03 0A 09 26 28 F5 00 00 00 00 00 00 E7 0B
13:47:29.461 设备发送:03 03 04 A3 00 05 75 39
13:47:34.474 设备接收:03 03 0A 09 12 29 48 00 00 00 00 00 00 2D 0D
13:47:34.506 设备发送:03 03 06 84 00 04 05 4A
13:47:39.494 设备接收:03 03 08 00 00 87 3E 00 14 2D 2C F5 54
13:47:39.509 设备发送:03 03 04 04 00 01 C5 19
13:47:44.514 设备接收:03 03 02 00 02 40 45
13:47:44.531 设备发送:03 03 05 84 00 0F 44 C9
13:47:49.541 设备接收:03 03 1E 1E D1 06 8F 05 2D 1E 95 06 9C 05 2D 20 D2 05 76 04 97 20 D3 05 80 04 9F 16 B2 06 94 03 D2 82 4F
13:47:49.557 设备发送:03 03 05 93 00 0F F4 CD
13:47:54.568 设备接收:03 03 1E 05 3C 00 00 00 00 13 DC 03 83 01 C9 1B 64 03 4A 02 4E 1B 5B 03 4D 02 4F 05 3F 00 00 00 00 24 B4
13:47:54.588 设备发送:03 03 05 A2 00 0F A5 02
13:47:59.579 设备接收:03 03 1E 00 0E 00 00 00 00 00 00 00 00 00 00 00 00 00 00 00 00 00 00 00 00 00 00 00 00 00 00 00 00 81 70
13:47:59.610 设备发送:03 03 05 B1 00 03 54 C2
13:48:04.597 设备接收:03 03 06 00 00 00 00 00 00 38 15
13:48:04.629 设备发送:03 03 04 2B 00 01 F4 D0
13:48:09.612 设备接收:03 03 02 02 44 C0 D7
13:48:09.627 设备发送:03 03 04 20 00 01 85 12
13:48:14.630 设备接收:03 03 02 00 1F 80 4C
13:48:14.645 设备发送:03 03 04 05 00 01 94 D9
13:48:19.667 设备接收:03 03 02 00 00 C1 84
13:48:19.682 设备发送:04 03 04 84 00 04 05 45
13:48:24.708 设备发送:04 03 04 84 00 04 05 45
13:48:29.712 设备发送:04 03 04 84 00 04 05 45
13:48:34.742 设备发送:04 03 04 8D 00 05 14 87
13:48:39.758 设备发送:04 03 04 8D 00 05 14 87
13:48:44.776 设备发送:04 03 04 8D 00 05 14 87
13:48:49.802 设备发送:04 03 04 98 00 05 05 43
13:48:54.800 设备发送:04 03 04 98 00 05 05 43
13:48:59.834 设备发送:04 03 04 98 00 05 05 43
13:49:04.856 设备发送:04 03 04 A3 00 05 74 8E
13:49:09.881 设备发送:04 03 04 A3 00 05 74 8E
13:49:14.879 设备发送:04 03 04 A3 00 05 74 8E
13:49:19.899 设备发送:04 03 06 84 00 04 04 FD
13:49:24.943 设备发送:04 03 06 84 00 04 04 FD
13:49:29.947 设备发送:04 03 06 84 00 04 04 FD
13:49:34.961 设备发送:04 03 04 04 00 01 C4 AE
13:49:39.971 设备发送:04 03 04 04 00 01 C4 AE
13:49:45.025 设备发送:04 03 04 04 00 01 C4 AE
13:49:50.018 设备发送:04 03 05 84 00 0F 45 7E
13:49:55.053 设备发送:04 03 05 84 00 0F 45 7E
13:50:00.072 设备发送:04 03 05 84 00 0F 45 7E
13:50:05.100 设备发送:04 03 05 93 00 0F F5 7A
13:50:10.121 设备发送:04 03 05 93 00 0F F5 7A
13:50:15.119 设备发送:04 03 05 93 00 0F F5 7A
13:50:20.163 设备发送:04 03 05 A2 00 0F A4 B5
13:50:25.153 设备发送:04 03 05 A2 00 0F A4 B5
13:50:30.179 设备发送:04 03 05 A2 00 0F A4 B5
13:50:35.207 设备发送:04 03 05 B1 00 03 55 75
13:50:40.218 设备发送:04 03 05 B1 00 03 55 75
13:50:45.263 设备发送:04 03 05 B1 00 03 55 75
13:50:50.269 设备发送:04 03 04 2B 00 01 F5 67
13:50:55.283 设备发送:04 03 04 2B 00 01 F5 67
13:51:00.326 设备发送:04 03 04 2B 00 01 F5 67
13:51:05.319 设备发送:04 03 04 20 00 01 84 A5
13:51:10.329 设备发送:04 03 04 20 00 01 84 A5
13:51:15.358 设备发送:04 03 04 20 00 01 84 A5
13:51:20.388 设备发送:04 03 04 05 00 01 95 6E
13:51:25.411 设备发送:04 03 04 05 00 01 95 6E
13:51:30.429 设备发送:04 03 04 05 00 01 95 6E
13:51:35.447 设备发送:05 03 04 84 00 04 04 94
13:51:40.451 设备接收:05 03 08 13 8B 15 4C FF D1 15 4C 86 B5
13:51:40.469 设备发送:05 03 04 8D 00 05 15 56
13:51:45.475 设备接收:05 03 0A 09 04 1E AB 00 00 00 00 00 00 52 97
13:51:45.496 设备发送:05 03 04 98 00 05 04 92
13:51:50.498 设备接收:05 03 0A 09 15 1E 99 00 00 00 00 00 00 81 04
13:51:50.509 设备发送:05 03 04 A3 00 05 75 5F
13:51:55.510 设备接收:05 03 0A 09 10 1E 91 00 00 00 00 00 00 37 94
13:51:55.532 设备发送:05 03 06 84 00 04 05 2C
13:52:00.527 设备接收:05 03 08 00 00 64 E4 00 0E AF 28 E4 F8
13:52:00.537 设备发送:05 03 04 04 00 01 C5 7F
13:52:05.554 设备接收:05 03 02 00 02 C8 45
13:52:05.574 设备发送:05 03 05 84 00 0F 44 AF
13:52:10.565 设备接收:05 03 1E 04 8B 00 00 00 00 16 8D 06 53 03 A7 16 DE 06 0B 03 89 16 F3 05 F8 03 81 1D 0A 02 EF 02 2E BB BC
13:52:10.585 设备发送:05 03 05 93 00 0F F4 AB
13:52:15.593 设备接收:05 03 1E 1D 62 02 F9 02 3D 04 77 00 03 00 00 18 88 06 10 03 CF 04 84 00 01 00 00 15 03 05 F8 03 36 FB 98
13:52:15.612 设备发送:05 03 05 A2 00 0F A5 64
13:52:20.629 设备接收:05 03 1E 00 05 00 00 00 00 00 00 00 03 00 00 00 00 00 00 00 00 00 00 00 00 00 00 00 00 00 00 00 00 9A 4E
13:52:20.647 设备发送:05 03 05 B1 00 03 54 A4
13:52:25.622 设备接收:05 03 06 00 00 00 00 00 00 13 B5
13:52:25.642 设备发送:05 03 04 2B 00 01 F4 B6
13:52:30.672 设备接收:05 03 02 02 5A C8 DF
13:52:30.680 设备发送:05 03 04 20 00 01 85 74
13:52:35.670 设备接收:05 03 02 00 2D 89 99
13:52:35.693 设备发送:05 03 04 05 00 01 94 BF
13:52:40.686 设备接收:05 03 02 00 00 49 84
13:52:40.730 设备发送:06 03 04 84 00 04 04 A7
13:52:45.715 设备接收:06 03 08 13 8A 14 C2 FF 85 14 C4 B0 D9
13:52:45.735 设备发送:06 03 04 8D 00 05 15 65
13:52:50.728 设备接收:06 03 0A 09 05 1D E8 00 00 00 00 00 00 68 15
13:52:50.739 设备发送:06 03 04 98 00 05 04 A1
13:52:55.743 设备接收:06 03 0A 09 10 1D D2 00 00 00 00 00 00 00 86
13:52:55.765 设备发送:06 03 04 A3 00 05 75 6C
13:53:00.778 设备接收:06 03 0A 09 10 1D D6 00 00 00 00 00 00 45 46
13:53:00.801 设备发送:06 03 06 84 00 04 05 1F
13:53:05.792 设备接收:06 03 08 00 00 62 A4 00 0E 9C EB BE B4
13:53:05.803 设备发送:06 03 04 04 00 01 C5 4C
13:53:10.802 设备接收:06 03 02 00 02 8C 45
13:53:10.824 设备发送:06 03 05 84 00 0F 44 9C
13:53:15.837 设备接收:06 03 1E 04 79 00 05 00 00 1B F1 05 BE 04 1C 1C 15 05 C8 04 28 1A 64 02 F1 01 FD 1D 62 06 0A 04 8B BC 41
13:53:15.857 设备发送:06 03 05 93 00 0F F4 98
13:53:20.845 设备接收:06 03 1E 04 75 00 00 00 00 04 65 00 00 00 00 16 D4 06 0D 03 89 04 66 00 05 00 00 14 F7 06 0B 03 3E 45 DC
13:53:20.865 设备发送:06 03 05 A2 00 0F A5 57
13:53:25.894 设备接收:06 03 1E 00 09 00 00 00 00 00 00 00 00 00 00 00 00 00 00 00 00 00 00 00 00 00 00 00 00 00 00 00 00 1D 74
13:53:25.922 设备发送:06 03 05 B1 00 03 54 97
13:53:30.902 设备接收:06 03 06 00 00 00 00 00 00 07 45
13:53:30.922 设备发送:06 03 04 2B 00 01 F4 85
13:53:35.926 设备接收:06 03 02 02 42 8C D5
13:53:35.945 设备发送:06 03 04 20 00 01 85 47
13:53:40.967 设备接收:06 03 02 00 23 4C 5D
13:53:40.977 设备发送:06 03 04 05 00 01 94 8C
13:53:45.961 设备接收:06 03 02 00 00 0D 84
13:53:45.982 设备发送:07 03 04 84 00 04 05 76
13:53:51.006 设备接收:07 03 08 13 8B 0A D3 FF D6 0A DA 22 E1
13:53:51.022 设备发送:07 03 04 8D 00 05 14 B4
13:53:56.018 设备接收:07 03 0A 09 01 0F A7 00 00 00 00 00 00 66 45
13:53:56.039 设备发送:07 03 04 98 00 05 05 70
13:54:01.028 设备接收:07 03 0A 08 FF 0F A8 00 00 00 00 00 00 80 E4
13:54:01.051 设备发送:07 03 04 A3 00 05 74 BD
13:54:06.062 设备接收:07 03 0A 09 03 0F A4 00 00 00 00 00 00 4C 25
13:54:06.084 设备发送:07 03 06 84 00 04 04 CE
13:54:11.081 设备接收:07 03 08 00 00 35 11 00 07 44 62 71 D1
13:54:11.090 设备发送:07 03 04 04 00 01 C4 9D
13:54:16.098 设备接收:07 03 02 00 02 B1 85
13:54:16.108 设备发送:07 03 05 84 00 0F 45 4D
13:54:21.130 设备接收:07 03 1E 18 7D 05 C9 03 A1 1A 02 02 EE 01 F3 19 C6 02 E0 01 E6 18 77 05 C7 03 9E 00 00 00 00 00 00 32 DB
13:54:21.149 设备发送:07 03 05 93 00 0F F5 49
13:54:26.129 设备接收:07 03 1E 00 00 00 00 00 00 00 00 00 00 00 00 00 00 00 00 00 00 00 00 00 00 00 00 00 00 00 00 00 00 B0 BB
13:54:26.149 设备发送:07 03 05 A2 00 0F A4 86
13:54:31.155 设备接收:07 03 1E 00 00 00 00 00 00 00 00 00 00 00 00 00 00 00 00 00 00 00 00 00 00 00 00 00 00 00 00 00 00 B0 BB
13:54:31.176 设备发送:07 03 05 B1 00 03 55 46
13:54:36.208 设备接收:07 03 06 00 00 00 00 00 00 0A D5
13:54:36.226 设备发送:07 03 04 2B 00 01 F5 54
13:54:41.202 设备接收:07 03 02 01 81 F1 B4
13:54:41.224 设备发送:07 03 04 20 00 01 84 96
13:54:46.234 设备接收:07 03 02 00 25 F1 9F
13:54:46.256 设备发送:07 03 04 05 00 01 95 5D
13:54:51.240 设备接收:07 03 02 00 00 30 44
13:54:51.258 设备发送:08 03 04 84 00 04 05 89
13:54:56.257 设备接收:08 03 08 13 88 16 D0 00 26 16 D0 DF 49
13:54:56.278 设备发送:08 03 04 8D 00 05 14 4B
13:55:01.289 设备接收:08 03 0A 08 F2 21 42 00 00 00 00 00 00 04 21
13:55:01.309 设备发送:08 03 04 98 00 05 05 8F
13:55:06.311 设备接收:08 03 0A 08 E6 21 5A 00 00 00 00 00 00 63 20
13:55:06.331 设备发送:08 03 04 A3 00 05 74 42
13:55:11.327 设备接收:08 03 0A 08 FA 21 6C 00 00 00 00 00 00 AD E3
13:55:11.339 设备发送:08 03 06 84 00 04 04 31
13:55:16.346 设备接收:08 03 08 00 00 71 41 00 0F D1 8C E0 53
13:55:16.356 设备发送:08 03 04 04 00 01 C4 62
13:55:21.391 设备接收:08 03 02 00 02 E5 84
13:55:21.402 设备发送:08 03 05 84 00 0F 45 B2
13:55:26.385 设备接收:08 03 1E 10 93 02 B1 01 24 1A 88 02 1D 01 6F 1A 5F 02 38 01 7F 1A 13 05 31 03 77 19 27 05 6D 03 7E 1A F9
13:55:26.425 设备发送:08 03 05 93 00 0F F5 B6
13:55:31.402 设备接收:08 03 1E 1C E6 05 2A 03 D2 1D B0 02 BD 02 15 1A 42 02 8D 01 B7 18 C8 02 B0 01 B5 1A 3E 05 47 03 8B 76 FE
13:55:31.422 设备发送:08 03 05 A2 00 0F A4 79
13:55:36.427 设备接收:08 03 1E 00 00 00 09 00 00 00 00 00 05 00 00 00 00 00 00 00 00 00 00 00 00 00 00 00 00 00 00 00 00 80 39
13:55:36.446 设备发送:08 03 05 B1 00 03 55 B9
13:55:41.456 设备接收:08 03 06 00 00 00 00 00 00 4B 25
13:55:41.465 设备发送:08 03 04 2B 00 01 F5 AB
13:55:46.474 设备接收:08 03 02 01 75 A4 32
13:55:46.482 设备发送:08 03 04 20 00 01 84 69
13:55:51.489 设备接收:08 03 02 00 27 24 5F
13:55:51.498 设备发送:08 03 04 05 00 01 95 A2
13:55:56.525 设备接收:08 03 02 00 00 64 45
13:55:56.535 设备发送:09 03 04 84 00 04 04 58
13:56:01.534 设备接收:09 03 08 13 8B 14 B3 FF D3 14 B3 4C 30
13:56:01.553 设备发送:09 03 04 8D 00 05 15 9A
13:56:06.539 设备接收:09 03 0A 08 FB 1E 05 00 00 00 00 00 00 18 A0
13:56:06.560 设备发送:09 03 04 98 00 05 04 5E
13:56:11.571 设备接收:09 03 0A 08 F3 1E 1B 00 00 00 00 00 00 81 61
13:56:11.582 设备发送:09 03 04 A3 00 05 75 93
13:56:16.581 设备接收:09 03 0A 09 03 1E 1B 00 00 00 00 00 00 D4 A0
13:56:16.622 设备发送:09 03 06 84 00 04 05 E0
13:56:21.636 设备接收:09 03 08 00 00 65 30 00 0E 63 7E 3F 55
13:56:21.646 设备发送:09 03 04 04 00 01 C5 B3
13:56:26.637 设备接收:09 03 02 00 02 D8 44
13:56:26.657 设备发送:09 03 05 84 00 0F 44 63
13:56:31.665 设备接收:09 03 1E 1D A0 01 FE 01 83 1D DD 02 07 01 8C 1D B5 02 37 01 AF 1D D1 02 70 01 DD 1D BD 02 19 01 99 41 D4
13:56:31.684 设备发送:09 03 05 93 00 0F F4 67
13:56:36.673 设备接收:09 03 1E 1D BD 04 EE 03 C1 1D 8D 02 63 01 CE 1D 88 05 5B 04 0C 1D 63 02 6F 01 D5 1D 55 02 76 01 D9 E6 49
13:56:36.695 设备发送:09 03 05 A2 00 0F A5 A8
13:56:41.718 设备接收:09 03 1E 00 04 00 00 00 00 00 01 00 03 00 00 00 00 00 00 00 00 00 00 00 00 00 00 00 00 00 00 00 00 47 D1
13:56:41.741 设备发送:09 03 05 B1 00 03 54 68
13:56:46.721 设备接收:09 03 06 00 00 00 00 00 00 46 B5
13:56:46.741 设备发送:09 03 04 2B 00 01 F4 7A
13:56:51.754 设备接收:09 03 02 01 9A D8 7E
13:56:51.764 设备发送:09 03 04 20 00 01 85 B8
13:56:56.747 设备接收:09 03 02 00 26 D8 5F
13:56:56.771 设备发送:09 03 04 05 00 01 94 73
13:57:01.772 设备接收:09 03 02 00 00 59 85
13:57:01.793 设备发送:0A 03 04 84 00 04 04 6B
13:57:06.792 设备接收:0A 03 08 13 87 04 F4 FF E3 04 F8 74 13
13:57:06.804 设备发送:0A 03 04 8D 00 05 15 A9
13:57:11.835 设备接收:0A 03 0A 09 00 07 34 00 00 00 00 00 00 DA 37
13:57:11.847 设备发送:0A 03 04 98 00 05 04 6D
13:57:16.851 设备接收:0A 03 0A 08 FF 07 33 00 00 00 00 00 00 B8 C6
13:57:16.873 设备发送:0A 03 04 A3 00 05 75 A0
13:57:21.873 设备接收:0A 03 0A 09 05 07 35 00 00 00 00 00 00 F5 A7
13:57:21.899 设备发送:0A 03 06 84 00 04 05 D3
13:57:26.898 设备接收:0A 03 08 00 00 18 1D 00 03 3F 58 BF 23
13:57:26.910 设备发送:0A 03 04 04 00 01 C5 80
13:57:31.904 设备接收:0A 03 02 00 02 9C 44
13:57:31.925 设备发送:0A 03 05 84 00 0F 44 50
13:57:36.925 设备接收:0A 03 1E 18 71 02 9E 01 A3 18 AC 02 AE 01 B1 18 C4 02 C8 01 C3 0B C9 00 00 00 00 00 00 00 00 00 00 D4 C4
13:57:36.936 设备发送:0A 03 05 93 00 0F F4 54
13:57:41.975 设备接收:0A 03 1E 00 00 00 00 00 00 00 00 00 00 00 00 00 00 00 00 00 00 00 00 00 00 00 00 00 00 00 00 00 00 0D 79
13:57:41.984 设备发送:0A 03 05 A2 00 0F A5 9B
13:57:46.979 设备接收:0A 03 1E 00 00 00 00 00 00 00 00 00 00 00 00 00 00 00 00 00 00 00 00 00 00 00 00 00 00 00 00 00 00 0D 79
13:57:47.001 设备发送:0A 03 05 B1 00 03 54 5B
13:57:51.994 设备接收:0A 03 06 00 00 00 00 00 00 52 45
13:57:52.013 设备发送:0A 03 04 2B 00 01 F4 49
13:57:57.021 设备接收:0A 03 02 01 AD DD A8
13:57:57.030 设备发送:0A 03 04 20 00 01 85 8B
13:58:02.044 设备接收:0A 03 02 00 17 5D 8B
13:58:02.064 设备发送:0A 03 04 05 00 01 94 40
13:58:07.070 设备接收:0A 03 02 00 00 1D 85
13:58:07.088 设备发送:01 03 04 84 00 04 05 10
13:58:12.073 设备接收:01 03 08 13 88 1B 63 00 30 1B 63 51 F3
13:58:12.098 设备发送:01 03 04 8D 00 05 14 D2
13:58:17.114 设备接收:01 03 0A 09 03 26 FC 00 00 00 00 00 00 5E 54
13:58:17.126 设备发送:01 03 04 98 00 05 05 16
13:58:22.126 设备接收:01 03 0A 09 27 27 0E 00 00 00 00 00 00 E7 56
13:58:22.136 设备发送:01 03 04 A3 00 05 74 DB
13:58:27.132 设备接收:01 03 0A 09 1A 27 36 00 00 00 00 00 00 52 04
13:58:27.182 设备发送:01 03 06 84 00 04 04 A8
13:58:32.159 设备接收:01 03 08 00 00 88 49 00 13 59 19 5C CE
13:58:32.179 设备发送:01 03 04 04 00 01 C4 FB
13:58:37.207 设备接收:01 03 02 00 02 39 85
13:58:37.216 设备发送:01 03 05 84 00 0F 45 2B
13:58:42.212 设备接收:01 03 1E 1E D5 05 FB 04 B9 21 0C 05 10 04 49 21 12 04 F7 04 34 1F 2A 05 FD 04 C7 16 FC 03 0B 01 CA 92 F7
13:58:42.233 设备发送:01 03 05 93 00 0F F5 2F
13:58:47.224 设备接收:01 03 1E 00 00 00 00 00 00 19 D6 06 52 04 2E 1B B4 03 1B 02 34 1B D5 03 1A 02 36 00 00 00 02 00 00 A2 63
13:58:47.233 设备发送:01 03 05 A2 00 0F A4 E0
13:58:52.251 设备接收:01 03 1E 00 00 00 00 00 00 00 00 00 00 00 00 00 00 00 00 00 00 00 00 00 00 00 00 00 00 00 00 00 00 D8 BA
13:58:52.261 设备发送:01 03 05 B1 00 03 55 20
13:58:57.276 设备接收:01 03 06 00 00 00 00 00 00 21 75
13:58:57.307 设备发送:01 03 04 2B 00 01 F5 32
13:59:02.280 设备接收:01 03 02 02 46 38 D6
13:59:02.291 设备发送:01 03 04 20 00 01 84 F0
13:59:07.318 设备接收:01 03 02 00 2E 38 58
13:59:07.337 设备发送:01 03 04 05 00 01 95 3B
13:59:12.329 设备接收:01 03 02 00 00 B8 44
13:59:12.339 设备发送:02 03 04 84 00 04 05 23
13:59:17.367 设备接收:02 03 08 13 88 1A E3 FF C9 1A E3 BE AD
13:59:17.386 设备发送:02 03 04 8D 00 05 14 E1
13:59:22.384 设备接收:02 03 0A 09 04 26 88 00 00 00 00 00 00 49 A0
13:59:22.393 设备发送:02 03 04 98 00 05 05 25
13:59:27.411 设备接收:02 03 0A 09 29 26 9F 00 00 00 00 00 00 EF F0
13:59:27.431 设备发送:02 03 04 A3 00 05 74 E8
13:59:32.418 设备接收:02 03 0A 09 17 26 8D 00 00 00 00 00 00 C5 90
13:59:32.430 设备发送:02 03 06 84 00 04 04 9B
13:59:37.449 设备接收:02 03 08 00 00 85 39 00 13 9F F4 80 B1
13:59:37.458 设备发送:02 03 04 04 00 01 C4 C8
13:59:42.456 设备接收:02 03 02 00 02 7D 85
13:59:42.474 设备发送:02 03 05 84 00 0F 45 18
13:59:47.486 设备接收:02 03 1E 1F 02 02 E3 02 4B 1E D7 02 E5 02 49 1E FD 02 EB 02 50 1F 26 05 C6 04 9B 1E AD 02 E3 02 44 76 42
13:59:47.506 设备发送:02 03 05 93 00 0F F5 1C
13:59:52.491 设备接收:02 03 1E 1E D3 02 DB 02 41 1E F0 02 EE 02 52 1F 2B 05 DC 04 AD 1E B0 02 FB 02 57 1E 85 03 19 02 6B CC 1B
13:59:52.508 设备发送:02 03 05 A2 00 0F A4 D3
13:59:57.510 设备接收:02 03 1E 00 00 00 04 00 00 00 00 00 00 00 00 00 00 00 00 00 00 00 00 00 00 00 00 00 00 00 00 00 00 92 31
13:59:57.530 设备发送:02 03 05 B1 00 03 55 13
14:00:02.541 设备接收:02 03 06 00 00 00 00 00 00 35 85
14:00:02.563 设备发送:02 03 04 2B 00 01 F5 01
14:00:07.564 设备接收:02 03 02 02 33 BD 31
14:00:07.586 设备发送:02 03 04 20 00 01 84 C3
14:00:12.584 设备接收:02 03 02 00 40 FD B4
14:00:12.602 设备发送:02 03 04 05 00 01 95 08
14:00:17.612 设备接收:02 03 02 00 00 FC 44
14:00:17.633 设备发送:03 03 04 84 00 04 04 F2
14:00:22.625 设备接收:03 03 08 13 86 1B BA FF C6 1B BA B9 E4
14:00:22.647 设备发送:03 03 04 8D 00 05 15 30
14:00:27.649 设备接收:03 03 0A 09 02 27 C7 00 00 00 00 00 00 1F 89
14:00:27.668 设备发送:03 03 04 98 00 05 04 F4
14:00:32.667 设备接收:03 03 0A 09 27 27 2B 00 00 00 00 00 00 94 D6
14:00:32.677 设备发送:03 03 04 A3 00 05 75 39
14:00:37.668 设备接收:03 03 0A 09 16 27 84 00 00 00 00 00 00 92 4D
14:00:37.710 设备发送:03 03 06 84 00 04 05 4A
14:00:42.683 设备接收:03 03 08 00 00 8D 5B 00 14 2D C8 B9 BD
14:00:42.704 设备发送:03 03 04 04 00 01 C5 19
14:00:47.708 设备接收:03 03 02 00 02 40 45
14:00:47.720 设备发送:03 03 05 84 00 0F 44 C9
14:00:52.730 设备接收:03 03 1E 1E F8 06 46 04 F9 1E E3 06 48 04 F7 20 F8 05 21 04 54 20 F8 05 23 04 56 16 88 06 54 03 A6 9E 67
14:00:52.742 设备发送:03 03 05 93 00 0F F4 CD
14:00:57.761 设备接收:03 03 1E 05 3C 00 00 00 00 13 D8 03 62 01 B8 1B 64 03 29 02 37 1B 59 03 2B 02 38 05 42 00 00 00 00 F5 08
14:00:57.784 设备发送:03 03 05 A2 00 0F A5 02
14:01:02.793 设备接收:03 03 1E 00 0E 00 00 00 00 00 00 00 00 00 00 00 00 00 00 00 00 00 00 00 00 00 00 00 00 00 00 00 00 81 70
14:01:02.814 设备发送:03 03 05 B1 00 03 54 C2
14:01:07.789 设备接收:03 03 06 00 00 00 00 00 00 38 15
14:01:07.808 设备发送:03 03 04 2B 00 01 F4 D0
14:01:12.840 设备接收:03 03 02 02 44 C0 D7
14:01:12.862 设备发送:03 03 04 20 00 01 85 12
14:01:17.834 设备接收:03 03 02 00 1E 41 8C
14:01:17.856 设备发送:03 03 04 05 00 01 94 D9
14:01:22.875 设备接收:03 03 02 00 00 C1 84
14:01:22.898 设备发送:04 03 04 84 00 04 05 45
14:01:27.902 设备发送:04 03 04 84 00 04 05 45
14:01:32.941 设备发送:04 03 04 84 00 04 05 45
14:01:37.930 设备发送:04 03 04 8D 00 05 14 87
14:01:42.978 设备发送:04 03 04 8D 00 05 14 87
14:01:47.973 设备发送:04 03 04 8D 00 05 14 87
14:01:53.012 设备发送:04 03 04 98 00 05 05 43
14:01:58.031 设备发送:04 03 04 98 00 05 05 43
14:02:03.046 设备发送:04 03 04 98 00 05 05 43
14:02:08.067 设备发送:04 03 04 A3 00 05 74 8E
14:02:13.080 设备发送:04 03 04 A3 00 05 74 8E
14:02:18.100 设备发送:04 03 04 A3 00 05 74 8E
14:02:23.118 设备发送:04 03 06 84 00 04 04 FD
14:02:28.153 设备发送:04 03 06 84 00 04 04 FD
14:02:33.174 设备发送:04 03 06 84 00 04 04 FD
14:02:38.192 设备发送:04 03 04 04 00 01 C4 AE
14:02:43.214 设备发送:04 03 04 04 00 01 C4 AE
14:02:48.231 设备发送:04 03 04 04 00 01 C4 AE
14:02:53.235 设备发送:04 03 05 84 00 0F 45 7E
14:02:58.279 设备发送:04 03 05 84 00 0F 45 7E
14:03:03.277 设备发送:04 03 05 84 00 0F 45 7E
14:03:08.301 设备发送:04 03 05 93 00 0F F5 7A
14:03:13.315 设备发送:04 03 05 93 00 0F F5 7A
14:03:18.348 设备发送:04 03 05 93 00 0F F5 7A
14:03:23.352 设备发送:04 03 05 A2 00 0F A4 B5
14:03:28.380 设备发送:04 03 05 A2 00 0F A4 B5
14:03:33.414 设备发送:04 03 05 A2 00 0F A4 B5
14:03:38.418 设备发送:04 03 05 B1 00 03 55 75
14:03:43.462 设备发送:04 03 05 B1 00 03 55 75
14:03:48.475 设备发送:04 03 05 B1 00 03 55 75
14:03:53.489 设备发送:04 03 04 2B 00 01 F5 67
14:03:58.500 设备发送:04 03 04 2B 00 01 F5 67
14:04:03.528 设备发送:04 03 04 2B 00 01 F5 67
14:04:08.532 设备发送:04 03 04 20 00 01 84 A5
14:04:13.557 设备发送:04 03 04 20 00 01 84 A5
14:04:18.593 设备发送:04 03 04 20 00 01 84 A5
14:04:23.593 设备发送:04 03 04 05 00 01 95 6E
14:04:28.645 设备发送:04 03 04 05 00 01 95 6E
14:04:33.659 设备发送:04 03 04 05 00 01 95 6E
14:04:38.654 设备发送:05 03 04 84 00 04 04 94
14:04:43.658 设备接收:05 03 08 13 87 14 B0 00 21 14 B0 2A 86
14:04:43.679 设备发送:05 03 04 8D 00 05 15 56
14:04:48.671 设备接收:05 03 0A 09 05 1D C7 00 00 00 00 00 00 B3 14
14:04:48.692 设备发送:05 03 04 98 00 05 04 92
14:04:53.701 设备接收:05 03 0A 09 12 1D A6 00 00 00 00 00 00 28 22
14:04:53.721 设备发送:05 03 04 A3 00 05 75 5F
14:04:58.717 设备接收:05 03 0A 09 0D 1D AD 00 00 00 00 00 00 1E D2
14:04:58.740 设备发送:05 03 06 84 00 04 05 2C
14:05:03.743 设备接收:05 03 08 00 00 69 60 00 0E AF 9B 54 4E
14:05:03.754 设备发送:05 03 04 04 00 01 C5 7F
14:05:08.768 设备接收:05 03 02 00 02 C8 45
14:05:08.778 设备发送:05 03 05 84 00 0F 44 AF
14:05:13.764 设备接收:05 03 1E 04 90 00 00 00 00 16 D9 06 12 03 8D 17 02 05 D5 03 6F 16 F4 05 CD 03 68 1D 5B 02 D3 02 1F 2B 9C
14:05:13.785 设备发送:05 03 05 93 00 0F F4 AB
14:05:18.801 设备接收:05 03 1E 1D 62 02 E2 02 2B 04 7B 00 00 00 00 18 B1 05 E0 03 B7 04 89 00 00 00 00 15 2C 05 BC 03 1B 86 A1
14:05:18.813 设备发送:05 03 05 A2 00 0F A5 64
14:05:23.820 设备接收:05 03 1E 00 07 00 00 00 00 00 01 00 03 00 00 00 00 00 00 00 00 00 00 00 00 00 00 00 00 00 00 00 00 D7 D1
14:05:23.841 设备发送:05 03 05 B1 00 03 54 A4
14:05:28.827 设备接收:05 03 06 00 00 00 00 00 00 13 B5
14:05:28.850 设备发送:05 03 04 2B 00 01 F4 B6
14:05:33.883 设备接收:05 03 02 02 5A C8 DF
14:05:33.903 设备发送:05 03 04 20 00 01 85 74
14:05:38.874 设备接收:05 03 02 00 31 88 50
14:05:38.884 设备发送:05 03 04 05 00 01 94 BF
14:05:43.922 设备接收:05 03 02 00 00 49 84
14:05:43.942 设备发送:06 03 04 84 00 04 04 A7
14:05:48.905 设备接收:06 03 08 13 8C 14 44 FF D6 14 44 AE B6
14:05:48.959 设备发送:06 03 04 8D 00 05 15 65
14:05:53.937 设备接收:06 03 0A 09 02 1D 32 00 00 00 00 00 00 35 E8
14:05:53.957 设备发送:06 03 04 98 00 05 04 A1
14:05:58.970 设备接收:06 03 0A 09 13 1D 26 00 00 00 00 00 00 A1 B9
14:05:58.984 设备发送:06 03 04 A3 00 05 75 6C
14:06:03.971 设备接收:06 03 0A 09 12 1D 39 00 00 00 00 00 00 42 E8
14:06:03.992 设备发送:06 03 06 84 00 04 05 1F
14:06:09.015 设备接收:06 03 08 00 00 67 0B 00 0E 9D 5B 6A DD
14:06:09.038 设备发送:06 03 04 04 00 01 C5 4C
14:06:14.037 设备接收:06 03 02 00 02 8C 45
14:06:14.057 设备发送:06 03 05 84 00 0F 44 9C
14:06:19.048 设备接收:06 03 1E 04 7D 00 08 00 00 1C 1C 05 93 04 03 1B EF 05 AA 04 0D 1A B4 02 D3 01 EE 1D 8B 05 D8 04 6C 16 F5
14:06:19.069 设备发送:06 03 05 93 00 0F F4 98
14:06:24.095 设备接收:06 03 1E 04 7C 00 00 00 00 04 69 00 01 00 00 17 1C 05 D1 03 71 04 6D 00 06 00 00 15 1A 05 DD 03 2A F8 E5
14:06:24.115 设备发送:06 03 05 A2 00 0F A5 57
14:06:29.083 设备接收:06 03 1E 00 07 00 00 00 00 00 00 00 00 00 00 00 00 00 00 00 00 00 00 00 00 00 00 00 00 00 00 00 00 9D 7E
14:06:29.104 设备发送:06 03 05 B1 00 03 54 97
14:06:34.129 设备接收:06 03 06 00 00 00 00 00 00 07 45
14:06:34.149 设备发送:06 03 04 2B 00 01 F4 85
14:06:39.147 设备接收:06 03 02 02 42 8C D5
14:06:39.185 设备发送:06 03 04 20 00 01 85 47
14:06:44.176 设备接收:06 03 02 00 34 0C 53
14:06:44.197 设备发送:06 03 04 05 00 01 94 8C
14:06:49.199 设备接收:06 03 02 00 00 0D 84
14:06:49.223 设备发送:07 03 04 84 00 04 05 76
14:06:54.221 设备接收:07 03 08 13 84 0A 90 FF D6 0A 96 99 DB
14:06:54.241 设备发送:07 03 04 8D 00 05 14 B4
14:06:59.229 设备接收:07 03 0A 09 03 0F 48 00 00 00 00 00 00 61 EB
14:06:59.241 设备发送:07 03 04 98 00 05 05 70
14:07:04.238 设备接收:07 03 0A 09 00 0F 45 00 00 00 00 00 00 A9 DB
14:07:04.248 设备发送:07 03 04 A3 00 05 74 BD
14:07:09.285 设备接收:07 03 0A 09 00 0F 3B 00 00 00 00 00 00 37 DC
14:07:09.296 设备发送:07 03 06 84 00 04 04 CE
14:07:14.291 设备接收:07 03 08 00 00 37 6B 00 07 44 9E A9 B8
14:07:14.302 设备发送:07 03 04 04 00 01 C4 9D
14:07:19.314 设备接收:07 03 02 00 02 B1 85
14:07:19.325 设备发送:07 03 05 84 00 0F 45 4D
14:07:24.328 设备接收:07 03 1E 18 A5 05 9C 03 8A 19 B2 02 E3 01 E6 1A 8E 02 B6 01 D8 18 79 05 9F 03 85 00 00 00 00 00 00 00 0D
14:07:24.346 设备发送:07 03 05 93 00 0F F5 49
14:07:29.364 设备接收:07 03 1E 00 00 00 00 00 00 00 00 00 00 00 00 00 00 00 00 00 00 00 00 00 00 00 00 00 00 00 00 00 00 B0 BB
14:07:29.385 设备发送:07 03 05 A2 00 0F A4 86
14:07:34.365 设备接收:07 03 1E 00 00 00 00 00 00 00 00 00 00 00 00 00 00 00 00 00 00 00 00 00 00 00 00 00 00 00 00 00 00 B0 BB
14:07:34.384 设备发送:07 03 05 B1 00 03 55 46
14:07:39.408 设备接收:07 03 06 00 00 00 00 00 00 0A D5
14:07:39.429 设备发送:07 03 04 2B 00 01 F5 54
14:07:44.420 设备接收:07 03 02 01 81 F1 B4
14:07:44.442 设备发送:07 03 04 20 00 01 84 96
14:07:49.433 设备接收:07 03 02 00 24 30 5F
14:07:49.442 设备发送:07 03 04 05 00 01 95 5D
14:07:54.466 设备接收:07 03 02 00 00 30 44
14:07:54.486 设备发送:08 03 04 84 00 04 05 89
14:07:59.490 设备接收:08 03 08 13 8B 16 00 FF 7B 16 02 0C 00
14:07:59.509 设备发送:08 03 04 8D 00 05 14 4B
14:08:04.498 设备接收:08 03 0A 08 F6 20 0E 00 00 00 00 00 00 7A E9
14:08:04.518 设备发送:08 03 04 98 00 05 05 8F
14:08:09.525 设备接收:08 03 0A 08 E9 1F EC 00 00 00 00 00 00 77 83
14:08:09.533 设备发送:08 03 04 A3 00 05 74 42
14:08:14.561 设备接收:08 03 0A 08 F9 20 05 00 00 00 00 00 00 81 D9
14:08:14.572 设备发送:08 03 06 84 00 04 04 31
14:08:19.587 设备接收:08 03 08 00 00 76 30 00 0F D2 0A 1C BD
14:08:19.596 设备发送:08 03 04 04 00 01 C4 62
14:08:24.588 设备接收:08 03 02 00 02 E5 84
14:08:24.607 设备发送:08 03 05 84 00 0F 45 B2
14:08:29.619 设备接收:08 03 1E 12 4A 02 3F 01 0D 1A 89 02 02 01 5D 1A 87 02 1D 01 6F 1A 15 04 F8 03 51 19 4F 05 27 03 56 EA C0
14:08:29.640 设备发送:08 03 05 93 00 0F F5 B6
14:08:34.642 设备接收:08 03 1E 1C 46 05 06 03 A3 1D B0 02 A1 02 00 1A 44 02 73 01 A5 18 C9 02 8E 01 9E 1A 67 05 08 03 67 AC 9F
14:08:34.660 设备发送:08 03 05 A2 00 0F A4 79
14:08:39.678 设备接收:08 03 1E 00 00 00 08 00 00 00 00 00 05 00 00 00 00 00 00 00 00 00 00 00 00 00 00 00 00 00 00 00 00 7E BB
14:08:39.688 设备发送:08 03 05 B1 00 03 55 B9
14:08:44.689 设备接收:08 03 06 00 00 00 00 00 00 4B 25
14:08:44.710 设备发送:08 03 04 2B 00 01 F5 AB
14:08:49.690 设备接收:08 03 02 01 75 A4 32
14:08:49.709 设备发送:08 03 04 20 00 01 84 69
14:08:54.710 设备接收:08 03 02 00 37 25 93
14:08:54.750 设备发送:08 03 04 05 00 01 95 A2
14:08:59.734 设备接收:08 03 02 00 00 64 45
14:08:59.756 设备发送:09 03 04 84 00 04 04 58
14:09:04.761 设备接收:09 03 08 13 8C 13 D0 00 22 13 D0 DC B1
14:09:04.780 设备发送:09 03 04 8D 00 05 15 9A
14:09:09.791 设备接收:09 03 0A 08 FD 1C B6 00 00 00 00 00 00 30 12
14:09:09.810 设备发送:09 03 04 98 00 05 04 5E
14:09:14.797 设备接收:09 03 0A 08 F1 1C B4 00 00 00 00 00 00 46 D2
14:09:14.818 设备发送:09 03 04 A3 00 05 75 93
14:09:19.815 设备接收:09 03 0A 09 02 1C A9 00 00 00 00 00 00 CA E2
14:09:19.837 设备发送:09 03 06 84 00 04 05 E0
14:09:24.861 设备接收:09 03 08 00 00 69 A0 00 0E 63 F0 7F E0
14:09:24.882 设备发送:09 03 04 04 00 01 C5 B3
14:09:29.846 设备接收:09 03 02 00 02 D8 44
14:09:29.907 设备发送:09 03 05 84 00 0F 44 63
14:09:34.888 设备接收:09 03 1E 1D 78 01 E4 01 6D 1E 2C 01 E3 01 75 1E 05 02 14 01 99 1E 20 02 4C 01 C5 1D BB 01 FE 01 84 3B 3A
14:09:34.910 设备发送:09 03 05 93 00 0F F4 67
14:09:39.906 设备接收:09 03 1E 1D E3 04 B9 03 9D 1D B2 02 43 01 B8 1D B0 05 18 03 DF 1D 8C 02 4F 01 BF 1D 7A 02 56 01 C3 0A E6
14:09:39.927 设备发送:09 03 05 A2 00 0F A5 A8
14:09:44.934 设备接收:09 03 1E 00 04 00 00 00 00 00 02 00 03 00 00 00 00 00 00 00 00 00 00 00 00 00 00 00 00 00 00 00 00 13 34
14:09:44.985 设备发送:09 03 05 B1 00 03 54 68
14:09:49.969 设备接收:09 03 06 00 00 00 00 00 00 46 B5
14:09:49.979 设备发送:09 03 04 2B 00 01 F4 7A
14:09:54.976 设备接收:09 03 02 01 9A D8 7E
14:09:54.997 设备发送:09 03 04 20 00 01 85 B8
14:10:00.006 设备接收:09 03 02 00 2E D9 99
14:10:00.026 设备发送:09 03 04 05 00 01 94 73
14:10:05.029 设备接收:09 03 02 00 00 59 85
14:10:05.050 设备发送:0A 03 04 84 00 04 04 6B
14:10:10.044 设备接收:0A 03 08 13 87 04 B2 FF E1 04 B7 1D E8
14:10:10.053 设备发送:0A 03 04 8D 00 05 15 A9
14:10:15.067 设备接收:0A 03 0A 08 FE 06 D8 00 00 00 00 00 00 2F 94
14:10:15.089 设备发送:0A 03 04 98 00 05 04 6D
14:10:20.098 设备接收:0A 03 0A 08 FB 06 D1 00 00 00 00 00 00 89 C4
14:10:20.121 设备发送:0A 03 04 A3 00 05 75 A0
14:10:25.116 设备接收:0A 03 0A 09 01 06 D4 00 00 00 00 00 00 F7 A5
14:10:25.138 设备发送:0A 03 06 84 00 04 05 D3
14:10:30.115 设备接收:0A 03 08 00 00 19 2D 00 03 3F 73 BE E9
14:10:30.136 设备发送:0A 03 04 04 00 01 C5 80
14:10:35.152 设备接收:0A 03 02 00 02 9C 44
14:10:35.175 设备发送:0A 03 05 84 00 0F 44 50
14:10:40.167 设备发送:0A 03 05 93 00 0F F4 54
14:10:40.191 设备接收:0A 03 1E 18 C0 02 74 01 8E 18 D3 02 87 01 9B 18 71 02 A8 01 A9 0B D1 00 00 00 00 00 00 00 00 00 00 C4 57
14:10:45.201 设备接收:0A 03 1E 00 00 00 00 00 00 00 00 00 00 00 00 00 00 00 00 00 00 00 00 00 00 00 00 00 00 00 00 00 00 0D 79
14:10:45.211 设备发送:0A 03 05 A2 00 0F A5 9B
14:10:50.201 设备接收:0A 03 1E 00 00 00 00 00 00 00 00 00 00 00 00 00 00 00 00 00 00 00 00 00 00 00 00 00 00 00 00 00 00 0D 79
14:10:50.210 设备发送:0A 03 05 B1 00 03 54 5B
14:10:55.228 设备接收:0A 03 06 00 00 00 00 00 00 52 45
14:10:55.239 设备发送:0A 03 04 2B 00 01 F4 49
14:11:00.254 设备接收:0A 03 02 01 AD DD A8
14:11:00.274 设备发送:0A 03 04 20 00 01 85 8B
14:11:05.268 设备接收:0A 03 02 00 21 DD 9D
14:11:05.288 设备发送:0A 03 04 05 00 01 94 40
14:11:10.298 设备接收:0A 03 02 00 00 1D 85
14:11:10.320 设备发送:01 03 04 84 00 04 05 10
14:11:15.307 设备接收:01 03 08 13 8B 19 F6 FF CB 19 F7 2E 26
14:11:15.329 设备发送:01 03 04 8D 00 05 14 D2
14:11:20.334 设备接收:01 03 0A 08 FA 25 23 00 00 00 00 00 00 0F 1D
14:11:20.344 设备发送:01 03 04 98 00 05 05 16
14:11:25.351 设备接收:01 03 0A 09 1C 25 49 00 00 00 00 00 00 76 BA
14:11:25.362 设备发送:01 03 04 A3 00 05 74 DB
14:11:30.374 设备接收:01 03 0A 09 11 25 47 00 00 00 00 00 00 C1 EA
14:11:30.395 设备发送:01 03 06 84 00 04 04 A8
14:11:35.384 设备接收:01 03 08 00 00 8E 20 00 13 59 AF 81 17
14:11:35.404 设备发送:01 03 04 04 00 01 C4 FB
14:11:40.400 设备接收:01 03 02 00 02 39 85
14:11:40.450 设备发送:01 03 05 84 00 0F 45 2B
14:11:45.425 设备接收:01 03 1E 1F 50 05 8F 04 74 21 0D 04 E4 04 23 21 13 04 CF 04 12 1F 53 05 99 04 7D 16 D4 02 E3 01 B0 C3 4B
14:11:45.443 设备发送:01 03 05 93 00 0F F5 2F
14:11:50.466 设备接收:01 03 1E 00 00 00 00 00 00 1A 4C 05 D8 03 EF 1C 04 02 E6 02 14 1B D3 02 ED 02 16 00 00 00 02 00 00 E4 9C
14:11:50.486 设备发送:01 03 05 A2 00 0F A4 E0
14:11:55.469 设备接收:01 03 1E 00 00 00 00 00 00 00 00 00 00 00 00 00 00 00 00 00 00 00 00 00 00 00 00 00 00 00 00 00 00 D8 BA
14:11:55.500 设备发送:01 03 05 B1 00 03 55 20
14:12:00.502 设备接收:01 03 06 00 00 00 00 00 00 21 75
14:12:00.521 设备发送:01 03 04 2B 00 01 F5 32
14:12:05.509 设备接收:01 03 02 02 46 38 D6
14:12:05.530 设备发送:01 03 04 20 00 01 84 F0
14:12:10.527 设备接收:01 03 02 00 32 39 91
14:12:10.549 设备发送:01 03 04 05 00 01 95 3B
14:12:15.556 设备接收:01 03 02 00 00 B8 44
14:12:15.574 设备发送:02 03 04 84 00 04 05 23
14:12:20.554 设备接收:02 03 08 13 87 19 4B FF 69 19 4D A1 28
14:12:20.617 设备发送:02 03 04 8D 00 05 14 E1
14:12:25.605 设备接收:02 03 0A 08 FC 24 40 00 00 00 00 00 00 B3 B4
14:12:25.627 设备发送:02 03 04 98 00 05 05 25
14:12:30.615 设备接收:02 03 0A 09 1F 24 3F 00 00 00 00 00 00 B1 82
14:12:30.635 设备发送:02 03 04 A3 00 05 74 E8
14:12:35.646 设备接收:02 03 0A 09 0C 24 44 00 00 00 00 00 00 A3 B5
14:12:35.667 设备发送:02 03 06 84 00 04 04 9B
14:12:40.680 设备接收:02 03 08 00 00 8A F6 00 13 A0 87 84 4B
14:12:40.701 设备发送:02 03 04 04 00 01 C4 C8
14:12:45.695 设备接收:02 03 02 00 02 7D 85
14:12:45.705 设备发送:02 03 05 84 00 0F 45 18
14:12:50.686 设备接收:02 03 1E 1F 2B 02 AF 02 24 1F 57 02 A6 02 20 1F 2E 02 B6 02 2A 1F 73 05 58 04 4E 1F 4E 02 A5 02 1F 6B 25
14:12:50.739 设备发送:02 03 05 93 00 0F F5 1C
14:12:55.738 设备接收:02 03 1E 1F 26 02 A2 02 19 1F 41 02 B8 02 2C 1F 05 05 82 04 60 1F 27 02 BC 02 2E 1F 50 02 D6 02 45 17 42
14:12:55.749 设备发送:02 03 05 A2 00 0F A4 D3
14:13:00.748 设备接收:02 03 1E 00 00 00 04 00 00 00 00 00 00 00 00 00 00 00 00 00 00 00 00 00 00 00 00 00 00 00 00 00 00 92 31
14:13:00.758 设备发送:02 03 05 B1 00 03 55 13
14:13:05.774 设备接收:02 03 06 00 00 00 00 00 00 35 85
14:13:05.782 设备发送:02 03 04 2B 00 01 F5 01
14:13:10.773 设备接收:02 03 02 02 33 BD 31
14:13:10.792 设备发送:02 03 04 20 00 01 84 C3
14:13:15.802 设备接收:02 03 02 00 3E 7D 94
14:13:15.813 设备发送:02 03 04 05 00 01 95 08
14:13:20.808 设备接收:02 03 02 00 00 FC 44
14:13:20.850 设备发送:03 03 04 84 00 04 04 F2
14:13:25.843 设备接收:03 03 08 13 8B 1A 40 FF CC 1A 40 1D 30
14:13:25.853 设备发送:03 03 04 8D 00 05 15 30
14:13:30.875 设备接收:03 03 0A 08 FA 25 93 00 00 00 00 00 00 B9 94
14:13:30.884 设备发送:03 03 04 98 00 05 04 F4
14:13:35.904 设备接收:03 03 0A 09 1F 25 BD 00 00 00 00 00 00 D0 C7
14:13:35.948 设备发送:03 03 04 A3 00 05 75 39
14:13:40.930 设备接收:03 03 0A 09 0F 25 CD 00 00 00 00 00 00 6C C0
14:13:40.962 设备发送:03 03 06 84 00 04 05 4A
14:13:45.940 设备接收:03 03 08 00 00 93 42 00 14 2E 5F E6 9F
14:13:45.956 设备发送:03 03 04 04 00 01 C5 19
14:13:50.977 设备接收:03 03 02 00 02 40 45
14:13:50.993 设备发送:03 03 05 84 00 0F 44 C9
14:13:55.959 设备接收:03 03 1E 1F 71 05 CD 04 AB 1F 0C 05 E2 04 AD 20 D6 05 12 04 43 20 D6 05 0F 04 41 16 DC 05 DD 03 6E AD DB
14:13:55.975 设备发送:03 03 05 93 00 0F F4 CD
14:14:00.991 设备接收:03 03 1E 05 3F 00 00 00 00 13 E8 03 68 01 BC 1C 04 02 E3 02 12 1B AB 02 F2 02 16 05 43 00 00 00 00 85 65
14:14:01.023 设备发送:03 03 05 A2 00 0F A5 02
14:14:06.029 设备接收:03 03 1E 00 0D 00 00 00 00 00 00 00 00 00 00 00 00 00 00 00 00 00 00 00 00 00 00 00 00 00 00 00 00 C1 72
14:14:06.045 设备发送:03 03 05 B1 00 03 54 C2
14:14:11.024 设备接收:03 03 06 00 00 00 00 00 00 38 15
14:14:11.040 设备发送:03 03 04 2B 00 01 F4 D0
14:14:16.062 设备接收:03 03 02 02 44 C0 D7
14:14:16.076 设备发送:03 03 04 20 00 01 85 12
14:14:21.070 设备接收:03 03 02 00 38 C0 56
14:14:21.101 设备发送:03 03 04 05 00 01 94 D9
14:14:26.090 设备接收:03 03 02 00 00 C1 84
14:14:26.122 设备发送:04 03 04 84 00 04 05 45
14:14:31.098 设备接收:04 03 08 13 87 16 CD FF D0 16 CD E3 34
14:14:31.118 设备发送:04 03 04 8D 00 05 14 87
14:14:36.108 设备接收:04 03 0A 09 05 20 F3 00 00 00 00 00 00 06 DB
14:14:36.150 设备发送:04 03 04 98 00 05 05 43
14:14:41.155 设备接收:04 03 0A 08 F6 20 EB 00 00 00 00 00 00 DF EB
14:14:41.167 设备发送:04 03 04 A3 00 05 74 8E
14:14:46.169 设备接收:04 03 0A 09 15 20 E3 00 00 00 00 00 00 DA DA
14:14:46.180 设备发送:04 03 06 84 00 04 04 FD
14:14:51.168 设备接收:04 03 08 00 00 82 05 00 11 68 31 E8 28
14:14:51.189 设备发送:04 03 04 04 00 01 C4 AE
14:14:56.198 设备接收:04 03 02 00 02 F5 85
14:14:56.217 设备发送:04 03 05 84 00 0F 45 7E
14:15:01.225 设备接收:04 03 1E 1A 55 02 B9 01 D6 1C 05 05 73 03 E8 1A 2D 02 CB 01 DF 1B BB 05 A8 04 04 1B AA 05 95 03 F4 F0 FE
14:15:01.246 设备发送:04 03 05 93 00 0F F5 7A
14:15:06.230 设备接收:04 03 1E 1B E1 05 B0 04 0F 1B B5 05 62 03 D1 04 8A 00 04 00 00 04 A9 00 00 00 00 04 9C 00 00 00 00 9A 7D
14:15:06.251 设备发送:04 03 05 A2 00 0F A4 B5
14:15:11.269 设备接收:04 03 1E 00 00 00 00 00 00 00 00 00 04 00 00 00 00 00 00 00 00 00 00 00 00 00 00 00 00 00 00 00 00 41 3F
14:15:11.279 设备发送:04 03 05 B1 00 03 55 75
14:15:16.286 设备接收:04 03 06 00 00 00 00 00 00 1E 25
14:15:16.306 设备发送:04 03 04 2B 00 01 F5 67
14:15:21.307 设备接收:04 03 02 02 38 74 F6
14:15:21.328 设备发送:04 03 04 20 00 01 84 A5
14:15:26.336 设备接收:04 03 02 00 36 F4 52
14:15:26.344 设备发送:04 03 04 05 00 01 95 6E
14:15:31.341 设备接收:04 03 02 00 00 74 44
14:15:31.363 设备发送:05 03 04 84 00 04 04 94
14:15:36.380 设备接收:05 03 08 13 86 13 00 FF D8 13 00 99 8A
14:15:36.390 设备发送:05 03 04 8D 00 05 15 56
14:15:41.401 设备接收:05 03 0A 08 FC 1B 75 00 00 00 00 00 00 9E A4
14:15:41.416 设备发送:05 03 04 98 00 05 04 92
14:15:46.422 设备接收:05 03 0A 09 0B 1B 59 00 00 00 00 00 00 00 97
14:15:46.442 设备发送:05 03 04 A3 00 05 75 5F
14:15:51.441 设备接收:05 03 0A 09 0D 1B 5A 00 00 00 00 00 00 18 37
14:15:51.453 设备发送:05 03 06 84 00 04 05 2C
14:15:56.465 设备接收:05 03 08 00 00 6C F3 00 0E AF F7 D0 2B
14:15:56.474 设备发送:05 03 04 04 00 01 C5 7F
14:16:01.468 设备接收:05 03 02 00 02 C8 45
14:16:01.489 设备发送:05 03 05 84 00 0F 44 AF
14:16:06.481 设备接收:05 03 1E 04 96 00 00 00 00 16 B3 05 A7 03 49 17 2B 05 5D 03 2E 17 1A 05 5B 03 2B 1D 84 02 98 01 F5 0E B8
14:16:06.505 设备发送:05 03 05 93 00 0F F4 AB
14:16:11.500 设备接收:05 03 1E 1D B3 02 AA 02 07 04 81 00 01 00 00 18 D8 05 6B 03 72 04 8E 00 00 00 00 15 2E 05 54 02 E3 2D B2
14:16:11.523 设备发送:05 03 05 A2 00 0F A5 64
14:16:16.540 设备接收:05 03 1E 00 07 00 00 00 00 00 01 00 03 00 00 00 00 00 00 00 00 00 00 00 00 00 00 00 00 00 00 00 00 D7 D1
14:16:16.563 设备发送:05 03 05 B1 00 03 54 A4
14:16:21.571 设备接收:05 03 06 00 00 00 00 00 00 13 B5
14:16:21.582 设备发送:05 03 04 2B 00 01 F4 B6
14:16:26.574 设备接收:05 03 02 02 5A C8 DF
14:16:26.588 设备发送:05 03 04 20 00 01 85 74
14:16:31.614 设备接收:05 03 02 00 30 49 90
14:16:31.633 设备发送:05 03 04 05 00 01 94 BF
14:16:36.620 设备接收:05 03 02 00 00 49 84
14:16:36.640 设备发送:06 03 04 84 00 04 04 A7
14:16:41.647 设备接收:06 03 08 13 85 12 A9 FF D7 12 A9 09 EA
14:16:41.656 设备发送:06 03 04 8D 00 05 15 65
14:16:46.672 设备接收:06 03 0A 09 01 1A F8 00 00 00 00 00 00 0A F2
14:16:46.694 设备发送:06 03 04 98 00 05 04 A1
14:16:51.721 设备接收:06 03 0A 09 0F 1A E9 00 00 00 00 00 00 47 93
14:16:51.743 设备发送:06 03 04 A3 00 05 75 6C
14:16:56.709 设备接收:06 03 0A 09 0D 1A F0 00 00 00 00 00 00 D6 32
14:16:56.727 设备发送:06 03 06 84 00 04 05 1F
14:17:01.740 设备接收:06 03 08 00 00 6A 88 00 0E 9D B5 AE 52
14:17:01.761 设备发送:06 03 04 04 00 01 C5 4C
14:17:06.740 设备接收:06 03 02 00 02 8C 45
14:17:06.791 设备发送:06 03 05 84 00 0F 44 9C
14:17:11.795 设备接收:06 03 1E 04 86 00 04 00 00 1C 1E 05 30 03 BC 1C 40 05 3F 03 CB 1A B5 02 A7 01 D0 1D B4 05 5F 04 16 CF 30
14:17:11.815 设备发送:06 03 05 93 00 0F F4 98
14:17:16.809 设备接收:06 03 1E 04 81 00 00 00 00 04 70 00 00 00 00 16 F9 05 73 03 34 04 73 00 03 00 00 15 1F 05 6C 02 EE 57 05
14:17:16.817 设备发送:06 03 05 A2 00 0F A5 57
14:17:21.824 设备接收:06 03 1E 00 09 00 00 00 00 00 00 00 00 00 00 00 00 00 00 00 00 00 00 00 00 00 00 00 00 00 00 00 00 1D 74
14:17:21.834 设备发送:06 03 05 B1 00 03 54 97
14:17:26.835 设备接收:06 03 06 00 00 00 00 00 00 07 45
14:17:26.855 设备发送:06 03 04 2B 00 01 F4 85
14:17:31.857 设备接收:06 03 02 02 42 8C D5
14:17:31.878 设备发送:06 03 04 20 00 01 85 47
14:17:36.883 设备接收:06 03 02 00 27 4D 9E
14:17:36.893 设备发送:06 03 04 05 00 01 94 8C
14:17:41.897 设备接收:06 03 02 00 00 0D 84
14:17:41.909 设备发送:07 03 04 84 00 04 05 76
14:17:46.931 设备接收:07 03 08 13 85 09 EA FF EA 09 F0 10 34
14:17:46.953 设备发送:07 03 04 8D 00 05 14 B4
14:17:51.930 设备接收:07 03 0A 08 FD 0E 56 00 00 00 00 00 00 47 87
14:17:51.951 设备发送:07 03 04 98 00 05 05 70
14:17:56.952 设备接收:07 03 0A 08 FE 0E 60 00 00 00 00 00 00 05 74
14:17:57.004 设备发送:07 03 04 A3 00 05 74 BD
14:18:01.980 设备接收:07 03 0A 09 00 0E 66 00 00 00 00 00 00 7A D5
14:18:01.991 设备发送:07 03 06 84 00 04 04 CE
14:18:07.026 设备接收:07 03 08 00 00 39 44 00 07 44 CD 3D 6D
14:18:07.036 设备发送:07 03 04 04 00 01 C4 9D
14:18:12.028 设备接收:07 03 02 00 02 B1 85
14:18:12.048 设备发送:07 03 05 84 00 0F 45 4D
14:18:17.048 设备接收:07 03 1E 18 A4 05 41 03 51 1A 03 02 B2 01 CB 1A 67 02 95 01 BF 18 F0 05 2A 03 4C 00 00 00 00 00 00 66 77
14:18:17.067 设备发送:07 03 05 93 00 0F F5 49
14:18:22.073 设备接收:07 03 1E 00 00 00 00 00 00 00 00 00 00 00 00 00 00 00 00 00 00 00 00 00 00 00 00 00 00 00 00 00 00 B0 BB
14:18:22.094 设备发送:07 03 05 A2 00 0F A4 86
14:18:27.101 设备接收:07 03 1E 00 00 00 00 00 00 00 00 00 00 00 00 00 00 00 00 00 00 00 00 00 00 00 00 00 00 00 00 00 00 B0 BB
14:18:27.121 设备发送:07 03 05 B1 00 03 55 46
14:18:32.109 设备接收:07 03 06 00 00 00 00 00 00 0A D5
14:18:32.130 设备发送:07 03 04 2B 00 01 F5 54
14:18:37.142 设备接收:07 03 02 01 81 F1 B4
14:18:37.161 设备发送:07 03 04 20 00 01 84 96
14:18:42.142 设备接收:07 03 02 00 22 B0 5D
14:18:42.162 设备发送:07 03 04 05 00 01 95 5D
14:18:47.194 设备接收:07 03 02 00 00 30 44
14:18:47.203 设备发送:08 03 04 84 00 04 05 89
14:18:52.217 设备接收:08 03 08 13 85 14 D7 FF D2 14 D7 86 EF
14:18:52.229 设备发送:08 03 04 8D 00 05 14 4B
14:18:57.226 设备接收:08 03 0A 08 F3 1E 65 00 00 00 00 00 00 1D E7
14:18:57.246 设备发送:08 03 04 98 00 05 05 8F
14:19:02.227 设备接收:08 03 0A 08 E8 1E 5B 00 00 00 00 00 00 7C D4
14:19:02.237 设备发送:08 03 04 A3 00 05 74 42
14:19:07.253 设备接收:08 03 0A 08 F4 1E 79 00 00 00 00 00 00 E6 16
14:19:07.285 设备发送:08 03 06 84 00 04 04 31
14:19:12.281 设备接收:08 03 08 00 00 7A 0E 00 0F D2 6D 74 5E
14:19:12.292 设备发送:08 03 04 04 00 01 C4 62
14:19:17.291 设备接收:08 03 02 00 02 E5 84
14:19:17.312 设备发送:08 03 05 84 00 0F 45 B2
14:19:22.328 设备接收:08 03 1E 11 33 02 48 01 01 1A D8 01 DE 01 49 1A D9 01 F8 01 5A 1A 3D 04 AB 03 22 19 4F 04 D4 03 21 41 93
14:19:22.350 设备发送:08 03 05 93 00 0F F5 B6
14:19:27.344 设备接收:08 03 1E 1D 0D 04 DF 03 9F 1D FF 02 71 01 E0 1A 91 02 4A 01 8E 19 40 02 63 01 8B 1A 8D 04 C1 03 3B A3 17
14:19:27.364 设备发送:08 03 05 A2 00 0F A4 79
14:19:32.365 设备发送:08 03 05 B1 00 03 55 B9
14:19:32.398 设备接收:08 03 1E 00 00 00 08 00 00 00 00 00 05 00 00 00 00 00 00 00 00 00 00 00 00 00 00 00 00 00 00 00 00 7E BB
14:19:37.379 设备接收:08 03 06 00 00 00 00 00 00 4B 25
14:19:37.401 设备发送:08 03 04 2B 00 01 F5 AB
14:19:42.405 设备接收:08 03 02 01 75 A4 32
14:19:42.415 设备发送:08 03 04 20 00 01 84 69
14:19:47.411 设备接收:08 03 02 00 23 25 9C
14:19:47.431 设备发送:08 03 04 05 00 01 95 A2
14:19:52.425 设备接收:08 03 02 00 00 64 45
14:19:52.446 设备发送:09 03 04 84 00 04 04 58
14:19:57.441 设备接收:09 03 08 13 8C 12 C0 FF D8 12 C0 0C DA
14:19:57.462 设备发送:09 03 04 8D 00 05 15 9A
14:20:02.473 设备接收:09 03 0A 08 F7 1B 3E 00 00 00 00 00 00 07 5C
14:20:02.494 设备发送:09 03 04 98 00 05 04 5E
14:20:07.504 设备接收:09 03 0A 08 EE 1B 45 00 00 00 00 00 00 6B CB
14:20:07.532 设备发送:09 03 04 A3 00 05 75 93
14:20:12.514 设备接收:09 03 0A 09 00 1B 33 00 00 00 00 00 00 A8 6D
14:20:12.524 设备发送:09 03 06 84 00 04 05 E0
14:20:17.521 设备接收:09 03 08 00 00 6D 1B 00 0E 64 49 59 FD
14:20:17.542 设备发送:09 03 04 04 00 01 C5 B3
14:20:22.569 设备接收:09 03 02 00 02 D8 44
14:20:22.579 设备发送:09 03 05 84 00 0F 44 63
14:20:27.577 设备接收:09 03 1E 1D F1 01 C2 01 59 1E 2D 01 C9 01 61 1E 03 01 F3 01 80 1E 49 02 29 01 AD 1D E6 01 DF 01 6E 6F 7B
14:20:27.586 设备发送:09 03 05 93 00 0F F4 67
14:20:32.612 设备接收:09 03 1E 1E 0D 04 6F 03 69 1D DD 02 1F 01 9F 1E 00 04 C5 03 AA 1D 8C 02 2D 01 A5 1D 7D 02 37 01 AC 62 0E
14:20:32.632 设备发送:09 03 05 A2 00 0F A5 A8
14:20:37.626 设备接收:09 03 1E 00 04 00 00 00 00 00 02 00 04 00 00 00 00 00 00 00 00 00 00 00 00 00 00 00 00 00 00 00 00 65 83
14:20:37.650 设备发送:09 03 05 B1 00 03 54 68
14:20:42.646 设备接收:09 03 06 00 00 00 00 00 00 46 B5
14:20:42.668 设备发送:09 03 04 2B 00 01 F4 7A
14:20:47.655 设备接收:09 03 02 01 9A D8 7E
14:20:47.666 设备发送:09 03 04 20 00 01 85 B8
14:20:52.680 设备接收:09 03 02 00 23 18 5C
14:20:52.689 设备发送:09 03 04 05 00 01 94 73
14:20:57.704 设备接收:09 03 02 00 00 59 85
14:20:57.732 设备发送:0A 03 04 84 00 04 04 6B
14:21:02.722 设备接收:0A 03 08 13 8A 04 67 FF CE 04 6D 7C A8
14:21:02.733 设备发送:0A 03 04 8D 00 05 15 A9
14:21:07.747 设备接收:0A 03 0A 08 FE 06 69 00 00 00 00 00 00 8E 9F
14:21:07.757 设备发送:0A 03 04 98 00 05 04 6D
14:21:12.760 设备接收:0A 03 0A 08 FB 06 67 00 00 00 00 00 00 5E 0F
14:21:12.812 设备发送:0A 03 04 A3 00 05 75 A0
14:21:17.799 设备接收:0A 03 0A 09 02 06 66 00 00 00 00 00 00 71 5E
14:21:17.822 设备发送:0A 03 06 84 00 04 05 D3
14:21:22.808 设备接收:0A 03 08 00 00 1A 00 00 03 3F 88 53 5F
14:21:22.825 设备发送:0A 03 04 04 00 01 C5 80
14:21:27.832 设备接收:0A 03 02 00 02 9C 44
14:21:27.853 设备发送:0A 03 05 84 00 0F 44 50
14:21:32.873 设备接收:0A 03 1E 18 99 02 50 01 74 18 5B 02 6B 01 82 18 E9 02 71 01 8E 0B D9 00 00 00 00 00 00 00 00 00 00 80 56
14:21:32.906 设备发送:0A 03 05 93 00 0F F4 54
14:21:37.885 设备接收:0A 03 1E 00 00 00 00 00 00 00 00 00 00 00 00 00 00 00 00 00 00 00 00 00 00 00 00 00 00 00 00 00 00 0D 79
14:21:37.906 设备发送:0A 03 05 A2 00 0F A5 9B
14:21:42.915 设备接收:0A 03 1E 00 00 00 00 00 00 00 00 00 00 00 00 00 00 00 00 00 00 00 00 00 00 00 00 00 00 00 00 00 00 0D 79
14:21:42.926 设备发送:0A 03 05 B1 00 03 54 5B
14:21:47.954 设备接收:0A 03 06 00 00 00 00 00 00 52 45
14:21:47.966 设备发送:0A 03 04 2B 00 01 F4 49
14:21:52.951 设备接收:0A 03 02 01 AD DD A8
14:21:52.972 设备发送:0A 03 04 20 00 01 85 8B
14:21:57.991 设备接收:0A 03 02 00 29 DC 5B
14:21:58.003 设备发送:0A 03 04 05 00 01 94 40
14:22:03.007 设备接收:0A 03 02 00 00 1D 85
14:22:03.026 设备发送:01 03 04 84 00 04 05 10
14:22:08.037 设备接收:01 03 08 13 86 18 A2 00 2B 18 A2 32 B6
14:22:08.057 设备发送:01 03 04 8D 00 05 14 D2
14:22:13.065 设备接收:01 03 0A 08 FC 23 63 00 00 00 00 00 00 E5 53
14:22:13.093 设备发送:01 03 04 98 00 05 05 16
14:22:18.078 设备接收:01 03 0A 09 1B 23 58 00 00 00 00 00 00 D1 A1
14:22:18.100 设备发送:01 03 04 A3 00 05 74 DB
14:22:23.093 设备接收:01 03 0A 09 10 23 4A 00 00 00 00 00 00 90 90
14:22:23.110 设备发送:01 03 06 84 00 04 04 A8
14:22:28.098 设备接收:01 03 08 00 00 92 B7 00 13 5A 24 B6 01
14:22:28.120 设备发送:01 03 04 04 00 01 C4 FB
14:22:33.119 设备接收:01 03 02 00 02 39 85
14:22:33.139 设备发送:01 03 05 84 00 0F 45 2B
14:22:38.161 设备接收:01 03 1E 1F 78 05 35 04 32 21 09 04 B0 03 F7 21 0E 04 98 03 E3 1F A3 05 3D 04 3E 16 FD 02 B5 01 98 CD 82
14:22:38.171 设备发送:01 03 05 93 00 0F F5 2F
14:22:43.183 设备接收:01 03 1E 00 00 00 00 00 00 19 FD 05 93 03 B5 1C 2E 02 B7 01 F6 1C 4C 02 B6 01 F6 00 00 00 03 00 00 DF 67
14:22:43.194 设备发送:01 03 05 A2 00 0F A4 E0
14:22:48.198 设备接收:01 03 1E 00 00 00 00 00 00 00 00 00 00 00 00 00 00 00 00 00 00 00 00 00 00 00 00 00 00 00 00 00 00 D8 BA
14:22:48.218 设备发送:01 03 05 B1 00 03 55 20
14:22:53.202 设备接收:01 03 06 00 00 00 00 00 00 21 75
14:22:53.221 设备发送:01 03 04 2B 00 01 F5 32
14:22:58.216 设备接收:01 03 02 02 46 38 D6
14:22:58.235 设备发送:01 03 04 20 00 01 84 F0
14:23:03.263 设备接收:01 03 02 00 29 79 9A
14:23:03.288 设备发送:01 03 04 05 00 01 95 3B
14:23:08.264 设备接收:01 03 02 00 00 B8 44
14:23:08.285 设备发送:02 03 04 84 00 04 05 23
14:23:13.294 设备接收:02 03 08 13 85 17 D9 FF D0 17 D9 EE 31
14:23:13.315 设备发送:02 03 04 8D 00 05 14 E1
14:23:18.299 设备接收:02 03 0A 08 FB 22 3D 00 00 00 00 00 00 B8 A9
14:23:18.320 设备发送:02 03 04 98 00 05 05 25
14:23:23.349 设备接收:02 03 0A 09 1F 22 76 00 00 00 00 00 00 E9 6C
14:23:23.362 设备发送:02 03 04 A3 00 05 74 E8
14:23:28.328 设备接收:02 03 0A 09 0B 22 6E 00 00 00 00 00 00 8E 6D
14:23:28.379 设备发送:02 03 06 84 00 04 04 9B
14:23:33.358 设备接收:02 03 08 00 00 8F 6C 00 13 A0 F9 5C 22
14:23:33.380 设备发送:02 03 04 04 00 01 C4 C8
14:23:38.402 设备接收:02 03 02 00 02 7D 85
14:23:38.411 设备发送:02 03 05 84 00 0F 45 18
14:23:43.406 设备接收:02 03 1E 1F 53 02 8A 02 09 1F 4F 02 86 02 05 1F 79 02 8A 02 0C 1F 7B 05 14 04 17 1F 54 02 85 02 05 C4 A4
14:23:43.417 设备发送:02 03 05 93 00 0F F5 1C
14:23:48.446 设备接收:02 03 1E 1F 23 02 83 02 00 1F 90 02 8D 02 10 1F 53 05 31 04 2A 1F 78 02 94 02 14 1E FF 02 BA 02 2A D6 29
14:23:48.456 设备发送:02 03 05 A2 00 0F A4 D3
14:23:53.445 设备接收:02 03 1E 00 00 00 03 00 00 00 00 00 00 00 00 00 00 00 00 00 00 00 00 00 00 00 00 00 00 00 00 00 00 6D 7D
14:23:53.467 设备发送:02 03 05 B1 00 03 55 13
14:23:58.461 设备接收:02 03 06 00 00 00 00 00 00 35 85
14:23:58.479 设备发送:02 03 04 2B 00 01 F5 01
14:24:03.502 设备接收:02 03 02 02 33 BD 31
14:24:03.523 设备发送:02 03 04 20 00 01 84 C3
14:24:08.508 设备接收:02 03 02 00 40 FD B4
14:24:08.519 设备发送:02 03 04 05 00 01 95 08
14:24:13.511 设备接收:02 03 02 00 00 FC 44
14:24:13.560 设备发送:03 03 04 84 00 04 04 F2
14:24:18.559 设备接收:03 03 08 13 8B 19 2B 00 2B 19 2B F9 F6
14:24:18.577 设备发送:03 03 04 8D 00 05 15 30
14:24:23.559 设备接收:03 03 0A 08 F5 24 1E 00 00 00 00 00 00 64 A0
14:24:23.619 设备发送:03 03 04 98 00 05 04 F4
14:24:28.578 设备接收:03 03 0A 09 1D 23 E5 00 00 00 00 00 00 90 48
14:24:28.636 设备发送:03 03 04 A3 00 05 75 39
14:24:33.637 设备发送:03 03 04 A3 00 05 75 39
14:24:38.628 设备接收:03 03 0A 09 0E 24 20 00 00 00 00 00 00 9D 92
14:24:38.647 设备发送:03 03 06 84 00 04 05 4A
14:24:43.669 设备接收:03 03 08 00 00 97 F6 00 14 2E D8 17 63
14:24:43.681 设备发送:03 03 04 04 00 01 C5 19
14:24:48.690 设备接收:03 03 02 00 02 40 45
14:24:48.699 设备发送:03 03 05 84 00 0F 44 C9
14:24:53.699 设备接收:03 03 1E 1F 71 05 84 04 71 1F 33 05 94 04 74 20 CB 04 E0 04 17 20 CC 04 E0 04 18 17 02 05 8F 03 46 1B 6E
14:24:53.722 设备发送:03 03 05 93 00 0F F4 CD
14:24:58.699 设备接收:03 03 1E 05 41 00 00 00 00 13 C3 03 A4 01 D7 1B B5 02 CC 01 FC 1B AB 02 CF 01 FD 05 47 00 00 00 00 FE 34
14:24:58.722 设备发送:03 03 05 A2 00 0F A5 02
14:25:03.741 设备接收:03 03 1E 00 0D 00 00 00 00 00 00 00 00 00 00 00 00 00 00 00 00 00 00 00 00 00 00 00 00 00 00 00 00 C1 72
14:25:03.752 设备发送:03 03 05 B1 00 03 54 C2
14:25:08.762 设备接收:03 03 06 00 00 00 00 00 00 38 15
14:25:08.782 设备发送:03 03 04 2B 00 01 F4 D0
14:25:13.789 设备接收:03 03 02 02 44 C0 D7
14:25:13.808 设备发送:03 03 04 20 00 01 85 12
14:25:18.800 设备接收:03 03 02 00 2C C0 59
14:25:18.820 设备发送:03 03 04 05 00 01 94 D9
14:25:23.828 设备接收:03 03 02 00 00 C1 84
14:25:23.857 设备发送:04 03 04 84 00 04 05 45
14:25:28.838 设备接收:04 03 08 13 86 15 D0 FF D0 15 D0 DF 3C
14:25:28.849 设备发送:04 03 04 8D 00 05 14 87
14:25:33.850 设备接收:04 03 0A 09 02 1F 94 00 00 00 00 00 00 75 79
14:25:33.861 设备发送:04 03 04 98 00 05 05 43
14:25:38.869 设备接收:04 03 0A 08 F6 1F 8A 00 00 00 00 00 00 EC 79
14:25:38.878 设备发送:04 03 04 A3 00 05 74 8E
14:25:43.890 设备接收:04 03 0A 09 11 1F 90 00 00 00 00 00 00 E9 89
14:25:43.899 设备发送:04 03 06 84 00 04 04 FD
14:25:48.906 设备接收:04 03 08 00 00 86 17 00 11 68 99 50 11
14:25:48.927 设备发送:04 03 04 04 00 01 C4 AE
14:25:53.931 设备接收:04 03 02 00 02 F5 85
14:25:53.940 设备发送:04 03 05 84 00 0F 45 7E
14:25:58.973 设备接收:04 03 1E 1A 7D 02 9D 01 C5 1C 06 05 3B 03 C0 1A 2A 02 AD 01 CB 1C 0A 05 63 03 DE 1B F8 05 54 03 D1 53 42
14:25:58.984 设备发送:04 03 05 93 00 0F F5 7A
14:26:03.973 设备接收:04 03 1E 1C 2F 05 6D 03 EA 1C 2B 05 0C 03 A4 04 93 00 03 00 00 04 B0 00 00 00 00 04 A5 00 00 00 00 35 7F
14:26:03.981 设备发送:04 03 05 A2 00 0F A4 B5
14:26:09.001 设备接收:04 03 1E 00 00 00 00 00 00 00 00 00 05 00 00 00 00 00 00 00 00 00 00 00 00 00 00 00 00 00 00 00 00 51 EE
14:26:09.012 设备发送:04 03 05 B1 00 03 55 75
14:26:14.022 设备接收:04 03 06 00 00 00 00 00 00 1E 25
14:26:14.047 设备发送:04 03 04 2B 00 01 F5 67
14:26:19.029 设备接收:04 03 02 02 38 74 F6
14:26:19.041 设备发送:04 03 04 20 00 01 84 A5
14:26:24.056 设备接收:04 03 02 00 26 F5 9E
14:26:24.067 设备发送:04 03 04 05 00 01 95 6E
14:26:29.087 设备接收:04 03 02 00 00 74 44
14:26:29.108 设备发送:05 03 04 84 00 04 04 94
14:26:34.110 设备接收:05 03 08 13 8C 12 41 00 1D 12 41 EF DD
14:26:34.122 设备发送:05 03 04 8D 00 05 15 56
14:26:39.107 设备接收:05 03 0A 08 FE 1A 6D 00 00 00 00 00 00 DE 09
14:26:39.116 设备发送:05 03 04 98 00 05 04 92
14:26:44.156 设备接收:05 03 0A 09 09 1A 51 00 00 00 00 00 00 51 FB
14:26:44.166 设备发送:05 03 04 A3 00 05 75 5F
14:26:49.149 设备接收:05 03 0A 09 07 1A 67 00 00 00 00 00 00 4B 98
14:26:49.192 设备发送:05 03 06 84 00 04 05 2C
14:26:54.196 设备接收:05 03 08 00 00 70 59 00 0E B0 4E 03 ED
14:26:54.206 设备发送:05 03 04 04 00 01 C5 7F
14:26:59.195 设备接收:05 03 02 00 02 C8 45
14:26:59.222 设备发送:05 03 05 84 00 0F 44 AF
14:27:04.216 设备接收:05 03 1E 04 9F 00 00 00 00 17 03 05 5E 03 29 17 2D 05 24 03 0D 17 42 05 18 03 09 1D AC 02 7B 01 E2 B2 B1
14:27:04.239 设备发送:05 03 05 93 00 0F F4 AB
14:27:09.253 设备接收:05 03 1E 1D DA 02 88 01 EF 04 8B 00 01 00 00 19 03 05 2D 03 50 04 98 00 00 00 00 15 7B 05 09 02 C5 73 44
14:27:09.267 设备发送:05 03 05 A2 00 0F A5 64
14:27:14.255 设备接收:05 03 1E 00 06 00 00 00 00 00 00 00 04 00 00 00 00 00 00 00 00 00 00 00 00 00 00 00 00 00 00 00 00 AC FB
14:27:14.275 设备发送:05 03 05 B1 00 03 54 A4
14:27:19.270 设备接收:05 03 06 00 00 00 00 00 00 13 B5
14:27:19.290 设备发送:05 03 04 2B 00 01 F4 B6
14:27:24.325 设备接收:05 03 02 02 5A C8 DF
14:27:24.338 设备发送:05 03 04 20 00 01 85 74
14:27:29.317 设备接收:05 03 02 00 23 08 5D
14:27:29.327 设备发送:05 03 04 05 00 01 94 BF
14:27:34.340 设备接收:05 03 02 00 00 49 84
14:27:34.359 设备发送:06 03 04 84 00 04 04 A7
14:27:39.374 设备接收:06 03 08 13 8B 12 13 00 1D 12 13 AE 68
14:27:39.397 设备发送:06 03 04 8D 00 05 15 65
14:27:44.373 设备接收:06 03 0A 09 01 1A 09 00 00 00 00 00 00 EA 3D
14:27:44.402 设备发送:06 03 04 98 00 05 04 A1
14:27:49.414 设备接收:06 03 0A 09 0C 1A 0A 00 00 00 00 00 00 81 AD
14:27:49.424 设备发送:06 03 04 A3 00 05 75 6C
14:27:54.431 设备接收:06 03 0A 09 0A 1A 2E 00 00 00 00 00 00 CE 0F
14:27:54.447 设备发送:06 03 06 84 00 04 05 1F
14:27:59.435 设备接收:06 03 08 00 00 6D DD 00 0E 9E 0A E2 A9
14:27:59.456 设备发送:06 03 04 04 00 01 C5 4C
14:28:04.473 设备接收:06 03 02 00 02 8C 45
14:28:04.494 设备发送:06 03 05 84 00 0F 44 9C
14:28:09.491 设备接收:06 03 1E 04 8C 00 03 00 00 1C 6A 04 F2 03 99 1C 8E 04 FF 03 A7 1B 03 02 85 01 BE 1D D9 05 2F 03 F6 34 3A
14:28:09.501 设备发送:06 03 05 93 00 0F F4 98
14:28:14.523 设备接收:06 03 1E 04 88 00 00 00 00 04 78 00 00 00 00 17 41 05 38 03 1B 04 7A 00 06 00 00 15 25 05 44 02 D9 3B 3A
14:28:14.551 设备发送:06 03 05 A2 00 0F A5 57
14:28:19.534 设备接收:06 03 1E 00 08 00 00 00 00 00 00 00 00 00 00 00 00 00 00 00 00 00 00 00 00 00 00 00 00 00 00 00 00 DD 75
14:28:19.555 设备发送:06 03 05 B1 00 03 54 97
14:28:24.545 设备接收:06 03 06 00 00 00 00 00 00 07 45
14:28:24.595 设备发送:06 03 04 2B 00 01 F4 85
14:28:29.584 设备接收:06 03 02 02 42 8C D5
14:28:29.592 设备发送:06 03 04 20 00 01 85 47
14:28:34.585 设备接收:06 03 02 00 23 4C 5D
14:28:34.605 设备发送:06 03 04 05 00 01 94 8C
14:28:39.620 设备接收:06 03 02 00 00 0D 84
14:28:39.629 设备发送:07 03 04 84 00 04 05 76
14:28:44.640 设备接收:07 03 08 13 89 09 A6 FF EA 09 AC CD C3
14:28:44.649 设备发送:07 03 04 8D 00 05 14 B4
14:28:49.653 设备接收:07 03 0A 08 FB 0D F7 00 00 00 00 00 00 9C F8
14:28:49.672 设备发送:07 03 04 98 00 05 05 70
14:28:54.675 设备接收:07 03 0A 08 FE 0D F7 00 00 00 00 00 00 A3 A8
14:28:54.695 设备发送:07 03 04 A3 00 05 74 BD
14:28:59.691 设备接收:07 03 0A 08 FC 0D F1 00 00 00 00 00 00 DC C8
14:28:59.713 设备发送:07 03 06 84 00 04 04 CE
14:29:04.715 设备接收:07 03 08 00 00 3B 09 00 07 44 FB 90 97
14:29:04.727 设备发送:07 03 04 04 00 01 C4 9D
14:29:09.732 设备接收:07 03 02 00 02 B1 85
14:29:09.752 设备发送:07 03 05 84 00 0F 45 4D
14:29:14.759 设备接收:07 03 1E 18 A5 05 18 03 37 1A 53 02 9A 01 C0 1A 16 02 87 01 B0 19 18 04 FC 03 34 00 00 00 00 00 00 38 A5
14:29:14.778 设备发送:07 03 05 93 00 0F F5 49
14:29:19.769 设备接收:07 03 1E 00 00 00 00 00 00 00 00 00 00 00 00 00 00 00 00 00 00 00 00 00 00 00 00 00 00 00 00 00 00 B0 BB
14:29:19.777 设备发送:07 03 05 A2 00 0F A4 86
14:29:24.807 设备接收:07 03 1E 00 00 00 00 00 00 00 00 00 00 00 00 00 00 00 00 00 00 00 00 00 00 00 00 00 00 00 00 00 00 B0 BB
14:29:24.825 设备发送:07 03 05 B1 00 03 55 46
14:29:29.821 设备接收:07 03 06 00 00 00 00 00 00 0A D5
14:29:29.831 设备发送:07 03 04 2B 00 01 F5 54
14:29:34.827 设备接收:07 03 02 01 81 F1 B4
14:29:34.850 设备发送:07 03 04 20 00 01 84 96
14:29:39.880 设备接收:07 03 02 00 20 31 9C
14:29:40.270 设备发送:07 03 04 05 00 01 95 5D
14:29:44.880 设备接收:07 03 02 00 00 30 44
14:29:44.926 设备发送:08 03 04 84 00 04 05 89
14:29:49.911 设备接收:08 03 08 13 86 14 0D FF 86 14 0E 6C 76
14:29:49.927 设备发送:08 03 04 8D 00 05 14 4B
14:29:54.936 设备接收:08 03 0A 08 EB 1D 36 00 00 00 00 00 00 94 F7
14:29:54.952 设备发送:08 03 04 98 00 05 05 8F
14:29:59.950 设备接收:08 03 0A 08 E7 1D 3D 00 00 00 00 00 00 7B 37
14:29:59.966 设备发送:08 03 04 A3 00 05 74 42
14:30:04.975 设备接收:08 03 0A 08 F4 1D 5A 00 00 00 00 00 00 B4 C1
14:30:05.007 设备发送:08 03 06 84 00 04 04 31
14:30:10.006 设备接收:08 03 08 00 00 7D C8 00 0F D2 CD FD 80
14:30:10.022 设备发送:08 03 04 04 00 01 C4 62
14:30:15.007 设备接收:08 03 02 00 02 E5 84
14:30:15.023 设备发送:08 03 05 84 00 0F 45 B2
14:30:20.040 设备接收:08 03 1E 13 62 02 10 01 06 1A D7 01 C6 01 38 1A AE 01 E5 01 4B 1A 17 04 33 02 CE 19 76 04 7E 02 ED 4D 67
14:30:20.058 设备发送:08 03 05 93 00 0F F5 B6
14:30:25.063 设备接收:08 03 1E 1D AF 04 BD 03 9A 1D D9 02 60 01 D0 1A BB 02 30 01 7F 19 6A 02 47 01 7B 1A 8F 04 90 03 1A 1E 86
14:30:25.079 设备发送:08 03 05 A2 00 0F A4 79
14:30:30.096 设备接收:08 03 1E 00 00 00 08 00 00 00 00 00 05 00 00 00 00 00 00 00 00 00 00 00 00 00 00 00 00 00 00 00 00 7E BB
14:30:30.112 设备发送:08 03 05 B1 00 03 55 B9
14:30:35.110 设备接收:08 03 06 00 00 00 00 00 00 4B 25
14:30:35.129 设备发送:08 03 04 2B 00 01 F5 AB
14:30:40.143 设备接收:08 03 02 01 75 A4 32
14:30:40.159 设备发送:08 03 04 20 00 01 84 69
14:30:45.151 设备接收:08 03 02 00 2D A4 58
14:30:45.166 设备发送:08 03 04 05 00 01 95 A2
14:30:50.159 设备接收:08 03 02 00 00 64 45
14:30:50.206 设备发送:09 03 04 84 00 04 04 58
14:30:55.194 设备接收:09 03 08 13 8A 11 F4 FF D9 11 F4 8B CA
14:30:55.225 设备发送:09 03 04 8D 00 05 15 9A
14:31:00.240 设备接收:09 03 0A 08 F7 1A 2C 00 00 00 00 00 00 F4 91
14:31:00.255 设备发送:09 03 04 98 00 05 04 5E
14:31:05.277 设备接收:09 03 0A 08 EC 1A 28 00 00 00 00 00 00 0F A1
14:31:05.292 设备发送:09 03 04 A3 00 05 75 93
14:31:10.284 设备接收:09 03 0A 08 FD 1A 22 00 00 00 00 00 00 65 F1
14:31:10.316 设备发送:09 03 06 84 00 04 05 E0
14:31:15.305 设备接收:09 03 08 00 00 70 6F 00 0E 64 9E AA 25
14:31:15.336 设备发送:09 03 04 04 00 01 C5 B3
14:31:20.330 设备接收:09 03 02 00 02 D8 44
14:31:20.346 设备发送:09 03 05 84 00 0F 44 63
14:31:25.353 设备接收:09 03 1E 1E 41 01 AB 01 4A 1E 7C 01 AE 01 50 1E 55 01 DD 01 73 1E 48 02 11 01 9A 1E 0C 01 CA 01 60 52 AA
14:31:25.369 设备发送:09 03 05 93 00 0F F4 67
14:31:30.380 设备接收:09 03 1E 1E 0C 04 35 03 3D 1E 2D 02 06 01 90 1D B0 04 A5 03 88 1D B3 02 16 01 96 1D 54 02 24 01 9B 5D 10
14:31:30.408 设备发送:09 03 05 A2 00 0F A5 A8
14:31:35.386 设备接收:09 03 1E 00 05 00 00 00 00 00 03 00 03 00 00 00 00 00 00 00 00 00 00 00 00 00 00 00 00 00 00 00 00 1E A9
14:31:35.402 设备发送:09 03 05 B1 00 03 54 68
14:31:40.413 设备接收:09 03 06 00 00 00 00 00 00 46 B5
14:31:40.460 设备发送:09 03 04 2B 00 01 F4 7A
14:31:45.437 设备接收:09 03 02 01 9A D8 7E
14:31:45.452 设备发送:09 03 04 20 00 01 85 B8
14:31:50.448 设备接收:09 03 02 00 2A D8 5A
14:31:50.464 设备发送:09 03 04 05 00 01 94 73
14:31:55.477 设备接收:09 03 02 00 00 59 85
14:31:55.515 设备发送:0A 03 04 84 00 04 04 6B
14:32:00.513 设备接收:0A 03 08 13 88 04 40 FF D7 04 46 FA B7
14:32:00.544 设备发送:0A 03 04 8D 00 05 15 A9
14:32:05.527 设备接收:0A 03 0A 08 FE 06 2D 00 00 00 00 00 00 8A 9B
14:32:05.543 设备发送:0A 03 04 98 00 05 04 6D
14:32:10.553 设备接收:0A 03 0A 08 F5 06 2B 00 00 00 00 00 00 9F AB
14:32:10.569 设备发送:0A 03 04 A3 00 05 75 A0
14:32:15.572 设备接收:0A 03 0A 09 00 06 2E 00 00 00 00 00 00 A0 3A
14:32:15.603 设备发送:0A 03 06 84 00 04 05 D3
14:32:20.603 设备接收:0A 03 08 00 00 1A CA 00 03 3F 9C CB 40
14:32:20.619 设备发送:0A 03 04 04 00 01 C5 80
14:32:25.595 设备接收:0A 03 02 00 02 9C 44
14:32:25.646 设备发送:0A 03 05 84 00 0F 44 50
14:32:30.646 设备接收:0A 03 1E 18 EB 02 2F 01 65 18 AD 02 51 01 77 18 C3 02 5B 01 7E 0B DD 00 00 00 00 00 00 00 00 00 00 BF 05
14:32:30.661 设备发送:0A 03 05 93 00 0F F4 54
14:32:35.656 设备接收:0A 03 1E 00 00 00 00 00 00 00 00 00 00 00 00 00 00 00 00 00 00 00 00 00 00 00 00 00 00 00 00 00 00 0D 79
14:32:35.686 设备发送:0A 03 05 A2 00 0F A5 9B
14:32:40.673 设备接收:0A 03 1E 00 00 00 00 00 00 00 00 00 00 00 00 00 00 00 00 00 00 00 00 00 00 00 00 00 00 00 00 00 00 0D 79
14:32:40.737 设备发送:0A 03 05 B1 00 03 54 5B
14:32:45.731 设备接收:0A 03 06 00 00 00 00 00 00 52 45
14:32:45.747 设备发送:0A 03 04 2B 00 01 F4 49
14:32:50.746 设备接收:0A 03 02 01 AD DD A8
14:32:50.762 设备发送:0A 03 04 20 00 01 85 8B
14:32:55.754 设备接收:0A 03 02 00 1D DD 8C
14:32:55.773 设备发送:0A 03 04 05 00 01 94 40
14:33:00.768 设备接收:0A 03 02 00 00 1D 85
14:33:00.784 设备发送:01 03 04 84 00 04 05 10
14:33:05.789 设备接收:01 03 08 13 88 17 A1 FF CD 17 A2 4D 9A
14:33:05.805 设备发送:01 03 04 8D 00 05 14 D2
14:33:10.818 设备接收:01 03 0A 08 FC 21 D7 00 00 00 00 00 00 90 81
14:33:10.834 设备发送:01 03 04 98 00 05 05 16
14:33:15.844 设备接收:01 03 0A 09 17 21 F0 00 00 00 00 00 00 2C B2
14:33:15.876 设备发送:01 03 04 A3 00 05 74 DB
14:33:20.857 设备接收:01 03 0A 09 11 22 23 00 00 00 00 00 00 A5 CA
14:33:20.888 设备发送:01 03 06 84 00 04 04 A8
14:33:25.888 设备接收:01 03 08 00 00 97 2D 00 13 5A 97 AF FD
14:33:25.903 设备发送:01 03 04 04 00 01 C4 FB
14:33:30.878 设备接收:01 03 02 00 02 39 85
14:33:30.899 设备发送:01 03 05 84 00 0F 45 2B
14:33:35.926 设备接收:01 03 1E 1F 77 05 04 04 0B 21 09 04 8C 03 D8 21 0E 04 73 03 C4 1F CB 05 02 04 13 17 24 02 97 01 89 C9 E4
14:33:35.936 设备发送:01 03 05 93 00 0F F5 2F
14:33:40.936 设备接收:01 03 1E 00 00 00 00 00 00 1A 4E 05 4D 03 91 1C 2B 02 99 01 DF 1C 4D 02 9A 01 E2 00 00 00 03 00 00 45 92
14:33:40.945 设备发送:01 03 05 A2 00 0F A4 E0
14:33:45.946 设备接收:01 03 1E 00 00 00 00 00 00 00 00 00 00 00 00 00 00 00 00 00 00 00 00 00 00 00 00 00 00 00 00 00 00 D8 BA
14:33:45.965 设备发送:01 03 05 B1 00 03 55 20
14:33:50.943 设备接收:01 03 06 00 00 00 00 00 00 21 75
14:33:50.963 设备发送:01 03 04 2B 00 01 F5 32
14:33:55.969 设备接收:01 03 02 02 46 38 D6
14:33:55.998 设备发送:01 03 04 20 00 01 84 F0
14:34:01.006 设备接收:01 03 02 00 2C B9 99
14:34:01.028 设备发送:01 03 04 05 00 01 95 3B
14:34:05.998 设备接收:01 03 02 00 00 B8 44
14:34:06.030 设备发送:02 03 04 84 00 04 05 23
14:34:11.034 设备接收:02 03 08 13 88 16 C3 00 28 16 C3 5B 5C
14:34:11.045 设备发送:02 03 04 8D 00 05 14 E1
14:34:16.052 设备接收:02 03 0A 08 FE 20 B8 00 00 00 00 00 00 D2 E8
14:34:16.104 设备发送:02 03 04 98 00 05 05 25
14:34:21.106 设备接收:02 03 0A 09 18 20 CB 00 00 00 00 00 00 23 8E
14:34:21.137 设备发送:02 03 04 A3 00 05 74 E8
14:34:26.102 设备接收:02 03 0A 09 0E 20 C5 00 00 00 00 00 00 2A 2E
14:34:26.133 设备发送:02 03 06 84 00 04 04 9B
14:34:31.134 设备接收:02 03 08 00 00 93 BB 00 13 A1 67 AA 54
14:34:31.166 设备发送:02 03 04 04 00 01 C4 C8
14:34:36.131 设备接收:02 03 02 00 02 7D 85
14:34:36.154 设备发送:02 03 05 84 00 0F 45 18
14:34:41.175 设备接收:02 03 1E 1F 7B 02 69 01 F1 1F 4F 02 66 01 EC 1F 9F 02 67 01 F2 1F 79 04 D4 03 E4 1F 7B 02 62 01 EC BB AE
14:34:41.206 设备发送:02 03 05 93 00 0F F5 1C
14:34:46.196 设备接收:02 03 1E 1F 22 02 61 01 E5 1F 67 02 73 01 F8 1F A3 04 E2 03 F5 1F 77 02 73 01 F9 1E D3 02 9B 02 0E 63 73
14:34:46.212 设备发送:02 03 05 A2 00 0F A4 D3
14:34:51.204 设备接收:02 03 1E 00 00 00 04 00 00 00 00 00 00 00 00 00 00 00 00 00 00 00 00 00 00 00 00 00 00 00 00 00 00 92 31
14:34:51.225 设备发送:02 03 05 B1 00 03 55 13
14:34:56.251 设备接收:02 03 06 00 00 00 00 00 00 35 85
14:34:56.271 设备发送:02 03 04 2B 00 01 F5 01
14:35:01.246 设备接收:02 03 02 02 33 BD 31
14:35:01.255 设备发送:02 03 04 20 00 01 84 C3
14:35:06.293 设备接收:02 03 02 00 43 BD B5
14:35:06.308 设备发送:02 03 04 05 00 01 95 08
14:35:11.293 设备接收:02 03 02 00 00 FC 44
14:35:11.323 设备发送:03 03 04 84 00 04 04 F2
14:35:16.312 设备接收:03 03 08 13 85 18 15 FF 70 18 17 7E 64
14:35:16.326 设备发送:03 03 04 8D 00 05 15 30
14:35:21.346 设备接收:03 03 0A 08 FB 22 A7 00 00 00 00 00 00 80 21
14:35:21.361 设备发送:03 03 04 98 00 05 04 F4
14:35:26.375 设备接收:03 03 0A 09 1D 22 90 00 00 00 00 00 00 75 43
14:35:26.391 设备发送:03 03 04 A3 00 05 75 39
14:35:31.378 设备接收:03 03 0A 09 0E 22 96 00 00 00 00 00 00 CA 73
14:35:31.409 设备发送:03 03 06 84 00 04 05 4A
14:35:36.414 设备接收:03 03 08 00 00 9C 75 00 14 2F 4B 12 3B
14:35:36.430 设备发送:03 03 04 04 00 01 C5 19
14:35:41.407 设备接收:03 03 02 00 02 40 45
14:35:41.423 设备发送:03 03 05 84 00 0F 44 C9
14:35:46.448 设备接收:03 03 1E 1F 99 05 3B 04 3B 1F 0F 05 55 04 3D 20 B7 04 AE 03 EB 20 B8 04 AF 03 EC 17 2B 05 41 03 1E C7 C0
14:35:46.463 设备发送:03 03 05 93 00 0F F4 CD
14:35:51.473 设备接收:03 03 1E 05 41 00 00 00 00 13 BB 03 83 01 C6 1C 04 02 9E 01 E1 1B D3 02 A7 01 E3 05 45 00 00 00 00 F0 1E
14:35:51.504 设备发送:03 03 05 A2 00 0F A5 02
14:35:56.490 设备接收:03 03 1E 00 0E 00 00 00 00 00 00 00 00 00 00 00 00 00 00 00 00 00 00 00 00 00 00 00 00 00 00 00 00 81 70
14:35:56.505 设备发送:03 03 05 B1 00 03 54 C2
14:36:01.524 设备接收:03 03 06 00 00 00 00 00 00 38 15
14:36:01.538 设备发送:03 03 04 2B 00 01 F4 D0
14:36:06.519 设备接收:03 03 02 02 44 C0 D7
14:36:06.551 设备发送:03 03 04 20 00 01 85 12
14:36:11.554 设备接收:03 03 02 00 2C C0 59
14:36:11.585 设备发送:03 03 04 05 00 01 94 D9
14:36:16.570 设备接收:03 03 02 00 00 C1 84
14:36:16.586 设备发送:04 03 04 84 00 04 05 45
14:36:21.569 设备接收:04 03 08 13 85 14 8D 00 22 14 8D 51 AE
14:36:21.590 设备发送:04 03 04 8D 00 05 14 87
14:36:26.612 设备接收:04 03 0A 09 03 1D BF 00 00 00 00 00 00 62 32
14:36:26.623 设备发送:04 03 04 98 00 05 05 43
14:36:31.635 设备接收:04 03 0A 08 F6 1D B4 00 00 00 00 00 00 B2 63
14:36:31.646 设备发送:04 03 04 A3 00 05 74 8E
14:36:36.637 设备接收:04 03 0A 09 0F 1D B8 00 00 00 00 00 00 41 F2
14:36:36.657 设备发送:04 03 06 84 00 04 04 FD
14:36:41.676 设备接收:04 03 08 00 00 89 F5 00 11 68 FC 68 D3
14:36:41.688 设备发送:04 03 04 04 00 01 C4 AE
14:36:46.666 设备接收:04 03 02 00 02 F5 85
14:36:46.687 设备发送:04 03 05 84 00 0F 45 7E
14:36:51.708 设备接收:04 03 1E 1A CD 02 6E 01 AB 1B DF 04 EB 03 82 1A 55 02 85 01 B3 1B BD 05 26 03 A8 1C 22 05 02 03 9B 2B 58
14:36:51.729 设备发送:04 03 05 93 00 0F F5 7A
14:36:56.724 设备接收:04 03 1E 1C 32 05 22 03 B4 1B B5 04 CE 03 68 04 95 00 03 00 00 04 B3 00 00 00 00 04 A7 00 00 00 00 3A F9
14:36:56.745 设备发送:04 03 05 A2 00 0F A4 B5
14:37:01.744 设备接收:04 03 1E 00 00 00 00 00 00 00 00 00 04 00 00 00 00 00 00 00 00 00 00 00 00 00 00 00 00 00 00 00 00 41 3F
14:37:01.765 设备发送:04 03 05 B1 00 03 55 75
14:37:06.776 设备接收:04 03 06 00 00 00 00 00 00 1E 25
14:37:06.787 设备发送:04 03 04 2B 00 01 F5 67
14:37:11.796 设备接收:04 03 02 02 38 74 F6
14:37:11.806 设备发送:04 03 04 20 00 01 84 A5
14:37:16.824 设备接收:04 03 02 00 27 34 5E
14:37:16.833 设备发送:04 03 04 05 00 01 95 6E
14:37:21.842 设备接收:04 03 02 00 00 74 44
