
15:17:03.455 设备接收:01 03 0A 09 0A 16 2A 00 00 00 00 00 00 80 DD
15:17:03.470 设备发送:01 03 04 A3 00 05 74 DB
15:17:08.492 设备接收:01 03 0A 09 09 16 4F 00 00 00 00 00 00 A1 2B
15:17:08.523 设备发送:01 03 06 84 00 04 04 A8
15:17:13.503 设备接收:01 03 08 00 00 A6 04 00 13 5C 13 F5 D9
15:17:13.519 设备发送:01 03 04 04 00 01 C4 FB
15:17:18.517 设备接收:01 03 02 00 02 39 85
15:17:18.532 设备发送:01 03 05 84 00 0F 45 2B
15:17:23.544 设备接收:01 03 1E 1F F0 02 FB 02 70 21 0B 02 D4 02 65 21 10 02 C1 02 54 1F F1 02 FB 02 70 17 9C 01 DC 01 20 68 45
15:17:23.559 设备发送:01 03 05 93 00 0F F5 2F
15:17:28.558 设备接收:01 03 1E 00 00 00 00 00 00 1A 9C 03 DF 02 A3 1C A3 01 DF 01 5F 1C 72 01 E1 01 5E 00 00 00 01 00 00 64 84
15:17:28.573 设备发送:01 03 05 A2 00 0F A4 E0
15:17:33.569 设备接收:01 03 1E 00 00 00 00 00 00 00 00 00 00 00 00 00 00 00 00 00 00 00 00 00 00 00 00 00 00 00 00 00 00 D8 BA
15:17:33.615 设备发送:01 03 05 B1 00 03 55 20
15:17:38.606 设备接收:01 03 06 00 00 00 00 00 00 21 75
15:17:38.637 设备发送:01 03 04 2B 00 01 F5 32
15:17:43.632 设备接收:01 03 02 02 46 38 D6
15:17:43.648 设备发送:01 03 04 20 00 01 84 F0
15:17:48.642 设备接收:01 03 02 00 2E 38 58
15:17:48.657 设备发送:01 03 04 05 00 01 95 3B
15:17:53.665 设备接收:01 03 02 00 00 B8 44
15:17:53.696 设备发送:02 03 04 84 00 04 05 23
15:17:58.677 设备接收:02 03 08 13 8A 10 42 FF DD 10 42 A7 02
15:17:58.692 设备发送:02 03 04 8D 00 05 14 E1
15:18:03.724 设备接收:02 03 0A 08 FB 17 72 00 00 00 00 00 00 C5 46
15:18:03.740 设备发送:02 03 04 98 00 05 05 25
15:18:08.723 设备接收:02 03 0A 09 0C 17 7F 00 00 00 00 00 00 6A 77
15:18:08.739 设备发送:02 03 04 A3 00 05 74 E8
15:18:13.756 设备发送:02 03 06 84 00 04 04 9B
15:18:13.772 设备接收:02 03 0A 09 07 17 8C 00 00 00 00 00 00 DA 48
15:18:18.756 设备接收:02 03 08 00 00 A2 3C 00 13 A2 DB 1B 2A
15:18:18.826 设备发送:02 03 04 04 00 01 C4 C8
15:18:23.787 设备接收:02 03 02 00 02 7D 85
15:18:23.803 设备发送:02 03 05 84 00 0F 45 18
15:18:28.826 设备接收:02 03 1E 21 2F 01 67 01 31 20 66 01 A5 01 5D 20 16 01 B8 01 69 20 69 03 6B 02 D6 20 42 01 AE 01 63 CA 60
15:18:28.842 设备发送:02 03 05 93 00 0F F5 1C
15:18:33.832 设备接收:02 03 1E 20 3B 01 A7 01 5D 20 31 01 C1 01 72 1F F4 03 8B 02 E6 20 3F 01 C1 01 72 1F C6 01 E5 01 8A B3 E7
15:18:33.848 设备发送:02 03 05 A2 00 0F A4 D3
15:18:38.853 设备接收:02 03 1E 00 00 00 04 00 00 00 00 00 00 00 00 00 00 00 00 00 00 00 00 00 00 00 00 00 00 00 00 00 00 92 31
15:18:38.869 设备发送:02 03 05 B1 00 03 55 13
15:18:43.907 设备接收:02 03 06 00 00 00 00 00 00 35 85
15:18:43.922 设备发送:02 03 04 2B 00 01 F5 01
15:18:48.906 设备接收:02 03 02 02 33 BD 31
15:18:48.922 设备发送:02 03 04 20 00 01 84 C3
15:18:53.927 设备接收:02 03 02 00 42 7C 75
15:18:53.943 设备发送:02 03 04 05 00 01 95 08
15:18:58.947 设备接收:02 03 02 00 00 FC 44
15:18:58.963 设备发送:03 03 04 84 00 04 04 F2
15:19:03.969 设备接收:03 03 08 13 8A 12 06 00 1F 12 06 C2 A8
15:19:04.001 设备发送:03 03 04 8D 00 05 15 30
15:19:08.963 设备接收:03 03 0A 08 F7 1A 30 00 00 00 00 00 00 31 5A
15:19:08.978 设备发送:03 03 04 98 00 05 04 F4
15:19:13.989 设备接收:03 03 0A 09 0C 19 F8 00 00 00 00 00 00 1E 72
15:19:14.005 设备发送:03 03 04 A3 00 05 75 39
15:19:19.029 设备接收:03 03 0A 09 08 1A 2C 00 00 00 00 00 00 F8 AA
15:19:19.044 设备发送:03 03 06 84 00 04 05 4A
15:19:24.065 设备接收:03 03 08 00 00 AB FC 00 14 30 D8 83 FE
15:19:24.080 设备发送:03 03 04 04 00 01 C5 19
15:19:29.062 设备接收:03 03 02 00 02 40 45
15:19:29.077 设备发送:03 03 05 84 00 0F 44 C9
15:19:34.091 设备接收:03 03 1E 1F E9 03 D3 03 20 1F AB 03 E6 03 29 20 C9 03 88 02 F6 20 CB 03 87 02 F6 17 7A 03 D3 02 4C DE 46
15:19:34.107 设备发送:03 03 05 93 00 0F F4 CD
15:19:39.090 设备接收:03 03 1E 05 45 00 00 00 00 13 91 03 0F 01 88 1C 57 01 EF 01 67 1C 4B 01 F3 01 69 05 49 00 00 00 00 54 62
15:19:39.106 设备发送:03 03 05 A2 00 0F A5 02
15:19:44.129 设备接收:03 03 1E 00 0D 00 00 00 00 00 00 00 00 00 00 00 00 00 00 00 00 00 00 00 00 00 00 00 00 00 00 00 00 C1 72
15:19:44.145 设备发送:03 03 05 B1 00 03 54 C2
15:19:49.162 设备接收:03 03 06 00 00 00 00 00 00 38 15
15:19:49.193 设备发送:03 03 04 2B 00 01 F4 D0
15:19:54.169 设备接收:03 03 02 02 44 C0 D7
15:19:54.186 设备发送:03 03 04 20 00 01 85 12
15:19:59.197 设备接收:03 03 02 00 37 80 52
15:19:59.215 设备发送:03 03 04 05 00 01 94 D9
15:20:04.216 设备接收:03 03 02 00 00 C1 84
15:20:04.232 设备发送:04 03 04 84 00 04 05 45
15:20:09.225 设备接收:04 03 08 13 8B 0E A4 FF A7 0E A5 CB 11
15:20:09.242 设备发送:04 03 04 8D 00 05 14 87
15:20:14.239 设备接收:04 03 0A 09 01 15 4C 00 00 00 00 00 00 B9 FB
15:20:14.270 设备发送:04 03 04 98 00 05 05 43
15:20:19.260 设备接收:04 03 0A 08 EF 15 43 00 00 00 00 00 00 92 9A
15:20:19.292 设备发送:04 03 04 A3 00 05 74 8E
15:20:24.276 设备接收:04 03 0A 09 0C 15 40 00 00 00 00 00 00 2D 6B
15:20:24.292 设备发送:04 03 06 84 00 04 04 FD
15:20:29.283 设备接收:04 03 08 00 00 97 03 00 11 6A 4A 23 AE
15:20:29.298 设备发送:04 03 04 04 00 01 C4 AE
15:20:34.311 设备接收:04 03 02 00 02 F5 85
15:20:34.326 设备发送:04 03 05 84 00 0F 45 7E
15:20:39.325 设备接收:04 03 1E 1B 1D 01 B5 01 2F 1C 7F 03 52 02 6C 1A F5 01 C5 01 39 1C 5C 03 A2 02 A3 1C 9A 03 93 02 9E 94 2F
15:20:39.340 设备发送:04 03 05 93 00 0F F5 7A
15:20:44.354 设备接收:04 03 1E 1C 09 03 B3 02 A8 1C 04 03 61 02 6C 04 A4 00 04 00 00 04 C2 00 00 00 00 04 BA 00 00 00 00 43 73
15:20:44.369 设备发送:04 03 05 A2 00 0F A4 B5
15:20:49.383 设备接收:04 03 1E 00 01 00 00 00 00 00 03 00 04 00 00 00 00 00 00 00 00 00 00 00 00 00 00 00 00 00 00 00 00 D5 DB
15:20:49.458 设备发送:04 03 05 B1 00 03 55 75
15:20:54.389 设备接收:04 03 06 00 00 00 00 00 00 1E 25
15:20:54.419 设备发送:04 03 04 2B 00 01 F5 67
15:20:59.418 设备接收:04 03 02 02 38 74 F6
15:20:59.434 设备发送:04 03 04 20 00 01 84 A5
15:21:04.449 设备接收:04 03 02 00 31 B5 90
15:21:04.480 设备发送:04 03 04 05 00 01 95 6E
15:21:09.484 设备接收:04 03 02 00 00 74 44
15:21:09.500 设备发送:05 03 04 84 00 04 04 94
15:21:14.485 设备接收:05 03 08 13 8A 0B C0 00 19 0B C0 3D FB
15:21:14.500 设备发送:05 03 04 8D 00 05 15 56
15:21:19.508 设备接收:05 03 0A 08 F6 11 0C 00 00 00 00 00 00 88 BC
15:21:19.525 设备发送:05 03 04 98 00 05 04 92
15:21:24.522 设备接收:05 03 0A 09 06 10 F9 00 00 00 00 00 00 B9 BE
15:21:24.538 设备发送:05 03 04 A3 00 05 75 5F
15:21:29.554 设备接收:05 03 0A 09 07 11 0E 00 00 00 00 00 00 F3 2D
15:21:29.586 设备发送:05 03 06 84 00 04 05 2C
15:21:34.561 设备接收:05 03 08 00 00 7E 48 00 0E B1 B2 FF 11
15:21:34.577 设备发送:05 03 04 04 00 01 C5 7F
15:21:39.585 设备接收:05 03 02 00 02 C8 45
15:21:39.601 设备发送:05 03 05 84 00 0F 44 AF
15:21:44.594 设备接收:05 03 1E 04 AF 00 00 00 00 17 55 03 90 02 21 16 15 02 CE 01 96 17 BA 03 55 02 06 1E 4C 01 9E 01 41 9B 00
15:21:44.642 设备发送:05 03 05 93 00 0F F4 AB
15:21:49.619 设备接收:05 03 1E 1E 77 01 AD 01 4E 04 9B 00 01 00 00 19 26 03 71 02 37 04 A7 00 00 00 00 15 F2 03 4C 01 DA C9 4F
15:21:49.635 设备发送:05 03 05 A2 00 0F A5 64
15:21:54.637 设备接收:05 03 1E 00 06 00 00 00 00 00 00 00 03 00 00 00 00 00 00 00 00 00 00 00 00 00 00 00 00 00 00 00 00 DA 4C
15:21:54.684 设备发送:05 03 05 B1 00 03 54 A4
15:21:59.673 设备接收:05 03 06 00 00 00 00 00 00 13 B5
15:21:59.689 设备发送:05 03 04 2B 00 01 F4 B6
15:22:04.699 设备接收:05 03 02 02 5A C8 DF
15:22:04.714 设备发送:05 03 04 20 00 01 85 74
15:22:09.714 设备接收:05 03 02 00 29 88 5A
15:22:09.730 设备发送:05 03 04 05 00 01 94 BF
15:22:14.738 设备接收:05 03 02 00 00 49 84
15:22:14.754 设备发送:06 03 04 84 00 04 04 A7
15:22:19.763 设备接收:06 03 08 13 84 08 D5 FF EF 08 D5 C1 96
15:22:19.780 设备发送:06 03 04 8D 00 05 15 65
15:22:24.784 设备接收:06 03 0A 08 F4 0C CD 00 00 00 00 00 00 84 46
15:22:24.800 设备发送:06 03 04 98 00 05 04 A1
15:22:29.815 设备接收:06 03 0A 08 FB 0C D1 00 00 00 00 00 00 18 77
15:22:29.831 设备发送:06 03 04 A3 00 05 75 6C
15:22:34.823 设备接收:06 03 0A 08 FE 0C FA 00 00 00 00 00 00 BC 25
15:22:34.854 设备发送:06 03 06 84 00 04 05 1F
15:22:39.851 设备接收:06 03 08 00 00 7B 12 00 0E 9F 5C 35 E1
15:22:39.867 设备发送:06 03 04 04 00 01 C5 4C
15:22:44.862 设备接收:06 03 02 00 02 8C 45
15:22:44.878 设备发送:06 03 05 84 00 0F 44 9C
15:22:49.896 设备接收:06 03 1E 04 C2 00 05 00 00 1D D2 02 0F 01 92 1C B3 03 39 02 5E 1C 6A 01 0F 00 C5 1F 90 02 24 01 BB C5 FF
15:22:49.912 设备发送:06 03 05 93 00 0F F4 98
15:22:54.891 设备接收:06 03 1E 04 C0 00 00 00 00 04 B0 00 00 00 00 18 B1 02 4A 01 72 04 B2 00 05 00 00 15 E6 02 D4 01 95 DE F1
15:22:54.938 设备发送:06 03 05 A2 00 0F A5 57
15:22:59.926 设备接收:06 03 1E 00 08 00 00 00 00 00 00 00 00 00 00 00 00 00 00 00 00 00 00 00 00 00 00 00 00 00 00 00 00 DD 75
15:22:59.956 设备发送:06 03 05 B1 00 03 54 97
15:23:04.969 设备接收:06 03 06 00 00 00 00 00 00 07 45
15:23:04.984 设备发送:06 03 04 2B 00 01 F4 85
15:23:09.941 设备接收:06 03 02 02 42 8C D5
15:23:10.003 设备发送:06 03 04 20 00 01 85 47
15:23:14.996 设备接收:06 03 02 00 20 0C 5C
15:23:15.012 设备发送:06 03 04 05 00 01 94 8C
15:23:20.005 设备接收:06 03 02 00 00 0D 84
15:23:20.021 设备发送:07 03 04 84 00 04 05 76
15:23:25.034 设备接收:07 03 08 13 84 05 3B FF D9 05 3D C8 B0
15:23:25.050 设备发送:07 03 04 8D 00 05 14 B4
15:23:30.025 设备接收:07 03 0A 08 F6 07 95 00 00 00 00 00 00 07 D1
15:23:30.057 设备发送:07 03 04 98 00 05 05 70
15:23:35.088 设备接收:07 03 0A 08 F6 07 9B 00 00 00 00 00 00 E8 11
15:23:35.166 设备发送:07 03 04 A3 00 05 74 BD
15:23:40.072 设备接收:07 03 0A 08 FA 07 94 00 00 00 00 00 00 42 11
15:23:40.087 设备发送:07 03 06 84 00 04 04 CE
15:23:45.126 设备接收:07 03 08 00 00 42 33 00 07 45 B2 83 5D
15:23:45.143 设备发送:07 03 04 04 00 01 C4 9D
15:23:50.131 设备接收:07 03 02 00 02 B1 85
15:23:50.147 设备发送:07 03 05 84 00 0F 45 4D
15:23:55.162 设备接收:07 03 1E 1A 5D 02 2D 01 78 1B 1A 01 A7 01 25 12 1F 01 6C 00 A9 19 17 03 53 02 22 00 00 00 00 00 00 A2 57
15:23:55.178 设备发送:07 03 05 93 00 0F F5 49
15:24:00.174 设备接收:07 03 1E 00 00 00 00 00 00 00 00 00 00 00 00 00 00 00 00 00 00 00 00 00 00 00 00 00 00 00 00 00 00 B0 BB
15:24:00.189 设备发送:07 03 05 A2 00 0F A4 86
15:24:05.185 设备接收:07 03 1E 00 00 00 00 00 00 00 00 00 00 00 00 00 00 00 00 00 00 00 00 00 00 00 00 00 00 00 00 00 00 B0 BB
15:24:05.202 设备发送:07 03 05 B1 00 03 55 46
15:24:10.212 设备接收:07 03 06 00 00 00 00 00 00 0A D5
15:24:10.243 设备发送:07 03 04 2B 00 01 F5 54
15:24:15.236 设备接收:07 03 02 01 81 F1 B4
15:24:15.252 设备发送:07 03 04 20 00 01 84 96
15:24:20.269 设备接收:07 03 02 00 18 30 4E
15:24:20.285 设备发送:07 03 04 05 00 01 95 5D
15:24:25.248 设备接收:07 03 02 00 00 30 44
15:24:25.280 设备发送:08 03 04 84 00 04 05 89
15:24:30.294 设备接收:08 03 08 13 88 0B 11 00 13 0B 11 39 DB
15:24:30.310 设备发送:08 03 04 8D 00 05 14 4B
15:24:35.331 设备接收:08 03 0A 08 EA 10 34 00 00 00 00 00 00 7B 3E
15:24:35.346 设备发送:08 03 04 98 00 05 05 8F
15:24:40.321 设备接收:08 03 0A 08 E2 10 35 00 00 00 00 00 00 0C 3E
15:24:40.336 设备发送:08 03 04 A3 00 05 74 42
15:24:45.356 设备接收:08 03 0A 08 EA 10 6A 00 00 00 00 00 00 C4 FB
15:24:45.371 设备发送:08 03 06 84 00 04 04 31
15:24:50.373 设备接收:08 03 08 00 00 8C 1C 00 0F D4 3B 5B 55
15:24:50.389 设备发送:08 03 04 04 00 01 C4 62
15:24:55.372 设备接收:08 03 02 00 02 E5 84
15:24:55.388 设备发送:08 03 05 84 00 0F 45 B2
15:25:00.416 设备接收:08 03 1E 1A E2 01 9A 01 1A 1B F1 00 B6 00 82 1B 52 01 35 00 D8 15 DC 01 C4 00 FD 1A 91 02 7B 01 AF 09 CC
15:25:00.448 设备发送:08 03 05 93 00 0F F5 B6
15:25:05.432 设备接收:08 03 1E 1E 6F 02 79 01 ED 1F 73 00 F8 00 C8 1A 9C 01 69 00 F6 19 9C 01 7B 00 F9 1A BE 03 06 02 12 94 15
15:25:05.464 设备发送:08 03 05 A2 00 0F A4 79
15:25:10.444 设备接收:08 03 1E 00 00 00 08 00 00 00 00 00 04 00 00 00 00 00 00 00 00 00 00 00 00 00 00 00 00 00 00 00 00 6E 6A
15:25:10.476 设备发送:08 03 05 B1 00 03 55 B9
15:25:15.470 设备接收:08 03 06 00 00 00 00 00 00 4B 25
15:25:15.502 设备发送:08 03 04 2B 00 01 F5 AB
15:25:20.508 设备接收:08 03 02 01 75 A4 32
15:25:20.523 设备发送:08 03 04 20 00 01 84 69
15:25:25.532 设备接收:08 03 02 00 35 A4 52
15:25:25.547 设备发送:08 03 04 05 00 01 95 A2
15:25:30.532 设备接收:08 03 02 00 00 64 45
15:25:30.563 设备发送:09 03 04 84 00 04 04 58
15:25:35.573 设备接收:09 03 08 13 85 0A 2A FF EE 0A 2A E4 54
15:25:35.589 设备发送:09 03 04 8D 00 05 15 9A
15:25:40.591 设备接收:09 03 0A 08 E9 0E E7 00 00 00 00 00 00 0F 02
15:25:40.607 设备发送:09 03 04 98 00 05 04 5E
15:25:45.602 设备接收:09 03 0A 08 E6 0E E6 00 00 00 00 00 00 5E 32
15:25:45.632 设备发送:09 03 04 A3 00 05 75 93
15:25:50.623 设备接收:09 03 0A 08 F4 0E E5 00 00 00 00 00 00 B9 92
15:25:50.655 设备发送:09 03 06 84 00 04 05 E0
15:25:55.637 设备接收:09 03 08 00 00 7D 75 00 0E 65 EB 32 8D
15:25:55.714 设备发送:09 03 04 04 00 01 C5 B3
15:26:00.662 设备接收:09 03 02 00 02 D8 44
15:26:00.693 设备发送:09 03 05 84 00 0F 44 63
15:26:05.691 设备接收:09 03 1E 1E ED 00 AB 00 87 1F 5E 00 AC 00 8A 1F 63 00 BE 00 99 1F D8 00 D5 00 AD 1E 5C 01 23 00 E2 FE 25
15:26:05.706 设备发送:09 03 05 93 00 0F F4 67
15:26:10.698 设备接收:09 03 1E 1E 5E 02 C0 02 23 1E 7F 01 46 00 FE 1E 29 02 F4 02 48 1E 05 01 57 01 08 1E 6F 01 58 01 0C 7E 2C
15:26:10.730 设备发送:09 03 05 A2 00 0F A5 A8
15:26:15.745 设备接收:09 03 1E 00 03 00 00 00 00 00 01 00 03 00 00 00 00 00 00 00 00 00 00 00 00 00 00 00 00 00 00 00 00 07 D4
15:26:15.760 设备发送:09 03 05 B1 00 03 54 68
15:26:20.761 设备接收:09 03 06 00 00 00 00 00 00 46 B5
15:26:20.775 设备发送:09 03 04 2B 00 01 F4 7A
15:26:25.769 设备接收:09 03 02 01 9A D8 7E
15:26:25.784 设备发送:09 03 04 20 00 01 85 B8
15:26:30.801 设备接收:09 03 02 00 2B 19 9A
15:26:30.817 设备发送:09 03 04 05 00 01 94 73
15:26:35.828 设备接收:09 03 02 00 00 59 85
15:26:35.844 设备发送:0A 03 04 84 00 04 04 6B
15:26:40.862 设备接收:0A 03 08 13 8B 01 62 FF D8 01 70 82 A0
15:26:40.877 设备发送:0A 03 04 8D 00 05 15 A9
15:26:45.879 设备接收:0A 03 0A 08 ED 02 12 00 00 00 00 00 00 9D 5B
15:26:45.894 设备发送:0A 03 04 98 00 05 04 6D
15:26:50.878 设备接收:0A 03 0A 08 EA 02 18 00 00 00 00 00 00 11 6B
15:26:50.894 设备发送:0A 03 04 A3 00 05 75 A0
15:26:55.900 设备接收:0A 03 0A 08 F0 02 12 00 00 00 00 00 00 08 0B
15:26:55.916 设备发送:0A 03 06 84 00 04 05 D3
15:27:00.936 设备接收:0A 03 08 00 00 1D 4D 00 03 3F DC 7F 19
15:27:00.952 设备发送:0A 03 04 04 00 01 C5 80
15:27:05.951 设备接收:0A 03 02 00 02 9C 44
15:27:05.966 设备发送:0A 03 05 84 00 0F 44 50
15:27:10.955 设备接收:0A 03 1E 19 89 00 DA 00 8E 19 9C 00 FC 00 A5 1A 2C 00 64 00 43 0C 6B 00 00 00 00 00 00 00 00 00 00 B7 F4
15:27:11.018 设备发送:0A 03 05 93 00 0F F4 54
15:27:16.006 设备接收:0A 03 1E 00 00 00 00 00 00 00 00 00 00 00 00 00 00 00 00 00 00 00 00 00 00 00 00 00 00 00 00 00 00 0D 79
15:27:16.037 设备发送:0A 03 05 A2 00 0F A5 9B
15:27:21.037 设备接收:0A 03 1E 00 00 00 00 00 00 00 00 00 00 00 00 00 00 00 00 00 00 00 00 00 00 00 00 00 00 00 00 00 00 0D 79
15:27:21.067 设备发送:0A 03 05 B1 00 03 54 5B
15:27:26.060 设备接收:0A 03 06 00 00 00 00 00 00 52 45
15:27:26.076 设备发送:0A 03 04 2B 00 01 F4 49
15:27:31.086 设备接收:0A 03 02 01 AD DD A8
15:27:31.102 设备发送:0A 03 04 20 00 01 85 8B
15:27:36.113 设备接收:0A 03 02 00 27 5D 9F
15:27:36.129 设备发送:0A 03 04 05 00 01 94 40
15:27:41.122 设备接收:0A 03 02 00 00 1D 85
15:27:41.153 设备发送:01 03 04 84 00 04 05 10
15:27:46.159 设备接收:01 03 08 13 89 0D E7 FF E3 0D E7 7C 35
15:27:46.174 设备发送:01 03 04 8D 00 05 14 D2
15:27:51.169 设备接收:01 03 0A 08 F3 14 13 00 00 00 00 00 00 97 96
15:27:51.185 设备发送:01 03 04 98 00 05 05 16
15:27:54.88400

