12:17:24.356 设备接收:01 03 02 02 CE 38 B0
12:17:24.403 设备发送:01 03 04 20 00 01 84 F0
12:17:29.406 设备接收:01 03 02 00 22 38 5D
12:17:29.422 设备发送:01 03 04 05 00 01 95 3B
12:17:34.424 设备接收:01 03 02 00 00 B8 44
12:17:34.440 设备发送:02 03 04 84 00 04 05 23
12:17:39.444 设备接收:02 03 08 13 87 1F 65 FF 47 1F 67 AB 3E
12:17:39.475 设备发送:02 03 04 8D 00 05 14 E1
12:17:44.478 设备接收:02 03 0A 09 12 2C AA 00 00 00 00 00 00 2D BD
12:17:44.490 设备发送:02 03 04 98 00 05 05 25
12:17:49.505 设备接收:02 03 0A 09 38 2C CC 00 00 00 00 00 00 CC DA
12:17:49.867 设备发送:02 03 04 A3 00 05 74 E8
12:17:54.530 设备接收:02 03 0A 09 1F 2C C6 00 00 00 00 00 00 D9 2B
12:17:54.545 设备发送:02 03 06 84 00 04 04 9B
12:17:59.568 设备接收:02 03 08 00 00 53 69 00 13 7C 06 9B FE
12:17:59.693 设备发送:02 03 04 04 00 01 C4 C8
12:18:04.611 设备接收:02 03 02 00 02 7D 85
12:18:04.626 设备发送:02 03 05 84 00 0F 45 18
12:18:09.608 设备接收:02 03 1E 1E A3 03 73 02 B5 1E 9C 03 6F 02 B1 1E 62 03 7C 02 B6 1E 99 06 DC 05 60 1E 99 03 67 02 AA 8C 8F
12:18:09.624 设备发送:02 03 05 93 00 0F F5 1C
12:18:14.645 设备接收:02 03 1E 1E 93 03 63 02 A6 1E 72 03 78 02 B4 1E BD 06 F6 05 7A 1E 64 03 83 02 BC 1E 9C 03 96 02 CF 58 DB
12:18:14.676 设备发送:02 03 05 A2 00 0F A4 D3
12:18:19.686 设备接收:02 03 1E 00 00 00 04 00 00 00 00 00 00 00 00 00 00 00 00 00 00 00 00 00 00 00 00 00 00 00 00 00 00 92 31
12:18:19.702 设备发送:02 03 05 B1 00 03 55 13
12:18:24.703 设备接收:02 03 06 00 00 00 00 00 00 35 85
12:18:24.719 设备发送:02 03 04 2B 00 01 F5 01
12:18:29.715 设备接收:02 03 02 02 C9 3D 72
12:18:29.762 设备发送:02 03 04 20 00 01 84 C3
12:18:34.748 设备接收:02 03 02 00 41 3C 74
12:18:34.778 设备发送:02 03 04 05 00 01 95 08
12:18:39.782 设备接收:02 03 02 00 00 FC 44
12:18:39.829 设备发送:03 03 04 84 00 04 04 F2
12:18:44.808 设备接收:03 03 08 13 89 21 C1 FF B8 21 C2 D5 2E
12:18:44.855 设备发送:03 03 04 8D 00 05 15 30
12:18:49.859 设备接收:03 03 0A 09 0F 30 19 00 00 00 00 00 00 39 FE
12:18:49.891 设备发送:03 03 04 98 00 05 04 F4
12:18:54.897 设备接收:03 03 0A 09 40 30 0C 00 00 00 00 00 00 0D 0C
12:18:54.913 设备发送:03 03 04 A3 00 05 75 39
12:18:59.904 设备接收:03 03 0A 09 2A 30 22 00 00 00 00 00 00 15 AC
12:18:59.966 设备发送:03 03 06 84 00 04 05 4A
12:19:04.971 设备接收:03 03 08 00 00 5D E8 00 14 06 C7 F1 03
12:19:04.987 设备发送:03 03 04 04 00 01 C5 19
12:19:09.975 设备接收:03 03 02 00 02 40 45
12:19:09.991 设备发送:03 03 05 84 00 0F 44 C9
12:19:14.990 设备接收:03 03 1E 1E 9C 07 7A 05 DC 1E A6 07 73 05 D8 1E 48 07 70 05 C4 1E 79 07 69 05 C8 16 82 07 84 04 55 FD 2C
12:19:15.038 设备发送:03 03 05 93 00 0F F4 CD
12:19:20.036 设备接收:03 03 1E 05 08 00 00 00 00 13 74 04 D6 02 68 1B 26 03 C6 02 9F 1B 10 03 CA 02 A0 05 0D 00 00 00 00 64 A6
12:19:20.052 设备发送:03 03 05 A2 00 0F A5 02
12:19:25.076 设备接收:03 03 1E 00 0E 00 00 00 00 00 00 00 00 00 00 00 00 00 00 00 00 00 00 00 00 00 00 00 00 00 00 00 00 81 70
12:19:25.092 设备发送:03 03 05 B1 00 03 54 C2
12:19:30.084 设备接收:03 03 06 00 00 00 00 00 00 38 15
12:19:30.115 设备发送:03 03 04 2B 00 01 F4 D0
12:19:35.104 设备接收:03 03 02 02 D1 00 B8
12:19:35.124 设备发送:03 03 04 20 00 01 85 12
12:19:40.126 设备接收:03 03 02 00 24 C1 9F
12:19:40.157 设备发送:03 03 04 05 00 01 94 D9
12:19:45.144 设备接收:03 03 02 00 00 C1 84
12:19:45.191 设备发送:01 03 04 84 00 04 05 10
12:19:50.186 设备接收:01 03 08 13 8A 21 B5 00 37 21 B6 5C 45
12:19:50.201 设备发送:01 03 04 8D 00 05 14 D2
12:19:55.237 设备接收:01 03 0A 09 12 2F E1 00 00 00 00 00 00 93 6F
12:19:55.253 设备发送:01 03 04 98 00 05 05 16
12:20:00.233 设备接收:01 03 0A 09 3D 2F F7 00 00 00 00 00 00 3C 9F
12:20:00.295 设备发送:01 03 04 A3 00 05 74 DB
12:20:05.289 设备接收:01 03 0A 09 2A 2F F8 00 00 00 00 00 00 28 6F
12:20:05.304 设备发送:01 03 06 84 00 04 04 A8
12:20:10.295 设备接收:01 03 08 00 00 58 D1 00 13 34 24 83 C3
12:20:10.310 设备发送:01 03 04 04 00 01 C4 FB
12:20:15.328 设备接收:01 03 02 00 02 39 85
12:20:15.359 设备发送:01 03 05 84 00 0F 45 2B
12:20:20.340 设备接收:01 03 1E 1E EB 07 23 05 A6 1E C4 07 3A 05 B1 1E C7 07 28 05 A3 1E A3 07 47 05 B5 16 59 03 BB 02 22 0D 63
12:20:20.387 设备发送:01 03 05 93 00 0F F5 2F
12:20:25.365 设备接收:01 03 1E 00 00 00 00 00 00 19 AD 07 8F 04 F8 1B 2C 03 C5 02 9F 1B 72 03 C5 02 A6 00 00 00 06 00 00 77 06
12:20:25.427 设备发送:01 03 05 A2 00 0F A4 E0
12:20:30.424 设备接收:01 03 1E 00 00 00 00 00 00 00 00 00 00 00 00 00 00 00 00 00 00 00 00 00 00 00 00 00 00 00 00 00 00 D8 BA
12:20:30.439 设备发送:01 03 05 B1 00 03 55 20
12:20:35.455 设备接收:01 03 06 00 00 00 00 00 00 21 75
12:20:35.471 设备发送:01 03 04 2B 00 01 F5 32
12:20:40.484 设备接收:01 03 02 02 CE 38 B0
12:20:40.499 设备发送:01 03 04 20 00 01 84 F0
12:20:45.512 设备接收:01 03 02 00 23 F9 9D
12:20:45.527 设备发送:01 03 04 05 00 01 95 3B
12:20:50.548 设备接收:01 03 02 00 00 B8 44
12:20:50.563 设备发送:02 03 04 84 00 04 05 23
12:20:55.550 设备接收:02 03 08 13 89 20 3A FF 43 20 3C C4 36
12:20:55.596 设备发送:02 03 04 8D 00 05 14 E1
12:21:00.607 设备接收:02 03 0A 09 13 2D B9 00 00 00 00 00 00 C3 20
12:21:00.623 设备发送:02 03 04 98 00 05 05 25
12:21:05.632 设备接收:02 03 0A 09 41 2D CC 00 00 00 00 00 00 02 84
12:21:05.648 设备发送:02 03 04 A3 00 05 74 E8
12:21:10.642 设备接收:02 03 0A 09 24 2D A8 00 00 00 00 00 00 B0 10
12:21:10.689 设备发送:02 03 06 84 00 04 04 9B
12:21:15.683 设备接收:02 03 08 00 00 55 26 00 13 7C 32 CF 81
12:21:15.699 设备发送:02 03 04 04 00 01 C4 C8
12:21:20.726 设备接收:02 03 02 00 02 7D 85
12:21:20.742 设备发送:02 03 05 84 00 0F 45 18
12:21:25.734 设备接收:02 03 1E 1E 7D 03 86 02 C0 1E 75 03 80 02 BB 1E 63 03 8B 02 C2 1E C1 06 EF 05 75 1E 72 03 79 02 B5 24 D2
12:21:25.781 设备发送:02 03 05 93 00 0F F5 1C
12:21:30.794 设备接收:02 03 1E 1E BD 03 68 02 AE 1E 9D 03 7D 02 BC 1E C0 07 0B 05 8C 1E 65 03 8D 02 C3 1E 76 03 A0 02 D4 87 DC
12:21:30.810 设备发送:02 03 05 A2 00 0F A4 D3
12:21:35.819 设备接收:02 03 1E 00 00 00 04 00 00 00 00 00 00 00 00 00 00 00 00 00 00 00 00 00 00 00 00 00 00 00 00 00 00 92 31
12:21:35.835 设备发送:02 03 05 B1 00 03 55 13
12:21:40.816 设备接收:02 03 06 00 00 00 00 00 00 35 85
12:21:40.864 设备发送:02 03 04 2B 00 01 F5 01
12:21:45.868 设备接收:02 03 02 02 C9 3D 72
12:21:45.939 设备发送:02 03 04 20 00 01 84 C3
12:21:50.904 设备接收:02 03 02 00 3E 7D 94
12:21:50.920 设备发送:02 03 04 05 00 01 95 08
12:21:55.910 设备接收:02 03 02 00 00 FC 44
12:21:55.941 设备发送:03 03 04 84 00 04 04 F2
12:22:00.947 设备接收:03 03 08 13 85 21 B3 00 39 21 B3 81 3D
12:22:00.963 设备发送:03 03 04 8D 00 05 15 30
12:22:05.963 设备接收:03 03 0A 09 14 2F E6 00 00 00 00 00 00 C9 4D
12:22:05.979 设备发送:03 03 04 98 00 05 04 F4
12:22:11.001 设备接收:03 03 0A 09 3E 2F DD 00 00 00 00 00 00 A4 EF
12:22:11.032 设备发送:03 03 04 A3 00 05 75 39
12:22:16.039 设备接收:03 03 0A 09 29 2F E2 00 00 00 00 00 00 80 1C
12:22:16.054 设备发送:03 03 06 84 00 04 05 4A
12:22:21.073 设备接收:03 03 08 00 00 5F C5 00 14 06 F6 9D 33
12:22:21.089 设备发送:03 03 04 04 00 01 C5 19
12:22:26.089 设备接收:03 03 02 00 02 40 45
12:22:26.119 设备发送:03 03 05 84 00 0F 44 C9
12:22:31.106 设备接收:03 03 1E 1E 9A 07 60 05 C7 1E A6 07 5D 05 C7 1E 1F 07 5D 05 AE 1E 4D 07 56 05 B1 16 81 07 6A 04 45 11 F3
12:22:31.153 设备发送:03 03 05 93 00 0F F4 CD
12:22:36.134 设备接收:03 03 1E 05 08 00 00 00 00 13 67 04 D1 02 64 1B 4D 03 B2 02 95 1B 37 03 B4 02 94 05 0D 00 00 00 00 46 7D
12:22:36.180 设备发送:03 03 05 A2 00 0F A5 02
12:22:41.168 设备接收:03 03 1E 00 0D 00 00 00 00 00 00 00 00 00 00 00 00 00 00 00 00 00 00 00 00 00 00 00 00 00 00 00 00 C1 72
12:22:41.199 设备发送:03 03 05 B1 00 03 54 C2
12:22:46.206 设备接收:03 03 06 00 00 00 00 00 00 38 15
12:22:46.222 设备发送:03 03 04 2B 00 01 F4 D0
12:22:51.214 设备接收:03 03 02 02 D1 00 B8
12:22:51.266 设备发送:03 03 04 20 00 01 85 12
12:22:56.243 设备接收:03 03 02 00 25 00 5F
12:22:56.259 设备发送:03 03 04 05 00 01 94 D9
12:23:01.259 设备接收:03 03 02 00 00 C1 84
12:23:01.304 设备发送:01 03 04 84 00 04 05 10
12:23:06.322 设备接收:01 03 08 13 8C 20 FC FF BC 20 FD E7 C3
12:23:06.353 设备发送:01 03 04 8D 00 05 14 D2
12:23:11.325 设备接收:01 03 0A 09 12 2E E8 00 00 00 00 00 00 CB A3
12:23:11.372 设备发送:01 03 04 98 00 05 05 16
12:23:16.374 设备接收:01 03 0A 09 39 2E EC 00 00 00 00 00 00 64 92
12:23:16.390 设备发送:01 03 04 A3 00 05 74 DB
12:23:21.384 设备接收:01 03 0A 09 2A 2E F2 00 00 00 00 00 00 43 A3
12:23:21.431 设备发送:01 03 06 84 00 04 04 A8
12:23:26.428 设备接收:01 03 08 00 00 5A A1 00 13 34 53 83 CC
12:23:26.446 设备发送:01 03 04 04 00 01 C4 FB
12:23:31.436 设备接收:01 03 02 00 02 39 85
12:23:31.452 设备发送:01 03 05 84 00 0F 45 2B
12:23:36.459 设备接收:01 03 1E 1E E8 06 FB 05 86 1E C7 07 13 05 93 1E EC 06 F4 05 81 1E A1 07 1C 05 93 16 80 03 A3 02 18 2B CF
12:23:36.505 设备发送:01 03 05 93 00 0F F5 2F
12:23:41.487 设备接收:01 03 1E 00 00 00 00 00 00 19 85 07 6F 04 DB 1B 2B 03 B1 02 91 1B 71 03 B0 02 97 00 00 00 07 00 01 86 D9
12:23:41.518 设备发送:01 03 05 A2 00 0F A4 E0
12:23:46.530 设备接收:01 03 1E 00 00 00 00 00 00 00 00 00 00 00 00 00 00 00 00 00 00 00 00 00 00 00 00 00 00 00 00 00 00 D8 BA
12:23:46.577 设备发送:01 03 05 B1 00 03 55 20
12:23:51.555 设备接收:01 03 06 00 00 00 00 00 00 21 75
12:23:51.587 设备发送:01 03 04 2B 00 01 F5 32
12:23:56.592 设备接收:01 03 02 02 CE 38 B0
12:23:56.607 设备发送:01 03 04 20 00 01 84 F0
12:24:01.620 设备接收:01 03 02 00 23 F9 9D
12:24:01.652 设备发送:01 03 04 05 00 01 95 3B
12:24:06.635 设备接收:01 03 02 00 00 B8 44
12:24:06.650 设备发送:02 03 04 84 00 04 05 23
12:24:11.661 设备接收:02 03 08 13 8A 1F E9 00 3A 1F E9 46 49
12:24:11.692 设备发送:02 03 04 8D 00 05 14 E1
12:24:16.715 设备接收:02 03 0A 09 0F 2D 6A 00 00 00 00 00 00 B9 2D
12:24:16.731 设备发送:02 03 04 98 00 05 05 25
12:24:21.751 设备接收:02 03 0A 09 3C 2D 8A 00 00 00 00 00 00 18 12
12:24:21.766 设备发送:02 03 04 A3 00 05 74 E8
12:24:26.769 设备接收:02 03 0A 09 24 2D 8C 00 00 00 00 00 00 D4 12
12:24:26.785 设备发送:02 03 06 84 00 04 04 9B
12:24:31.812 设备接收:02 03 08 00 00 56 E1 00 13 7C 5F BB 8E
12:24:31.828 设备发送:02 03 04 04 00 01 C4 C8
12:24:36.824 设备接收:02 03 02 00 02 7D 85
12:24:36.838 设备发送:02 03 05 84 00 0F 45 18
12:24:41.844 设备接收:02 03 1E 1E CD 03 80 02 C2 1E 9C 03 7D 02 BC 1E 8B 03 8B 02 C5 1E C1 06 F2 05 78 1E 71 03 7A 02 B6 17 68
12:24:41.876 设备发送:02 03 05 93 00 0F F5 1C
12:24:46.858 设备接收:02 03 1E 1E 48 03 7C 02 B4 1E 77 03 87 02 C0 1E C2 07 17 05 95 1E 8E 03 8D 02 C7 1E A0 03 A1 02 D9 5D BB
12:24:46.921 设备发送:02 03 05 A2 00 0F A4 D3
12:24:51.906 设备接收:02 03 1E 00 00 00 04 00 00 00 00 00 00 00 00 00 00 00 00 00 00 00 00 00 00 00 00 00 00 00 00 00 00 92 31
12:24:51.922 设备发送:02 03 05 B1 00 03 55 13
12:24:56.928 设备接收:02 03 06 00 00 00 00 00 00 35 85
12:24:56.959 设备发送:02 03 04 2B 00 01 F5 01
12:25:01.967 设备接收:02 03 02 02 C9 3D 72
12:25:01.982 设备发送:02 03 04 20 00 01 84 C3
12:25:06.997 设备接收:02 03 02 00 46 7D B6
12:25:07.013 设备发送:02 03 04 05 00 01 95 08
12:25:12.060 设备接收:02 03 02 00 00 FC 44
12:25:12.075 设备发送:03 03 04 84 00 04 04 F2
12:25:17.046 设备接收:03 03 08 13 87 22 3C 00 3B 22 3D D6 45
12:25:17.061 设备发送:03 03 04 8D 00 05 15 30
12:25:22.066 设备接收:03 03 0A 09 08 30 B3 00 00 00 00 00 00 15 C4
12:25:22.115 设备发送:03 03 04 98 00 05 04 F4
12:25:27.109 设备接收:03 03 0A 09 42 30 9A 00 00 00 00 00 00 E2 65
12:25:27.140 设备发送:03 03 04 A3 00 05 75 39
12:25:32.131 设备接收:03 03 0A 09 28 30 A3 00 00 00 00 00 00 9D C4
12:25:32.177 设备发送:03 03 06 84 00 04 05 4A
12:25:37.158 设备接收:03 03 08 00 00 61 9B 00 14 07 25 70 2D
12:25:37.205 设备发送:03 03 04 04 00 01 C5 19
12:25:42.206 设备接收:03 03 02 00 02 40 45
12:25:42.221 设备发送:03 03 05 84 00 0F 44 C9
12:25:47.229 设备接收:03 03 1E 1E 75 07 8B 05 E1 1E 80 07 82 05 DD 1E 71 07 64 05 C2 1E 01 07 81 05 C3 16 AA 07 79 04 56 67 E7
12:25:47.262 设备发送:03 03 05 93 00 0F F4 CD
12:25:52.250 设备接收:03 03 1E 05 08 00 00 00 00 13 74 04 C9 02 62 1B 47 03 C1 02 9F 1A BA 03 D2 02 9D 05 0E 00 00 00 00 F0 47
12:25:52.281 设备发送:03 03 05 A2 00 0F A5 02
12:25:57.294 设备接收:03 03 1E 00 0E 00 00 00 00 00 00 00 00 00 00 00 00 00 00 00 00 00 00 00 00 00 00 00 00 00 00 00 00 81 70
12:25:57.309 设备发送:03 03 05 B1 00 03 54 C2
12:26:02.310 设备接收:03 03 06 00 00 00 00 00 00 38 15
12:26:02.342 设备发送:03 03 04 2B 00 01 F4 D0
12:26:07.340 设备接收:03 03 02 02 D1 00 B8
12:26:07.352 设备发送:03 03 04 20 00 01 85 12
12:26:12.383 设备接收:03 03 02 00 25 00 5F
12:26:12.393 设备发送:03 03 04 05 00 01 94 D9
12:26:17.400 设备接收:03 03 02 00 00 C1 84
12:26:17.416 设备发送:01 03 04 84 00 04 05 10
12:26:22.415 设备接收:01 03 08 13 85 21 4F FF 3A 21 51 9A CC
12:26:22.462 设备发送:01 03 04 8D 00 05 14 D2
12:26:27.473 设备接收:01 03 0A 09 13 2F 6A 00 00 00 00 00 00 A5 F7
12:26:27.488 设备发送:01 03 04 98 00 05 05 16
12:26:32.483 设备接收:01 03 0A 09 37 2F 5B 00 00 00 00 00 00 2E 35
12:26:32.523 设备发送:01 03 04 A3 00 05 74 DB
12:26:37.527 设备接收:01 03 0A 09 25 2F 59 00 00 00 00 00 00 D9 55
12:26:37.548 设备发送:01 03 06 84 00 04 04 A8
12:26:42.567 设备接收:01 03 08 00 00 5C 73 00 13 34 81 BB E5
12:26:42.583 设备发送:01 03 04 04 00 01 C4 FB
12:26:47.575 设备接收:01 03 02 00 02 39 85
12:26:47.628 设备发送:01 03 05 84 00 0F 45 2B
12:26:52.601 设备接收:01 03 1E 1E C3 07 0C 05 8C 1E C2 07 18 05 96 1E 9F 07 0E 05 88 1E A3 07 20 05 97 16 AA 03 9D 02 19 99 65
12:26:52.653 设备发送:01 03 05 93 00 0F F5 2F
12:26:57.640 设备接收:01 03 1E 00 00 00 00 00 00 19 AF 07 68 04 DE 1B 7C 03 A6 02 91 1B 74 03 B2 02 98 00 00 00 07 00 01 76 E6
12:26:57.682 设备发送:01 03 05 A2 00 0F A4 E0
12:27:02.681 设备接收:01 03 1E 00 00 00 00 00 00 00 00 00 00 00 00 00 00 00 00 00 00 00 00 00 00 00 00 00 00 00 00 00 00 D8 BA
12:27:02.708 设备发送:01 03 05 B1 00 03 55 20
12:27:07.695 设备接收:01 03 06 00 00 00 00 00 00 21 75
12:27:07.716 设备发送:01 03 04 2B 00 01 F5 32
12:27:12.711 设备接收:01 03 02 02 CE 38 B0
12:27:12.733 设备发送:01 03 04 20 00 01 84 F0
12:27:17.776 设备接收:01 03 02 00 23 F9 9D
12:27:17.798 设备发送:01 03 04 05 00 01 95 3B
12:27:22.785 设备接收:01 03 02 00 00 B8 44
12:27:22.805 设备发送:02 03 04 84 00 04 05 23
12:27:27.814 设备接收:02 03 08 13 8B 1F DB FF BE 1F DB 9E A5
12:27:27.857 设备发送:02 03 04 8D 00 05 14 E1
12:27:32.852 设备接收:02 03 0A 09 12 2D 66 00 00 00 00 00 00 E0 7D
12:27:32.895 设备发送:02 03 04 98 00 05 05 25
12:27:37.920 设备接收:02 03 0A 09 38 2D 9A 00 00 00 00 00 00 3B 13
12:27:37.936 设备发送:02 03 04 A3 00 05 74 E8
12:27:42.942 设备接收:02 03 0A 09 23 2D 8B 00 00 00 00 00 00 84 E2
12:27:42.988 设备发送:02 03 06 84 00 04 04 9B
12:27:47.970 设备接收:02 03 08 00 00 58 9D 00 13 7C 8B EB 35
12:27:48.002 设备发送:02 03 04 04 00 01 C4 C8
12:27:52.995 设备接收:02 03 02 00 02 7D 85
12:27:53.042 设备发送:02 03 05 84 00 0F 45 18
12:27:58.041 设备接收:02 03 1E 1E 7E 03 89 02 C2 1E 9C 03 7C 02 BB 1E 8C 03 88 02 C3 1E C2 06 F1 05 77 1E 9B 03 76 02 B6 36 48
12:27:58.057 设备发送:02 03 05 93 00 0F F5 1C
12:28:03.054 设备接收:02 03 1E 1E 6D 03 74 02 B1 1E 9D 03 81 02 BF 1E 6F 07 28 05 94 1E 66 03 91 02 C6 1E 4E 03 AB 02 D8 5D 73
12:28:03.087 设备发送:02 03 05 A2 00 0F A4 D3
12:28:08.095 设备接收:02 03 1E 00 00 00 04 00 00 00 00 00 00 00 00 00 00 00 00 00 00 00 00 00 00 00 00 00 00 00 00 00 00 92 31
12:28:08.109 设备发送:02 03 05 B1 00 03 55 13
12:28:13.120 设备接收:02 03 06 00 00 00 00 00 00 35 85
12:28:13.136 设备发送:02 03 04 2B 00 01 F5 01
12:28:18.140 设备接收:02 03 02 02 C9 3D 72
12:28:18.170 设备发送:02 03 04 20 00 01 84 C3
12:28:23.223 设备接收:02 03 02 00 3B BD 97
12:28:23.236 设备发送:02 03 04 05 00 01 95 08
12:28:28.212 设备接收:02 03 02 00 00 FC 44
12:28:28.228 设备发送:03 03 04 84 00 04 04 F2
12:28:33.225 设备接收:03 03 08 13 85 22 1E FF 35 22 21 5D 9C
12:28:33.272 设备发送:03 03 04 8D 00 05 15 30
12:28:38.274 设备接收:03 03 0A 09 0A 30 8F 00 00 00 00 00 00 F0 A7
12:28:38.289 设备发送:03 03 04 98 00 05 04 F4
12:28:43.289 设备接收:03 03 0A 09 3D 30 81 00 00 00 00 00 00 6D 56
12:28:43.333 设备发送:03 03 04 A3 00 05 75 39
12:28:48.299 设备接收:03 03 0A 09 27 30 7B 00 00 00 00 00 00 84 39
12:28:48.391 设备发送:03 03 06 84 00 04 05 4A
12:28:53.399 设备接收:03 03 08 00 00 63 76 00 14 07 55 DC 3C
12:28:53.412 设备发送:03 03 04 04 00 01 C5 19
12:28:58.415 设备接收:03 03 02 00 02 40 45
12:28:58.428 设备发送:03 03 05 84 00 0F 44 C9
12:29:03.456 设备接收:03 03 1E 1E 75 07 88 05 DF 1E 7F 07 7D 05 D8 1E 70 07 5C 05 BC 1E 50 07 69 05 C0 16 5D 07 8E 04 53 CC DF
12:29:03.487 设备发送:03 03 05 93 00 0F F4 CD
12:29:08.465 设备接收:03 03 1E 05 04 00 00 00 00 13 59 04 E6 02 6D 1B 4E 03 BD 02 9D 1B 12 03 C4 02 9C 05 08 00 00 00 00 7B 26
12:29:08.512 设备发送:03 03 05 A2 00 0F A5 02
12:29:13.506 设备接收:03 03 1E 00 0D 00 00 00 00 00 00 00 00 00 00 00 00 00 00 00 00 00 00 00 00 00 00 00 00 00 00 00 00 C1 72
12:29:13.553 设备发送:03 03 05 B1 00 03 54 C2
12:29:18.528 设备接收:03 03 06 00 00 00 00 00 00 38 15
12:29:18.559 设备发送:03 03 04 2B 00 01 F4 D0
12:29:23.593 设备接收:03 03 02 02 D1 00 B8
12:29:23.605 设备发送:03 03 04 20 00 01 85 12
12:29:28.612 设备接收:03 03 02 00 25 00 5F
12:29:28.645 设备发送:03 03 04 05 00 01 94 D9
12:29:33.650 设备接收:03 03 02 00 00 C1 84
12:29:33.666 设备发送:01 03 04 84 00 04 05 10
12:29:38.679 设备接收:01 03 08 13 87 21 70 FF 38 21 72 4D 10
12:29:38.710 设备发送:01 03 04 8D 00 05 14 D2
12:29:43.729 设备接收:01 03 0A 09 0D 2F A5 00 00 00 00 00 00 1B 5B
12:29:43.744 设备发送:01 03 04 98 00 05 05 16
12:29:48.768 设备接收:01 03 0A 09 37 2F A4 00 00 00 00 00 00 21 3A
12:29:48.784 设备发送:01 03 04 A3 00 05 74 DB
12:29:53.798 设备接收:01 03 0A 09 25 2F 8D 00 00 00 00 00 00 4D 58
12:29:53.828 设备发送:01 03 06 84 00 04 04 A8
12:29:58.825 设备接收:01 03 08 00 00 5E 48 00 13 34 B0 9E 16
12:29:58.841 设备发送:01 03 04 04 00 01 C4 FB
12:30:03.848 设备接收:01 03 02 00 02 39 85
12:30:04.252 设备发送:01 03 05 84 00 0F 45 2B
12:30:08.873 设备接收:01 03 1E 1E 9D 07 1C 05 93 1E A0 07 2B 05 9F 1E 9F 07 19 05 90 1E CA 07 20 05 9D 16 59 03 AE 02 1B 24 83
12:30:08.889 设备发送:01 03 05 93 00 0F F5 2F
12:30:13.895 设备接收:01 03 1E 00 00 00 00 00 00 19 AD 07 72 04 E5 1B 03 03 BB 02 94 1B 49 03 BB 02 9B 00 00 00 05 00 00 82 5D
12:30:13.916 设备发送:01 03 05 A2 00 0F A4 E0
12:30:18.941 设备接收:01 03 1E 00 00 00 00 00 00 00 00 00 00 00 00 00 00 00 00 00 00 00 00 00 00 00 00 00 00 00 00 00 00 D8 BA
12:30:18.996 设备发送:01 03 05 B1 00 03 55 20
12:30:23.976 设备接收:01 03 06 00 00 00 00 00 00 21 75
12:30:24.023 设备发送:01 03 04 2B 00 01 F5 32
12:30:29.000 设备接收:01 03 02 02 CE 38 B0
12:30:29.093 设备发送:01 03 04 20 00 01 84 F0
12:30:34.043 设备接收:01 03 02 00 23 F9 9D
12:30:34.058 设备发送:01 03 04 05 00 01 95 3B
12:30:39.071 设备接收:01 03 02 00 00 B8 44
12:30:39.094 设备发送:02 03 04 84 00 04 05 23
12:30:44.082 设备接收:02 03 08 13 88 1F C4 00 3A 1F C4 09 92
12:30:44.114 设备发送:02 03 04 8D 00 05 14 E1
12:30:49.145 设备接收:02 03 0A 09 0C 2D 39 00 00 00 00 00 00 CE D8
12:30:49.174 设备发送:02 03 04 98 00 05 05 25
12:30:54.193 设备接收:02 03 0A 09 35 2D 4D 00 00 00 00 00 00 C4 8E
12:30:54.209 设备发送:02 03 04 A3 00 05 74 E8
12:30:59.205 设备接收:02 03 0A 09 1D 2D 24 00 00 00 00 00 00 C3 89
12:30:59.237 设备发送:02 03 06 84 00 04 04 9B
12:31:04.234 设备接收:02 03 08 00 00 5A 5B 00 13 7C B8 22 D3
12:31:04.262 设备发送:02 03 04 04 00 01 C4 C8
12:31:09.248 设备接收:02 03 02 00 02 7D 85
12:31:09.279 设备发送:02 03 05 84 00 0F 45 18
12:31:14.276 设备接收:02 03 1E 1E 7D 03 7A 02 B7 1E 75 03 72 02 AF 1E 8B 03 7A 02 B8 1E C2 06 D6 05 62 1E 4A 03 71 02 AB 79 05
12:31:14.323 设备发送:02 03 05 93 00 0F F5 1C
12:31:19.306 设备接收:02 03 1E 1E 4C 03 6B 02 A6 1E 2B 03 82 02 B5 1E A2 07 02 05 7F 1E 5C 03 84 02 BB 1E 76 03 99 02 CE AB C7
12:31:19.353 设备发送:02 03 05 A2 00 0F A4 D3
12:31:24.362 设备接收:02 03 1E 00 00 00 04 00 00 00 00 00 00 00 00 00 00 00 00 00 00 00 00 00 00 00 00 00 00 00 00 00 00 92 31
12:31:24.456 设备发送:02 03 05 B1 00 03 55 13
12:31:29.403 设备接收:02 03 06 00 00 00 00 00 00 35 85
12:31:29.419 设备发送:02 03 04 2B 00 01 F5 01
12:31:34.455 设备接收:02 03 02 02 C9 3D 72
12:31:34.472 设备发送:02 03 04 20 00 01 84 C3
12:31:39.446 设备接收:02 03 02 00 48 FC 72
12:31:39.481 设备发送:02 03 04 05 00 01 95 08
12:31:44.495 设备接收:02 03 02 00 00 FC 44
12:31:44.541 设备发送:03 03 04 84 00 04 04 F2
12:31:49.529 设备接收:03 03 08 13 87 21 8E FF 38 21 91 2E F5
12:31:49.544 设备发送:03 03 04 8D 00 05 15 30
12:31:54.533 设备接收:03 03 0A 09 0A 2F E9 00 00 00 00 00 00 B7 ED
12:31:54.573 设备发送:03 03 04 98 00 05 04 F4
12:31:59.580 设备接收:03 03 0A 09 35 2F E6 00 00 00 00 00 00 5D 1C
12:31:59.626 设备发送:03 03 04 A3 00 05 75 39
12:32:04.641 设备接收:03 03 0A 09 21 2F CC 00 00 00 00 00 00 29 DE
12:32:04.661 设备发送:03 03 06 84 00 04 05 4A
12:32:09.693 设备接收:03 03 08 00 00 65 4E 00 14 07 84 BD C3
12:32:09.701 设备发送:03 03 04 04 00 01 C5 19
12:32:14.721 设备接收:03 03 02 00 02 40 45
12:32:14.742 设备发送:03 03 05 84 00 0F 44 C9
12:32:19.737 设备接收:03 03 1E 1E 9B 07 5D 05 C5 1E 7F 07 5E 05 C1 1E 48 07 4F 05 AB 1E 76 07 4A 05 AF 16 35 07 7A 04 40 D9 67
12:32:19.757 设备发送:03 03 05 93 00 0F F4 CD
12:32:24.766 设备接收:03 03 1E 05 06 00 00 00 00 13 67 04 C7 02 5F 1B 4D 03 B1 02 94 1B 37 03 B3 02 94 05 0C 00 00 00 00 01 D1
12:32:24.789 设备发送:03 03 05 A2 00 0F A5 02
12:32:29.796 设备接收:03 03 1E 00 0D 00 00 00 00 00 00 00 00 00 00 00 00 00 00 00 00 00 00 00 00 00 00 00 00 00 00 00 00 C1 72
12:32:29.839 设备发送:03 03 05 B1 00 03 54 C2
12:32:34.836 设备接收:03 03 06 00 00 00 00 00 00 38 15
12:32:34.860 设备发送:03 03 04 2B 00 01 F4 D0
12:32:39.850 设备接收:03 03 02 02 D1 00 B8
12:32:39.902 设备发送:03 03 04 20 00 01 85 12
12:32:44.913 设备接收:03 03 02 00 25 00 5F
12:32:44.927 设备发送:03 03 04 05 00 01 94 D9
12:32:49.928 设备接收:03 03 02 00 00 C1 84
12:32:49.951 设备发送:01 03 04 84 00 04 05 10
12:32:54.927 设备接收:01 03 08 13 87 20 F8 FF BB 20 F9 1C C1
12:32:54.978 设备发送:01 03 04 8D 00 05 14 D2
12:32:59.985 设备接收:01 03 0A 09 0C 2E FA 00 00 00 00 00 00 78 02
12:33:00.028 设备发送:01 03 04 98 00 05 05 16
12:33:05.042 设备接收:01 03 0A 09 31 2F 07 00 00 00 00 00 00 99 90
12:33:05.061 设备发送:01 03 04 A3 00 05 74 DB
12:33:10.080 设备接收:01 03 0A 09 23 2F 04 00 00 00 00 00 00 7E 30
12:33:10.091 设备发送:01 03 06 84 00 04 04 A8
12:33:15.105 设备接收:01 03 08 00 00 60 15 00 13 34 DE F6 E9
12:33:15.126 设备发送:01 03 04 04 00 01 C4 FB
12:33:20.140 设备接收:01 03 02 00 02 39 85
12:33:20.162 设备发送:01 03 05 84 00 0F 45 2B
12:33:25.183 设备接收:01 03 1E 1E C4 07 02 05 85 1E 9E 07 19 05 91 1E 9F 07 06 05 82 1E CA 07 0C 05 8E 16 A9 03 9A 02 17 20 11
12:33:25.205 设备发送:01 03 05 93 00 0F F5 2F
12:33:30.241 设备接收:01 03 1E 00 00 00 00 00 00 19 88 07 6D 04 DA 1B 7E 03 A3 02 8F 1B 76 03 AE 02 96 00 00 00 06 00 00 8E 49
12:33:30.253 设备发送:01 03 05 A2 00 0F A4 E0
12:33:35.286 设备接收:01 03 1E 00 00 00 00 00 00 00 00 00 00 00 00 00 00 00 00 00 00 00 00 00 00 00 00 00 00 00 00 00 00 D8 BA
12:33:35.296 设备发送:01 03 05 B1 00 03 55 20
12:33:40.317 设备接收:01 03 06 00 00 00 00 00 00 21 75
12:33:40.327 设备发送:01 03 04 2B 00 01 F5 32
12:33:45.333 设备接收:01 03 02 02 CE 38 B0
12:33:45.342 设备发送:01 03 04 20 00 01 84 F0
12:33:50.353 设备接收:01 03 02 00 23 F9 9D
12:33:50.375 设备发送:01 03 04 05 00 01 95 3B
12:33:55.363 设备接收:01 03 02 00 00 B8 44
12:33:55.413 设备发送:02 03 04 84 00 04 05 23
12:34:00.403 设备接收:02 03 08 13 85 1F B6 00 37 1F B6 FC BF
12:34:00.414 设备发送:02 03 04 8D 00 05 14 E1
12:34:05.422 设备接收:02 03 0A 09 0A 2D 46 00 00 00 00 00 00 6B BF
12:34:05.471 设备发送:02 03 04 98 00 05 05 25

